!Agilent Technologies,E5071C,MY46109397,A.09.54
!Date: Mon Jan 01 01:33:54 2001
!Data & Calibration Information:
!Freq	S11:SOLT1(ON)
# Hz S RI R 50
9000	1.010281e+000	1.278516e-002
13955	9.994408e-001	1.165364e-003
18910	9.988385e-001	-8.277197e-004
23865	9.990443e-001	-2.800011e-003
28820	9.986928e-001	-3.850443e-003
33775	9.988102e-001	-4.875455e-003
38730	9.985709e-001	-5.622133e-003
43685	9.985532e-001	-6.401608e-003
48640	9.985752e-001	-7.117552e-003
53595	9.983446e-001	-7.800160e-003
58550	9.983013e-001	-8.394548e-003
63505	9.981754e-001	-9.056778e-003
68460	9.983037e-001	-9.601027e-003
73415	9.981534e-001	-1.030300e-002
78370	9.981083e-001	-1.085517e-002
83325	9.980152e-001	-1.152469e-002
88280	9.979497e-001	-1.214061e-002
93235	9.978433e-001	-1.259081e-002
98190	9.978225e-001	-1.316868e-002
103145	9.977266e-001	-1.369973e-002
108100	9.976330e-001	-1.438844e-002
113055	9.977479e-001	-1.487186e-002
118010	9.975279e-001	-1.543880e-002
122965	9.975958e-001	-1.606968e-002
127920	9.974310e-001	-1.653383e-002
132875	9.973882e-001	-1.718250e-002
137830	9.973113e-001	-1.782198e-002
142785	9.974249e-001	-1.838696e-002
147740	9.973383e-001	-1.885819e-002
152695	9.971407e-001	-1.935308e-002
157650	9.970918e-001	-2.003911e-002
162605	9.969805e-001	-2.051785e-002
167560	9.969315e-001	-2.101431e-002
172515	9.969532e-001	-2.158072e-002
177470	9.969252e-001	-2.217967e-002
182425	9.968679e-001	-2.260208e-002
187380	9.967269e-001	-2.327739e-002
192335	9.966685e-001	-2.377688e-002
197290	9.965993e-001	-2.419357e-002
202245	9.964710e-001	-2.465708e-002
207200	9.964923e-001	-2.531782e-002
212155	9.964787e-001	-2.578979e-002
217110	9.962522e-001	-2.640242e-002
222065	9.963062e-001	-2.685642e-002
227020	9.962969e-001	-2.739624e-002
231975	9.960286e-001	-2.794675e-002
236930	9.960703e-001	-2.864478e-002
241885	9.959654e-001	-2.901500e-002
246840	9.960064e-001	-2.951000e-002
251795	9.958214e-001	-3.012561e-002
256750	9.957769e-001	-3.059690e-002
261705	9.957395e-001	-3.116413e-002
266660	9.955945e-001	-3.171731e-002
271615	9.955500e-001	-3.219906e-002
276570	9.954756e-001	-3.267552e-002
281525	9.955383e-001	-3.314977e-002
286480	9.953006e-001	-3.367784e-002
291435	9.952531e-001	-3.430506e-002
296390	9.951856e-001	-3.475560e-002
301345	9.951031e-001	-3.521979e-002
306300	9.949978e-001	-3.584788e-002
311255	9.949580e-001	-3.629729e-002
316210	9.948679e-001	-3.691460e-002
321165	9.947780e-001	-3.729181e-002
326120	9.947477e-001	-3.778405e-002
331075	9.945908e-001	-3.830471e-002
336030	9.946054e-001	-3.883814e-002
340985	9.944085e-001	-3.932935e-002
345940	9.943388e-001	-3.993514e-002
350895	9.941692e-001	-4.041979e-002
355850	9.941748e-001	-4.088372e-002
360805	9.941647e-001	-4.134366e-002
365760	9.940436e-001	-4.206376e-002
370715	9.939126e-001	-4.248067e-002
375670	9.938791e-001	-4.288120e-002
380625	9.936940e-001	-4.349294e-002
385580	9.936478e-001	-4.400825e-002
390535	9.936812e-001	-4.445847e-002
395490	9.935570e-001	-4.503280e-002
400445	9.933490e-001	-4.548830e-002
405400	9.933510e-001	-4.605115e-002
410355	9.932048e-001	-4.642414e-002
415310	9.931280e-001	-4.701480e-002
420265	9.930561e-001	-4.752317e-002
425220	9.929488e-001	-4.793859e-002
430175	9.928335e-001	-4.843923e-002
435130	9.926937e-001	-4.901873e-002
440085	9.926606e-001	-4.953428e-002
445040	9.925254e-001	-4.999129e-002
449995	9.925161e-001	-5.058877e-002
454950	9.923893e-001	-5.098915e-002
459905	9.922868e-001	-5.147841e-002
464860	9.921642e-001	-5.200544e-002
469815	9.920881e-001	-5.248476e-002
474770	9.919583e-001	-5.298790e-002
479725	9.918469e-001	-5.352799e-002
484680	9.918504e-001	-5.414296e-002
489635	9.918061e-001	-5.466312e-002
494590	9.917129e-001	-5.504480e-002
499545	9.915655e-001	-5.555680e-002
504500	9.913714e-001	-5.602852e-002
509455	9.913571e-001	-5.655685e-002
514410	9.912156e-001	-5.700506e-002
519365	9.910197e-001	-5.754830e-002
524320	9.910011e-001	-5.811405e-002
529275	9.908712e-001	-5.856703e-002
534230	9.907517e-001	-5.921373e-002
539185	9.906947e-001	-5.960474e-002
544140	9.906230e-001	-6.006237e-002
549095	9.905261e-001	-6.059359e-002
554050	9.903904e-001	-6.107922e-002
559005	9.902795e-001	-6.145763e-002
563960	9.901385e-001	-6.199714e-002
568915	9.899631e-001	-6.256150e-002
573870	9.898945e-001	-6.313793e-002
578825	9.898179e-001	-6.358093e-002
583780	9.897855e-001	-6.387416e-002
588735	9.896181e-001	-6.450664e-002
593690	9.896736e-001	-6.507598e-002
598645	9.893421e-001	-6.545960e-002
603600	9.893266e-001	-6.591099e-002
608555	9.891026e-001	-6.650419e-002
613510	9.889699e-001	-6.706237e-002
618465	9.888784e-001	-6.745598e-002
623420	9.888428e-001	-6.797210e-002
628375	9.886081e-001	-6.858756e-002
633330	9.884986e-001	-6.906301e-002
638285	9.884902e-001	-6.956976e-002
643240	9.882860e-001	-7.005781e-002
648195	9.882904e-001	-7.043569e-002
653150	9.881114e-001	-7.091820e-002
658105	9.879450e-001	-7.141885e-002
663060	9.878959e-001	-7.192217e-002
668015	9.876365e-001	-7.237012e-002
672970	9.876716e-001	-7.283029e-002
677925	9.874566e-001	-7.337852e-002
682880	9.874085e-001	-7.396204e-002
687835	9.872960e-001	-7.441239e-002
692790	9.870544e-001	-7.502508e-002
697745	9.869929e-001	-7.540631e-002
702700	9.868177e-001	-7.597268e-002
707655	9.868057e-001	-7.644224e-002
712610	9.866277e-001	-7.695304e-002
717565	9.865573e-001	-7.755161e-002
722520	9.864947e-001	-7.793019e-002
727475	9.862136e-001	-7.838188e-002
732430	9.860576e-001	-7.888361e-002
737385	9.859602e-001	-7.945100e-002
742340	9.858423e-001	-7.991068e-002
747295	9.856367e-001	-8.036277e-002
752250	9.856059e-001	-8.097054e-002
757205	9.855430e-001	-8.149536e-002
762160	9.852478e-001	-8.195150e-002
767115	9.852513e-001	-8.241138e-002
772070	9.850785e-001	-8.287215e-002
777025	9.848827e-001	-8.338046e-002
781980	9.847410e-001	-8.394470e-002
786935	9.846562e-001	-8.451269e-002
791890	9.844803e-001	-8.498112e-002
796845	9.843723e-001	-8.545185e-002
801800	9.841024e-001	-8.589681e-002
806755	9.840294e-001	-8.622522e-002
811710	9.838605e-001	-8.686117e-002
816665	9.837339e-001	-8.735583e-002
821620	9.837145e-001	-8.777566e-002
826575	9.834725e-001	-8.823048e-002
831530	9.833787e-001	-8.886552e-002
836485	9.831814e-001	-8.933331e-002
841440	9.830878e-001	-8.990464e-002
846395	9.829372e-001	-9.030459e-002
851350	9.827186e-001	-9.075311e-002
856305	9.825853e-001	-9.124569e-002
861260	9.825376e-001	-9.172410e-002
866215	9.824393e-001	-9.229274e-002
871170	9.822704e-001	-9.283075e-002
876125	9.820184e-001	-9.329346e-002
881080	9.818143e-001	-9.367731e-002
886035	9.818067e-001	-9.418289e-002
890990	9.816212e-001	-9.483576e-002
895945	9.814012e-001	-9.532116e-002
900900	9.812345e-001	-9.588809e-002
905855	9.811405e-001	-9.622876e-002
910810	9.809516e-001	-9.660895e-002
915765	9.808070e-001	-9.740653e-002
920720	9.805956e-001	-9.793261e-002
925675	9.804118e-001	-9.827437e-002
930630	9.804249e-001	-9.878562e-002
935585	9.801443e-001	-9.923608e-002
940540	9.799983e-001	-9.976980e-002
945495	9.798630e-001	-1.002113e-001
950450	9.795938e-001	-1.007440e-001
955405	9.794685e-001	-1.011397e-001
960360	9.793949e-001	-1.017120e-001
965315	9.792735e-001	-1.020489e-001
970270	9.790467e-001	-1.027014e-001
975225	9.788575e-001	-1.032013e-001
980180	9.787164e-001	-1.036640e-001
985135	9.784595e-001	-1.041120e-001
990090	9.784646e-001	-1.047324e-001
995045	9.782355e-001	-1.051431e-001
1000000	9.781376e-001	-1.056523e-001
