!Agilent Technologies,E5071C,MY46109397,A.09.54
!Date: Mon Jan 01 01:35:31 2001
!Data & Calibration Information:
!Freq	S11:SOLT1(ON)
# Hz S RI R 50
9000	-5.446834e-001	1.904984e-001
13955	-9.441831e-001	-7.197744e-002
18910	-8.938988e-001	5.690850e-002
23865	-9.888063e-001	6.724821e-002
28820	-9.719347e-001	7.512199e-002
33775	-9.607103e-001	1.602474e-002
38730	-1.013065e+000	3.989590e-002
43685	-1.001798e+000	5.265520e-002
48640	-9.590666e-001	7.582026e-002
53595	-9.173643e-001	2.113160e-002
58550	-9.691548e-001	-3.297507e-002
63505	-9.995300e-001	-9.022667e-003
68460	-1.008969e+000	3.273915e-003
73415	-1.013543e+000	1.723044e-002
78370	-1.012191e+000	2.796337e-002
83325	-1.008598e+000	3.668390e-002
88280	-1.001871e+000	4.378152e-002
93235	-9.924767e-001	4.397314e-002
98190	-9.887084e-001	3.679923e-002
103145	-9.937406e-001	2.974419e-002
108100	-1.002067e+000	2.999788e-002
113055	-1.008619e+000	3.525456e-002
118010	-1.012368e+000	4.143323e-002
122965	-1.014439e+000	4.753790e-002
127920	-1.015422e+000	5.361902e-002
132875	-1.016297e+000	5.926652e-002
137830	-1.015512e+000	6.286876e-002
142785	-1.016198e+000	6.812763e-002
147740	-1.015106e+000	7.289541e-002
152695	-1.014700e+000	7.772091e-002
157650	-1.014017e+000	8.180283e-002
162605	-1.013382e+000	8.598982e-002
167560	-1.012850e+000	9.008228e-002
172515	-1.012047e+000	9.401095e-002
177470	-1.011397e+000	9.778643e-002
182425	-1.010580e+000	1.016459e-001
187380	-1.009671e+000	1.054462e-001
192335	-1.008890e+000	1.090291e-001
197290	-1.008073e+000	1.128037e-001
202245	-1.007256e+000	1.162878e-001
207200	-1.006075e+000	1.201585e-001
212155	-1.005152e+000	1.236022e-001
217110	-1.004286e+000	1.271863e-001
222065	-1.003329e+000	1.305780e-001
227020	-1.002333e+000	1.341775e-001
231975	-1.001335e+000	1.376619e-001
236930	-1.000217e+000	1.410855e-001
241885	-9.991969e-001	1.445095e-001
246840	-9.980130e-001	1.480539e-001
251795	-9.969147e-001	1.514646e-001
256750	-9.959527e-001	1.551508e-001
261705	-9.947474e-001	1.585390e-001
266660	-9.936393e-001	1.620300e-001
271615	-9.923821e-001	1.654586e-001
276570	-9.911569e-001	1.691841e-001
281525	-9.896882e-001	1.725728e-001
286480	-9.883694e-001	1.759669e-001
291435	-9.871594e-001	1.795285e-001
296390	-9.858652e-001	1.829835e-001
301345	-9.841611e-001	1.864781e-001
306300	-9.826793e-001	1.899122e-001
311255	-9.813624e-001	1.934163e-001
316210	-9.796492e-001	1.969979e-001
321165	-9.778235e-001	2.003233e-001
326120	-9.763259e-001	2.039237e-001
331075	-9.745879e-001	2.074268e-001
336030	-9.726458e-001	2.107758e-001
340985	-9.707736e-001	2.141920e-001
345940	-9.686267e-001	2.172177e-001
350895	-9.668044e-001	2.208611e-001
355850	-9.652082e-001	2.252937e-001
360805	-9.633963e-001	2.289238e-001
365760	-9.615820e-001	2.330838e-001
370715	-9.596524e-001	2.371337e-001
375670	-9.572773e-001	2.404771e-001
380625	-9.550081e-001	2.442359e-001
385580	-9.525029e-001	2.476296e-001
390535	-9.499875e-001	2.509936e-001
395490	-9.477552e-001	2.549070e-001
400445	-9.454450e-001	2.590737e-001
405400	-9.430114e-001	2.634012e-001
410355	-9.407226e-001	2.676030e-001
415310	-9.380484e-001	2.723879e-001
420265	-9.353454e-001	2.773376e-001
425220	-9.324058e-001	2.820974e-001
430175	-9.291850e-001	2.865364e-001
435130	-9.254060e-001	2.905357e-001
440085	-9.212576e-001	2.939139e-001
445040	-9.174238e-001	2.981559e-001
449995	-9.134084e-001	3.025633e-001
454950	-9.091284e-001	3.069928e-001
459905	-9.045545e-001	3.116271e-001
464860	-8.998470e-001	3.166863e-001
469815	-8.952606e-001	3.224655e-001
474770	-8.896773e-001	3.260104e-001
479725	-8.840914e-001	3.307689e-001
484680	-8.778267e-001	3.333245e-001
489635	-8.712898e-001	3.364220e-001
494590	-8.646367e-001	3.416276e-001
499545	-8.575439e-001	3.466596e-001
504500	-8.499889e-001	3.526140e-001
509455	-8.416288e-001	3.570619e-001
514410	-8.323026e-001	3.634557e-001
519365	-8.230979e-001	3.678059e-001
524320	-8.125559e-001	3.733458e-001
529275	-8.011670e-001	3.770506e-001
534230	-7.888778e-001	3.791360e-001
539185	-7.759845e-001	3.825323e-001
544140	-7.616422e-001	3.856019e-001
549095	-7.462520e-001	3.881145e-001
554050	-7.293720e-001	3.891626e-001
559005	-7.111942e-001	3.893143e-001
563960	-6.916184e-001	3.874101e-001
568915	-6.711491e-001	3.814407e-001
573870	-6.491087e-001	3.763006e-001
578825	-6.290869e-001	3.638756e-001
583780	-6.058044e-001	3.509930e-001
588735	-5.828270e-001	3.335168e-001
593690	-5.603938e-001	3.119776e-001
598645	-5.332901e-001	2.868727e-001
603600	-5.166970e-001	2.553355e-001
608555	-5.060525e-001	2.184674e-001
613510	-4.971226e-001	1.779660e-001
618465	-4.946852e-001	1.357487e-001
623420	-5.037514e-001	9.291836e-002
628375	-5.249449e-001	5.401500e-002
633330	-5.459310e-001	1.660358e-002
638285	-5.751433e-001	-1.340553e-002
643240	-6.100536e-001	-3.420215e-002
648195	-6.445113e-001	-5.038571e-002
653150	-6.788412e-001	-6.076086e-002
658105	-7.119541e-001	-6.505056e-002
663060	-7.439082e-001	-6.254481e-002
668015	-7.717014e-001	-5.863844e-002
672970	-7.973268e-001	-5.188815e-002
677925	-8.196759e-001	-4.138275e-002
682880	-8.393967e-001	-3.074126e-002
687835	-8.560637e-001	-1.842145e-002
692790	-8.724334e-001	-9.284105e-003
697745	-8.857734e-001	2.333354e-003
702700	-8.974773e-001	1.401709e-002
707655	-9.074923e-001	2.566618e-002
712610	-9.160569e-001	3.688539e-002
717565	-9.232778e-001	4.824476e-002
722520	-9.289009e-001	5.973772e-002
727475	-9.338782e-001	7.064313e-002
732430	-9.382077e-001	8.082005e-002
737385	-9.418917e-001	9.049043e-002
742340	-9.450990e-001	9.983323e-002
747295	-9.477987e-001	1.087189e-001
752250	-9.501095e-001	1.171156e-001
757205	-9.518961e-001	1.254526e-001
762160	-9.532326e-001	1.333534e-001
767115	-9.542720e-001	1.410330e-001
772070	-9.549758e-001	1.484641e-001
777025	-9.554841e-001	1.556214e-001
781980	-9.558354e-001	1.625163e-001
786935	-9.560434e-001	1.691075e-001
791890	-9.561239e-001	1.754708e-001
796845	-9.559360e-001	1.815094e-001
801800	-9.557400e-001	1.873408e-001
806755	-9.554304e-001	1.929948e-001
811710	-9.550024e-001	1.986133e-001
816665	-9.544819e-001	2.039555e-001
821620	-9.538854e-001	2.091319e-001
826575	-9.532493e-001	2.141888e-001
831530	-9.525624e-001	2.190226e-001
836485	-9.517186e-001	2.236611e-001
841440	-9.509325e-001	2.283129e-001
846395	-9.499930e-001	2.328152e-001
851350	-9.491602e-001	2.372741e-001
856305	-9.484378e-001	2.417747e-001
861260	-9.471718e-001	2.456246e-001
866215	-9.461162e-001	2.497705e-001
871170	-9.450949e-001	2.538024e-001
876125	-9.439785e-001	2.575783e-001
881080	-9.428418e-001	2.614038e-001
886035	-9.417863e-001	2.651655e-001
890990	-9.406095e-001	2.687302e-001
895945	-9.394805e-001	2.723564e-001
900900	-9.383864e-001	2.758756e-001
905855	-9.371943e-001	2.792978e-001
910810	-9.359394e-001	2.826381e-001
915765	-9.347358e-001	2.860220e-001
920720	-9.335276e-001	2.892175e-001
925675	-9.322520e-001	2.922011e-001
930630	-9.310418e-001	2.955281e-001
935585	-9.297952e-001	2.986625e-001
940540	-9.285833e-001	3.015355e-001
945495	-9.273218e-001	3.044979e-001
950450	-9.259581e-001	3.074734e-001
955405	-9.247081e-001	3.102738e-001
960360	-9.233504e-001	3.133242e-001
965315	-9.221167e-001	3.161994e-001
970270	-9.209018e-001	3.189391e-001
975225	-9.195424e-001	3.218015e-001
980180	-9.182349e-001	3.245865e-001
985135	-9.169295e-001	3.273677e-001
990090	-9.156772e-001	3.300179e-001
995045	-9.142999e-001	3.324649e-001
1000000	-9.129307e-001	3.352226e-001
