!Agilent Technologies,E5071C,MY46109397,A.09.54
!Date: Mon Jan 01 01:37:37 2001
!Data & Calibration Information:
!Freq	S11:SOLT1(ON)
# Hz S RI R 50
9000	3.452251e-001	-9.956598e-001
13955	-2.989998e-001	-8.655220e-001
18910	-5.384392e-001	-7.811825e-001
23865	-7.123031e-001	-6.782846e-001
28820	-8.016525e-001	-5.854195e-001
33775	-8.586495e-001	-5.104586e-001
38730	-8.937575e-001	-4.482684e-001
43685	-9.186993e-001	-3.988034e-001
48640	-9.367643e-001	-3.565661e-001
53595	-9.497915e-001	-3.211183e-001
58550	-9.598178e-001	-2.909011e-001
63505	-9.671269e-001	-2.644719e-001
68460	-9.733023e-001	-2.415730e-001
73415	-9.780290e-001	-2.209910e-001
78370	-9.819946e-001	-2.025121e-001
83325	-9.850637e-001	-1.862148e-001
88280	-9.880641e-001	-1.710935e-001
93235	-9.900724e-001	-1.572735e-001
98190	-9.918831e-001	-1.445636e-001
103145	-9.932915e-001	-1.330046e-001
108100	-9.946156e-001	-1.219546e-001
113055	-9.958662e-001	-1.119675e-001
118010	-9.966721e-001	-1.024568e-001
122965	-9.974943e-001	-9.348069e-002
127920	-9.980746e-001	-8.497351e-002
132875	-9.986216e-001	-7.704247e-002
137830	-9.990616e-001	-6.938434e-002
142785	-9.993388e-001	-6.210004e-002
147740	-9.997524e-001	-5.520510e-002
152695	-9.999203e-001	-4.854676e-002
157650	-1.000047e+000	-4.224915e-002
162605	-1.000222e+000	-3.613718e-002
167560	-1.000313e+000	-3.020302e-002
172515	-1.000394e+000	-2.451092e-002
177470	-1.000435e+000	-1.904270e-002
182425	-1.000496e+000	-1.372465e-002
187380	-1.000262e+000	-8.467942e-003
192335	-1.000255e+000	-3.376000e-003
197290	-1.000199e+000	1.456161e-003
202245	-1.000059e+000	6.280148e-003
207200	-9.998902e-001	1.095309e-002
212155	-9.997547e-001	1.537719e-002
217110	-9.995278e-001	1.991620e-002
222065	-9.993950e-001	2.427214e-002
227020	-9.992093e-001	2.853697e-002
231975	-9.989917e-001	3.266884e-002
236930	-9.987550e-001	3.684777e-002
241885	-9.985438e-001	4.087143e-002
246840	-9.982678e-001	4.483096e-002
251795	-9.979865e-001	4.873183e-002
256750	-9.977571e-001	5.260006e-002
261705	-9.974507e-001	5.631968e-002
266660	-9.971952e-001	6.003210e-002
271615	-9.968914e-001	6.372152e-002
276570	-9.965840e-001	6.732365e-002
281525	-9.962038e-001	7.089621e-002
286480	-9.959050e-001	7.446083e-002
291435	-9.955858e-001	7.792232e-002
296390	-9.952832e-001	8.134657e-002
301345	-9.948528e-001	8.477914e-002
306300	-9.945246e-001	8.815355e-002
311255	-9.941472e-001	9.146880e-002
316210	-9.937333e-001	9.481248e-002
321165	-9.934219e-001	9.806592e-002
326120	-9.929699e-001	1.013254e-001
331075	-9.925737e-001	1.045213e-001
336030	-9.921479e-001	1.077363e-001
340985	-9.917387e-001	1.109256e-001
345940	-9.913708e-001	1.139876e-001
350895	-9.909636e-001	1.171351e-001
355850	-9.905232e-001	1.202465e-001
360805	-9.901189e-001	1.233187e-001
365760	-9.896852e-001	1.263343e-001
370715	-9.892371e-001	1.293575e-001
375670	-9.887494e-001	1.323545e-001
380625	-9.882644e-001	1.353584e-001
385580	-9.878327e-001	1.382987e-001
390535	-9.873573e-001	1.412435e-001
395490	-9.869037e-001	1.441623e-001
400445	-9.864380e-001	1.470499e-001
405400	-9.858308e-001	1.499428e-001
410355	-9.854698e-001	1.528311e-001
415310	-9.849605e-001	1.556750e-001
420265	-9.844969e-001	1.584876e-001
425220	-9.839401e-001	1.613355e-001
430175	-9.834401e-001	1.642134e-001
435130	-9.829036e-001	1.670425e-001
440085	-9.824052e-001	1.697229e-001
445040	-9.818678e-001	1.725164e-001
449995	-9.813109e-001	1.752420e-001
454950	-9.808616e-001	1.780373e-001
459905	-9.802522e-001	1.807090e-001
464860	-9.797483e-001	1.835225e-001
469815	-9.791856e-001	1.861956e-001
474770	-9.786100e-001	1.889285e-001
479725	-9.780326e-001	1.916044e-001
484680	-9.774462e-001	1.942983e-001
489635	-9.769128e-001	1.968523e-001
494590	-9.762829e-001	1.995431e-001
499545	-9.757473e-001	2.022897e-001
504500	-9.751519e-001	2.049041e-001
509455	-9.745960e-001	2.075246e-001
514410	-9.739514e-001	2.101021e-001
519365	-9.733831e-001	2.127694e-001
524320	-9.727582e-001	2.153300e-001
529275	-9.721763e-001	2.179602e-001
534230	-9.715839e-001	2.205101e-001
539185	-9.709537e-001	2.231474e-001
544140	-9.702787e-001	2.256782e-001
549095	-9.696766e-001	2.282744e-001
554050	-9.690674e-001	2.307594e-001
559005	-9.684108e-001	2.333924e-001
563960	-9.677914e-001	2.359213e-001
568915	-9.671059e-001	2.384695e-001
573870	-9.664827e-001	2.409568e-001
578825	-9.657805e-001	2.435296e-001
583780	-9.650878e-001	2.459205e-001
588735	-9.644523e-001	2.484439e-001
593690	-9.637961e-001	2.510193e-001
598645	-9.631401e-001	2.534675e-001
603600	-9.624838e-001	2.559245e-001
608555	-9.617967e-001	2.584213e-001
613510	-9.611191e-001	2.609377e-001
618465	-9.604155e-001	2.633590e-001
623420	-9.596852e-001	2.658807e-001
628375	-9.590001e-001	2.682725e-001
633330	-9.582902e-001	2.707665e-001
638285	-9.575838e-001	2.732327e-001
643240	-9.568505e-001	2.756123e-001
648195	-9.561649e-001	2.780085e-001
653150	-9.554316e-001	2.805019e-001
658105	-9.546758e-001	2.828954e-001
663060	-9.539169e-001	2.853493e-001
668015	-9.531826e-001	2.877890e-001
672970	-9.524499e-001	2.900858e-001
677925	-9.517031e-001	2.924891e-001
682880	-9.509485e-001	2.948154e-001
687835	-9.501715e-001	2.972666e-001
692790	-9.494151e-001	2.996820e-001
697745	-9.486545e-001	3.020558e-001
702700	-9.479269e-001	3.044048e-001
707655	-9.470877e-001	3.067577e-001
712610	-9.463177e-001	3.090759e-001
717565	-9.455524e-001	3.114981e-001
722520	-9.445703e-001	3.139269e-001
727475	-9.440029e-001	3.162118e-001
732430	-9.432163e-001	3.185181e-001
737385	-9.423410e-001	3.208584e-001
742340	-9.415786e-001	3.232331e-001
747295	-9.408374e-001	3.255336e-001
752250	-9.399684e-001	3.278159e-001
757205	-9.391941e-001	3.301180e-001
762160	-9.382969e-001	3.325128e-001
767115	-9.374921e-001	3.347804e-001
772070	-9.366452e-001	3.370700e-001
777025	-9.358012e-001	3.393792e-001
781980	-9.349628e-001	3.416554e-001
786935	-9.341098e-001	3.439998e-001
791890	-9.332902e-001	3.463149e-001
796845	-9.324550e-001	3.485732e-001
801800	-9.315616e-001	3.508473e-001
806755	-9.307466e-001	3.530705e-001
811710	-9.298804e-001	3.553530e-001
816665	-9.289955e-001	3.576606e-001
821620	-9.281168e-001	3.599415e-001
826575	-9.272728e-001	3.622062e-001
831530	-9.264160e-001	3.644588e-001
836485	-9.254583e-001	3.665997e-001
841440	-9.245853e-001	3.689451e-001
846395	-9.236516e-001	3.711721e-001
851350	-9.228240e-001	3.733891e-001
856305	-9.220111e-001	3.758841e-001
861260	-9.210243e-001	3.778368e-001
866215	-9.200698e-001	3.800762e-001
871170	-9.191576e-001	3.822763e-001
876125	-9.182770e-001	3.844591e-001
881080	-9.172815e-001	3.867462e-001
886035	-9.163780e-001	3.889718e-001
890990	-9.154631e-001	3.911612e-001
895945	-9.145174e-001	3.934185e-001
900900	-9.136636e-001	3.955801e-001
905855	-9.126752e-001	3.977834e-001
910810	-9.116915e-001	3.999502e-001
915765	-9.107242e-001	4.021275e-001
920720	-9.098120e-001	4.043119e-001
925675	-9.088754e-001	4.064330e-001
930630	-9.079084e-001	4.086668e-001
935585	-9.069560e-001	4.108617e-001
940540	-9.059578e-001	4.129858e-001
945495	-9.050014e-001	4.151622e-001
950450	-9.039109e-001	4.173268e-001
955405	-9.029685e-001	4.194381e-001
960360	-9.019629e-001	4.215957e-001
965315	-9.009904e-001	4.236994e-001
970270	-9.000755e-001	4.259812e-001
975225	-8.989934e-001	4.280578e-001
980180	-8.979888e-001	4.301975e-001
985135	-8.970067e-001	4.323893e-001
990090	-8.960194e-001	4.344858e-001
995045	-8.949753e-001	4.366279e-001
1000000	-8.939823e-001	4.387801e-001
