!Agilent Technologies,E5071C,MY46109397,A.09.54
!Date: Mon Jan 01 01:38:14 2001
!Data & Calibration Information:
!Freq	S11:SOLT1(ON)
# Hz S RI R 50
9000	-1.154480e+000	3.136422e-001
13955	-7.954366e-001	1.507929e-001
18910	-8.893932e-001	3.397187e-002
23865	-9.652845e-001	5.108625e-002
28820	-9.798730e-001	3.680814e-002
33775	-9.687333e-001	-1.305032e-002
38730	-1.008157e+000	2.740625e-002
43685	-9.924989e-001	4.886098e-002
48640	-9.368929e-001	5.301738e-002
53595	-9.142034e-001	-1.339975e-002
58550	-9.858475e-001	-2.886185e-002
63505	-1.003008e+000	-1.048671e-002
68460	-1.010401e+000	1.313489e-003
73415	-1.009313e+000	1.647581e-002
78370	-1.005415e+000	2.945180e-002
83325	-9.958030e-001	3.914310e-002
88280	-9.803871e-001	4.391697e-002
93235	-9.631581e-001	3.627402e-002
98190	-9.639726e-001	1.930921e-002
103145	-9.755146e-001	1.642591e-002
108100	-9.840504e-001	2.131552e-002
113055	-9.858021e-001	3.516280e-002
118010	-9.784972e-001	4.734642e-002
122965	-9.573245e-001	6.209532e-002
127920	-9.235485e-001	6.517268e-002
132875	-8.847330e-001	3.916373e-002
137830	-8.760318e-001	-2.182364e-002
142785	-9.096828e-001	-6.273689e-002
147740	-9.499966e-001	-7.009723e-002
152695	-9.777219e-001	-6.243633e-002
157650	-9.946700e-001	-5.193549e-002
162605	-1.002485e+000	-4.112224e-002
167560	-1.009051e+000	-3.160349e-002
172515	-1.013534e+000	-2.414009e-002
177470	-1.015909e+000	-1.799353e-002
182425	-1.018185e+000	-1.134417e-002
187380	-1.019499e+000	-7.162106e-003
192335	-1.020217e+000	-2.508798e-003
197290	-1.021269e+000	2.058885e-003
202245	-1.022054e+000	6.037463e-003
207200	-1.022202e+000	9.947294e-003
212155	-1.022561e+000	1.264851e-002
217110	-1.022777e+000	1.634841e-002
222065	-1.023156e+000	1.927754e-002
227020	-1.023344e+000	2.193670e-002
231975	-1.023254e+000	2.464020e-002
236930	-1.023266e+000	2.733831e-002
241885	-1.023407e+000	2.994809e-002
246840	-1.023325e+000	3.229480e-002
251795	-1.023460e+000	3.469970e-002
256750	-1.023318e+000	3.709323e-002
261705	-1.023325e+000	3.915847e-002
266660	-1.023295e+000	4.129739e-002
271615	-1.023154e+000	4.347099e-002
276570	-1.023078e+000	4.557672e-002
281525	-1.022883e+000	4.761931e-002
286480	-1.022885e+000	4.970063e-002
291435	-1.022729e+000	5.167659e-002
296390	-1.022706e+000	5.363281e-002
301345	-1.022461e+000	5.558821e-002
306300	-1.022291e+000	5.747754e-002
311255	-1.022196e+000	5.936051e-002
316210	-1.021914e+000	6.134662e-002
321165	-1.021824e+000	6.315199e-002
326120	-1.021636e+000	6.501923e-002
331075	-1.021461e+000	6.684202e-002
336030	-1.021239e+000	6.871575e-002
340985	-1.021032e+000	7.054964e-002
345940	-1.020863e+000	7.226639e-002
350895	-1.020630e+000	7.415851e-002
355850	-1.020483e+000	7.589063e-002
360805	-1.020086e+000	7.758489e-002
365760	-1.019671e+000	7.921985e-002
370715	-1.019324e+000	8.092268e-002
375670	-1.018991e+000	8.263117e-002
380625	-1.018626e+000	8.437026e-002
385580	-1.018303e+000	8.614117e-002
390535	-1.018126e+000	8.802588e-002
395490	-1.017980e+000	8.978229e-002
400445	-1.017763e+000	9.163098e-002
405400	-1.017507e+000	9.353722e-002
410355	-1.017428e+000	9.550605e-002
415310	-1.017043e+000	9.726736e-002
420265	-1.016834e+000	9.913646e-002
425220	-1.016614e+000	1.011636e-001
430175	-1.016263e+000	1.030990e-001
435130	-1.015901e+000	1.049769e-001
440085	-1.015501e+000	1.068355e-001
445040	-1.015120e+000	1.087661e-001
449995	-1.014741e+000	1.107697e-001
454950	-1.014337e+000	1.127125e-001
459905	-1.013732e+000	1.145938e-001
464860	-1.013077e+000	1.164031e-001
469815	-1.012542e+000	1.183597e-001
474770	-1.011896e+000	1.202906e-001
479725	-1.011252e+000	1.222620e-001
484680	-1.010574e+000	1.243576e-001
489635	-1.009990e+000	1.264531e-001
494590	-1.009351e+000	1.288606e-001
499545	-1.008882e+000	1.312439e-001
504500	-1.008176e+000	1.335720e-001
509455	-1.007279e+000	1.357962e-001
514410	-1.006344e+000	1.380706e-001
519365	-1.005403e+000	1.406106e-001
524320	-1.004327e+000	1.429118e-001
529275	-1.003201e+000	1.454803e-001
534230	-1.002101e+000	1.480970e-001
539185	-1.000802e+000	1.508264e-001
544140	-9.994032e-001	1.535954e-001
549095	-9.978424e-001	1.563709e-001
554050	-9.961018e-001	1.592782e-001
559005	-9.941984e-001	1.622844e-001
563960	-9.918257e-001	1.646916e-001
568915	-9.893407e-001	1.675873e-001
573870	-9.867309e-001	1.703711e-001
578825	-9.835817e-001	1.733224e-001
583780	-9.803375e-001	1.764480e-001
588735	-9.766241e-001	1.798433e-001
593690	-9.725749e-001	1.844533e-001
598645	-9.678061e-001	1.886577e-001
603600	-9.620612e-001	1.903895e-001
608555	-9.558548e-001	1.934240e-001
613510	-9.486124e-001	1.962581e-001
618465	-9.404897e-001	1.989512e-001
623420	-9.310424e-001	2.000378e-001
628375	-9.202670e-001	2.004848e-001
633330	-9.070875e-001	2.014254e-001
638285	-8.935893e-001	1.980917e-001
643240	-8.797592e-001	1.912938e-001
648195	-8.667866e-001	1.804510e-001
653150	-8.550043e-001	1.661603e-001
658105	-8.456447e-001	1.483871e-001
663060	-8.417798e-001	1.277365e-001
668015	-8.434926e-001	1.063684e-001
672970	-8.507019e-001	8.642526e-002
677925	-8.620360e-001	6.946598e-002
682880	-8.769561e-001	5.731422e-002
687835	-8.924684e-001	4.945528e-002
692790	-9.082920e-001	4.659059e-002
697745	-9.223619e-001	4.639603e-002
702700	-9.347612e-001	4.880431e-002
707655	-9.452867e-001	5.161354e-002
712610	-9.542936e-001	5.525601e-002
717565	-9.619019e-001	5.941830e-002
722520	-9.682920e-001	6.349984e-002
727475	-9.740686e-001	6.771892e-002
732430	-9.789364e-001	7.146159e-002
737385	-9.831378e-001	7.523969e-002
742340	-9.867571e-001	7.921316e-002
747295	-9.898126e-001	8.304132e-002
752250	-9.923794e-001	8.676362e-002
757205	-9.945426e-001	9.053952e-002
762160	-9.963885e-001	9.419286e-002
767115	-9.979617e-001	9.780040e-002
772070	-9.993261e-001	1.011692e-001
777025	-1.000486e+000	1.044478e-001
781980	-1.001504e+000	1.075609e-001
786935	-1.002339e+000	1.106802e-001
791890	-1.003162e+000	1.135621e-001
796845	-1.003763e+000	1.163706e-001
801800	-1.004323e+000	1.191303e-001
806755	-1.004843e+000	1.217096e-001
811710	-1.005209e+000	1.242697e-001
816665	-1.005567e+000	1.267265e-001
821620	-1.005892e+000	1.291184e-001
826575	-1.006142e+000	1.314782e-001
831530	-1.006378e+000	1.336850e-001
836485	-1.006450e+000	1.358393e-001
841440	-1.006597e+000	1.380068e-001
846395	-1.006674e+000	1.401211e-001
851350	-1.006807e+000	1.421745e-001
856305	-1.007139e+000	1.443703e-001
861260	-1.006906e+000	1.460990e-001
866215	-1.006900e+000	1.480203e-001
871170	-1.006900e+000	1.498821e-001
876125	-1.006838e+000	1.517387e-001
881080	-1.006816e+000	1.535894e-001
886035	-1.006803e+000	1.554266e-001
890990	-1.006776e+000	1.571191e-001
895945	-1.006658e+000	1.589229e-001
900900	-1.006615e+000	1.606117e-001
905855	-1.006493e+000	1.622930e-001
910810	-1.006373e+000	1.639616e-001
915765	-1.006226e+000	1.655783e-001
920720	-1.006176e+000	1.671500e-001
925675	-1.006058e+000	1.687088e-001
930630	-1.005887e+000	1.703017e-001
935585	-1.005741e+000	1.718318e-001
940540	-1.005571e+000	1.734172e-001
945495	-1.005440e+000	1.749137e-001
950450	-1.005228e+000	1.764572e-001
955405	-1.005089e+000	1.779878e-001
960360	-1.004960e+000	1.795323e-001
965315	-1.004722e+000	1.808919e-001
970270	-1.004608e+000	1.823977e-001
975225	-1.004347e+000	1.838646e-001
980180	-1.004174e+000	1.853160e-001
985135	-1.004047e+000	1.867845e-001
990090	-1.003847e+000	1.881486e-001
995045	-1.003667e+000	1.895619e-001
1000000	-1.003428e+000	1.910213e-001
