!Agilent Technologies,E5071C,MY46109397,A.09.54
!Date: Mon Jan 01 01:26:33 2001
!Data & Calibration Information:
!Freq	S11:SOLT1(ON)
# Hz S RI R 50
9000	9.683489e-002	8.113265e-001
13955	-6.977466e-001	6.302433e-001
18910	-9.439786e-001	1.995274e-001
23865	-1.034820e+000	1.074094e-001
28820	-9.878071e-001	9.390290e-002
33775	-9.595229e-001	1.178901e-002
38730	-1.002320e+000	3.370745e-002
43685	-9.991962e-001	5.881887e-002
48640	-9.584533e-001	8.406718e-002
53595	-9.151378e-001	2.669073e-002
58550	-9.691158e-001	-3.295894e-002
63505	-1.000038e+000	-8.640987e-003
68460	-1.009181e+000	4.270243e-003
73415	-1.013431e+000	1.616603e-002
78370	-1.012385e+000	2.926664e-002
83325	-1.008733e+000	3.838718e-002
88280	-1.002177e+000	4.469113e-002
93235	-9.925296e-001	4.543804e-002
98190	-9.873364e-001	3.738227e-002
103145	-9.925215e-001	3.000962e-002
108100	-1.001955e+000	3.119143e-002
113055	-1.008824e+000	3.576885e-002
118010	-1.012901e+000	4.219055e-002
122965	-1.015181e+000	4.807751e-002
127920	-1.015940e+000	5.412512e-002
132875	-1.016451e+000	6.015194e-002
137830	-1.017318e+000	6.385290e-002
142785	-1.017265e+000	6.973081e-002
147740	-1.016776e+000	7.400228e-002
152695	-1.016199e+000	7.872820e-002
157650	-1.015807e+000	8.287124e-002
162605	-1.015196e+000	8.699653e-002
167560	-1.014821e+000	9.120466e-002
172515	-1.014228e+000	9.523272e-002
177470	-1.013742e+000	9.908808e-002
182425	-1.013101e+000	1.030140e-001
187380	-1.012331e+000	1.068219e-001
192335	-1.011628e+000	1.106271e-001
197290	-1.011128e+000	1.143167e-001
202245	-1.010262e+000	1.180715e-001
207200	-1.009595e+000	1.216068e-001
212155	-1.008818e+000	1.254512e-001
217110	-1.008217e+000	1.291835e-001
222065	-1.007451e+000	1.328349e-001
227020	-1.006711e+000	1.365562e-001
231975	-1.006050e+000	1.401504e-001
236930	-1.005224e+000	1.437943e-001
241885	-1.004382e+000	1.474639e-001
246840	-1.003562e+000	1.510940e-001
251795	-1.002599e+000	1.545674e-001
256750	-1.001585e+000	1.581385e-001
261705	-1.000499e+000	1.615632e-001
266660	-9.996480e-001	1.652015e-001
271615	-9.984643e-001	1.686083e-001
276570	-9.974152e-001	1.723994e-001
281525	-9.960251e-001	1.758253e-001
286480	-9.952582e-001	1.795140e-001
291435	-9.942876e-001	1.833757e-001
296390	-9.932399e-001	1.870354e-001
301345	-9.923625e-001	1.911124e-001
306300	-9.912026e-001	1.948657e-001
311255	-9.900240e-001	1.985820e-001
316210	-9.891993e-001	2.028863e-001
321165	-9.880195e-001	2.066860e-001
326120	-9.866862e-001	2.105206e-001
331075	-9.852993e-001	2.143806e-001
336030	-9.837638e-001	2.180695e-001
340985	-9.822955e-001	2.220167e-001
345940	-9.809117e-001	2.259563e-001
350895	-9.793597e-001	2.301071e-001
355850	-9.779761e-001	2.341091e-001
360805	-9.763506e-001	2.381318e-001
365760	-9.750350e-001	2.425666e-001
370715	-9.733789e-001	2.468790e-001
375670	-9.715626e-001	2.510979e-001
380625	-9.697412e-001	2.554609e-001
385580	-9.676802e-001	2.590715e-001
390535	-9.655469e-001	2.635680e-001
395490	-9.636696e-001	2.677501e-001
400445	-9.617358e-001	2.721764e-001
405400	-9.590534e-001	2.760172e-001
410355	-9.568387e-001	2.804216e-001
415310	-9.544511e-001	2.850429e-001
420265	-9.523710e-001	2.905487e-001
425220	-9.496563e-001	2.955509e-001
430175	-9.466768e-001	3.004627e-001
435130	-9.437273e-001	3.056604e-001
440085	-9.408598e-001	3.117654e-001
445040	-9.378501e-001	3.176411e-001
449995	-9.342640e-001	3.230596e-001
454950	-9.306456e-001	3.289714e-001
459905	-9.266982e-001	3.347782e-001
464860	-9.218473e-001	3.395353e-001
469815	-9.173078e-001	3.449255e-001
474770	-9.123584e-001	3.507550e-001
479725	-9.070921e-001	3.564236e-001
484680	-9.008538e-001	3.605768e-001
489635	-8.946321e-001	3.667674e-001
494590	-8.885452e-001	3.737707e-001
499545	-8.817666e-001	3.802193e-001
504500	-8.739884e-001	3.856508e-001
509455	-8.656919e-001	3.923850e-001
514410	-8.574266e-001	4.017059e-001
519365	-8.476358e-001	4.085617e-001
524320	-8.367807e-001	4.155013e-001
529275	-8.247649e-001	4.225119e-001
534230	-8.125151e-001	4.259200e-001
539185	-7.980300e-001	4.317436e-001
544140	-7.835484e-001	4.341002e-001
549095	-7.672582e-001	4.371836e-001
554050	-7.490224e-001	4.409606e-001
559005	-7.277684e-001	4.461705e-001
563960	-7.035148e-001	4.526349e-001
568915	-6.785141e-001	4.532943e-001
573870	-6.481950e-001	4.542101e-001
578825	-6.175287e-001	4.492448e-001
583780	-5.853537e-001	4.383446e-001
588735	-5.520698e-001	4.214503e-001
593690	-5.246655e-001	3.934675e-001
598645	-4.959986e-001	3.616409e-001
603600	-4.767602e-001	3.207606e-001
608555	-4.513524e-001	2.779558e-001
613510	-4.360667e-001	2.280251e-001
618465	-4.454983e-001	1.749999e-001
623420	-4.563940e-001	1.237176e-001
628375	-4.772223e-001	7.590519e-002
633330	-4.997912e-001	3.010584e-002
638285	-5.339164e-001	-6.472415e-003
643240	-5.702126e-001	-3.781636e-002
648195	-6.106315e-001	-5.762134e-002
653150	-6.512027e-001	-6.820154e-002
658105	-6.880906e-001	-7.888375e-002
663060	-7.240724e-001	-7.737748e-002
668015	-7.564349e-001	-7.088040e-002
672970	-7.851607e-001	-6.157334e-002
677925	-8.101171e-001	-4.844771e-002
682880	-8.317763e-001	-3.614624e-002
687835	-8.511827e-001	-2.465515e-002
692790	-8.676179e-001	-1.178939e-002
697745	-8.816522e-001	1.757191e-003
702700	-8.939646e-001	1.475635e-002
707655	-9.049124e-001	2.678900e-002
712610	-9.141135e-001	3.906720e-002
717565	-9.218671e-001	5.106400e-002
722520	-9.283570e-001	6.294647e-002
727475	-9.339464e-001	7.433354e-002
732430	-9.388039e-001	8.501868e-002
737385	-9.429911e-001	9.524058e-002
742340	-9.467291e-001	1.050760e-001
747295	-9.498329e-001	1.144604e-001
752250	-9.523306e-001	1.237431e-001
757205	-9.547037e-001	1.321993e-001
762160	-9.566917e-001	1.405471e-001
767115	-9.582965e-001	1.485303e-001
772070	-9.597279e-001	1.561488e-001
777025	-9.608807e-001	1.634340e-001
781980	-9.618582e-001	1.704542e-001
786935	-9.626156e-001	1.773745e-001
791890	-9.632100e-001	1.840665e-001
796845	-9.636354e-001	1.904252e-001
801800	-9.639354e-001	1.967013e-001
806755	-9.641535e-001	2.026661e-001
811710	-9.642940e-001	2.085655e-001
816665	-9.643077e-001	2.142822e-001
821620	-9.642406e-001	2.197407e-001
826575	-9.641093e-001	2.251860e-001
831530	-9.639313e-001	2.303666e-001
836485	-9.636234e-001	2.353699e-001
841440	-9.632368e-001	2.404137e-001
846395	-9.628310e-001	2.452176e-001
851350	-9.625006e-001	2.499221e-001
856305	-9.622183e-001	2.547680e-001
861260	-9.614765e-001	2.591013e-001
866215	-9.608807e-001	2.635480e-001
871170	-9.602846e-001	2.677876e-001
876125	-9.596406e-001	2.721141e-001
881080	-9.589510e-001	2.763649e-001
886035	-9.583430e-001	2.804528e-001
890990	-9.576399e-001	2.843831e-001
895945	-9.569212e-001	2.883806e-001
900900	-9.562096e-001	2.922740e-001
905855	-9.554849e-001	2.958646e-001
910810	-9.546524e-001	2.996051e-001
915765	-9.538118e-001	3.034285e-001
920720	-9.530569e-001	3.071327e-001
925675	-9.522513e-001	3.107360e-001
930630	-9.513632e-001	3.145115e-001
935585	-9.505172e-001	3.180093e-001
940540	-9.496567e-001	3.215298e-001
945495	-9.488278e-001	3.248984e-001
950450	-9.478252e-001	3.283370e-001
955405	-9.469371e-001	3.313908e-001
960360	-9.460268e-001	3.345490e-001
965315	-9.450448e-001	3.375060e-001
970270	-9.441616e-001	3.408384e-001
975225	-9.431717e-001	3.441039e-001
980180	-9.421979e-001	3.468680e-001
985135	-9.412454e-001	3.499710e-001
990090	-9.402723e-001	3.530562e-001
995045	-9.392304e-001	3.558140e-001
1000000	-9.382823e-001	3.589977e-001
