!Agilent Technologies,E5071C,MY46109397,A.09.54
!Date: Mon Jan 01 01:29:05 2001
!Data & Calibration Information:
!Freq	S11:SOLT1(ON)
# Hz S RI R 50
9000	-1.087650e+000	-1.781587e-001
13955	-8.488072e-001	2.734407e-001
18910	-1.161904e+000	1.677883e-001
23865	-9.898891e-001	9.642514e-002
28820	-9.681300e-001	9.058514e-002
33775	-9.656681e-001	2.823699e-002
38730	-1.012830e+000	3.718910e-002
43685	-1.000589e+000	6.345361e-002
48640	-9.604887e-001	8.648412e-002
53595	-9.159661e-001	2.842096e-002
58550	-9.693230e-001	-3.274769e-002
63505	-1.000290e+000	-9.598753e-003
68460	-1.010068e+000	4.828056e-003
73415	-1.013589e+000	1.916960e-002
78370	-1.012473e+000	2.964612e-002
83325	-1.009048e+000	3.863932e-002
88280	-1.002696e+000	4.560449e-002
93235	-9.929870e-001	4.569605e-002
98190	-9.886870e-001	3.886919e-002
103145	-9.939652e-001	3.188023e-002
108100	-1.002463e+000	3.239987e-002
113055	-1.009152e+000	3.687378e-002
118010	-1.012717e+000	4.287511e-002
122965	-1.015212e+000	4.897593e-002
127920	-1.015855e+000	5.470463e-002
132875	-1.016297e+000	5.986364e-002
137830	-1.017220e+000	6.559159e-002
142785	-1.016479e+000	7.067415e-002
147740	-1.016802e+000	7.466385e-002
152695	-1.016064e+000	7.900111e-002
157650	-1.015722e+000	8.322949e-002
162605	-1.015202e+000	8.740587e-002
167560	-1.014682e+000	9.151216e-002
172515	-1.014248e+000	9.569260e-002
177470	-1.013608e+000	9.947662e-002
182425	-1.013042e+000	1.033211e-001
187380	-1.012301e+000	1.071386e-001
192335	-1.011556e+000	1.108261e-001
197290	-1.011035e+000	1.146146e-001
202245	-1.010226e+000	1.182675e-001
207200	-1.009416e+000	1.222318e-001
212155	-1.008588e+000	1.258528e-001
217110	-1.008029e+000	1.296819e-001
222065	-1.007261e+000	1.331591e-001
227020	-1.006578e+000	1.367727e-001
231975	-1.005743e+000	1.405451e-001
236930	-1.004983e+000	1.442395e-001
241885	-1.004214e+000	1.478970e-001
246840	-1.003345e+000	1.516154e-001
251795	-1.002401e+000	1.552152e-001
256750	-1.001704e+000	1.588450e-001
261705	-1.000653e+000	1.625390e-001
266660	-9.996837e-001	1.660374e-001
271615	-9.986744e-001	1.697624e-001
276570	-9.977052e-001	1.733372e-001
281525	-9.967367e-001	1.771304e-001
286480	-9.955791e-001	1.809526e-001
291435	-9.945023e-001	1.846526e-001
296390	-9.935838e-001	1.884249e-001
301345	-9.922617e-001	1.921610e-001
306300	-9.911998e-001	1.959956e-001
311255	-9.900908e-001	2.000073e-001
316210	-9.889511e-001	2.039508e-001
321165	-9.876334e-001	2.078314e-001
326120	-9.861925e-001	2.117156e-001
331075	-9.848833e-001	2.156043e-001
336030	-9.834192e-001	2.195979e-001
340985	-9.818239e-001	2.235078e-001
345940	-9.803884e-001	2.274613e-001
350895	-9.787689e-001	2.315861e-001
355850	-9.769730e-001	2.354164e-001
360805	-9.750652e-001	2.391659e-001
365760	-9.734385e-001	2.433000e-001
370715	-9.717042e-001	2.475943e-001
375670	-9.697620e-001	2.516995e-001
380625	-9.678102e-001	2.562087e-001
385580	-9.659523e-001	2.605877e-001
390535	-9.641247e-001	2.650927e-001
395490	-9.622179e-001	2.695147e-001
400445	-9.601489e-001	2.739539e-001
405400	-9.577842e-001	2.786052e-001
410355	-9.554460e-001	2.830187e-001
415310	-9.532714e-001	2.882326e-001
420265	-9.509320e-001	2.938461e-001
425220	-9.482565e-001	2.993356e-001
430175	-9.453709e-001	3.044802e-001
435130	-9.413531e-001	3.085964e-001
440085	-9.376699e-001	3.131767e-001
445040	-9.343740e-001	3.185379e-001
449995	-9.300125e-001	3.231009e-001
454950	-9.253261e-001	3.269815e-001
459905	-9.198501e-001	3.310048e-001
464860	-9.160212e-001	3.370084e-001
469815	-9.116132e-001	3.428832e-001
474770	-9.056101e-001	3.463593e-001
479725	-9.002459e-001	3.525608e-001
484680	-8.949994e-001	3.624930e-001
489635	-8.898124e-001	3.702705e-001
494590	-8.828643e-001	3.762422e-001
499545	-8.756352e-001	3.839941e-001
504500	-8.684054e-001	3.923916e-001
509455	-8.597399e-001	3.991147e-001
514410	-8.505351e-001	4.059933e-001
519365	-8.403385e-001	4.127344e-001
524320	-8.291707e-001	4.177020e-001
529275	-8.170581e-001	4.215836e-001
534230	-8.042293e-001	4.268761e-001
539185	-7.899019e-001	4.329808e-001
544140	-7.746689e-001	4.331191e-001
549095	-7.569855e-001	4.383084e-001
554050	-7.366021e-001	4.488105e-001
559005	-7.145800e-001	4.526564e-001
563960	-6.908397e-001	4.551335e-001
568915	-6.654931e-001	4.540664e-001
573870	-6.336378e-001	4.557116e-001
578825	-6.023681e-001	4.482396e-001
583780	-5.695028e-001	4.353536e-001
588735	-5.351378e-001	4.167369e-001
593690	-5.036812e-001	3.905242e-001
598645	-4.712982e-001	3.577562e-001
603600	-4.438066e-001	3.162266e-001
608555	-4.237812e-001	2.679400e-001
613510	-4.134079e-001	2.138264e-001
618465	-4.154957e-001	1.569240e-001
623420	-4.285248e-001	1.010967e-001
628375	-4.503809e-001	4.876357e-002
633330	-4.851902e-001	5.365989e-003
638285	-5.235098e-001	-3.047203e-002
643240	-5.657325e-001	-5.699040e-002
648195	-6.087030e-001	-7.458850e-002
653150	-6.511258e-001	-8.332928e-002
658105	-6.898401e-001	-8.748882e-002
663060	-7.262196e-001	-8.374920e-002
668015	-7.587114e-001	-7.560454e-002
672970	-7.870739e-001	-6.612535e-002
677925	-8.118225e-001	-5.390642e-002
682880	-8.332989e-001	-4.090772e-002
687835	-8.518600e-001	-2.730013e-002
692790	-8.673724e-001	-1.188448e-002
697745	-8.812843e-001	1.298861e-003
702700	-8.931482e-001	1.451194e-002
707655	-9.034688e-001	2.725933e-002
712610	-9.125242e-001	3.964272e-002
717565	-9.201445e-001	5.175151e-002
722520	-9.265337e-001	6.367695e-002
727475	-9.325479e-001	7.462126e-002
732430	-9.375468e-001	8.510930e-002
737385	-9.417394e-001	9.532400e-002
742340	-9.453363e-001	1.053170e-001
747295	-9.483876e-001	1.148679e-001
752250	-9.509693e-001	1.240241e-001
757205	-9.532686e-001	1.326759e-001
762160	-9.551152e-001	1.411203e-001
767115	-9.566246e-001	1.492970e-001
772070	-9.578360e-001	1.572650e-001
777025	-9.588167e-001	1.648428e-001
781980	-9.596218e-001	1.721587e-001
786935	-9.603453e-001	1.792707e-001
791890	-9.608734e-001	1.860623e-001
796845	-9.612933e-001	1.926484e-001
801800	-9.614469e-001	1.989425e-001
806755	-9.616111e-001	2.050315e-001
811710	-9.616386e-001	2.110564e-001
816665	-9.615047e-001	2.168203e-001
821620	-9.613614e-001	2.224289e-001
826575	-9.610570e-001	2.278691e-001
831530	-9.606693e-001	2.331965e-001
836485	-9.601710e-001	2.383333e-001
841440	-9.597032e-001	2.434350e-001
846395	-9.591542e-001	2.484110e-001
851350	-9.586268e-001	2.533225e-001
856305	-9.582011e-001	2.582999e-001
861260	-9.573463e-001	2.626511e-001
866215	-9.565839e-001	2.672539e-001
871170	-9.558366e-001	2.717022e-001
876125	-9.551379e-001	2.760037e-001
881080	-9.543332e-001	2.802908e-001
886035	-9.535944e-001	2.844445e-001
890990	-9.527376e-001	2.885002e-001
895945	-9.518528e-001	2.926166e-001
900900	-9.510160e-001	2.965519e-001
905855	-9.501210e-001	3.002998e-001
910810	-9.491548e-001	3.041328e-001
915765	-9.481732e-001	3.082168e-001
920720	-9.472485e-001	3.119696e-001
925675	-9.463330e-001	3.156417e-001
930630	-9.452976e-001	3.193183e-001
935585	-9.443138e-001	3.231271e-001
940540	-9.433386e-001	3.267753e-001
945495	-9.423344e-001	3.301609e-001
950450	-9.411578e-001	3.337906e-001
955405	-9.402048e-001	3.370214e-001
960360	-9.392076e-001	3.404544e-001
965315	-9.381308e-001	3.437985e-001
970270	-9.371676e-001	3.471908e-001
975225	-9.360627e-001	3.504405e-001
980180	-9.349830e-001	3.536531e-001
985135	-9.339460e-001	3.569059e-001
990090	-9.328555e-001	3.600943e-001
995045	-9.318377e-001	3.633262e-001
1000000	-9.307249e-001	3.665276e-001
