!Agilent Technologies,E5071C,MY46109397,A.09.54
!Date: Mon Jan 01 01:29:41 2001
!Data & Calibration Information:
!Freq	S11:SOLT1(ON)
# Hz S RI R 50
9000	-1.611245e-001	4.666975e-001
13955	-1.063220e+000	3.030660e-001
18910	-1.044212e+000	1.189757e-001
23865	-1.023215e+000	8.324006e-002
28820	-9.785362e-001	6.947986e-002
33775	-9.734200e-001	1.640510e-002
38730	-1.019180e+000	3.553843e-002
43685	-1.004181e+000	5.656781e-002
48640	-9.578415e-001	8.229665e-002
53595	-9.176043e-001	2.495257e-002
58550	-9.704142e-001	-2.998993e-002
63505	-1.000144e+000	-9.111901e-003
68460	-1.010891e+000	6.571165e-003
73415	-1.013859e+000	2.070888e-002
78370	-1.013159e+000	3.010450e-002
83325	-1.009374e+000	3.898977e-002
88280	-1.002063e+000	4.537924e-002
93235	-9.927290e-001	4.626530e-002
98190	-9.874653e-001	3.852392e-002
103145	-9.923893e-001	3.110406e-002
108100	-1.002457e+000	3.160491e-002
113055	-1.008986e+000	3.621595e-002
118010	-1.012893e+000	4.258915e-002
122965	-1.014990e+000	4.870267e-002
127920	-1.016039e+000	5.454269e-002
132875	-1.016373e+000	6.020042e-002
137830	-1.017148e+000	6.492780e-002
142785	-1.016826e+000	7.028717e-002
147740	-1.016682e+000	7.440641e-002
152695	-1.016042e+000	7.906489e-002
157650	-1.015741e+000	8.317855e-002
162605	-1.015120e+000	8.739084e-002
167560	-1.014711e+000	9.153840e-002
172515	-1.014182e+000	9.558530e-002
177470	-1.013658e+000	9.951108e-002
182425	-1.013012e+000	1.033958e-001
187380	-1.012196e+000	1.072291e-001
192335	-1.011572e+000	1.109777e-001
197290	-1.010908e+000	1.148186e-001
202245	-1.010093e+000	1.183940e-001
207200	-1.009449e+000	1.222322e-001
212155	-1.008820e+000	1.258146e-001
217110	-1.007986e+000	1.294579e-001
222065	-1.007388e+000	1.331814e-001
227020	-1.006710e+000	1.368790e-001
231975	-1.005933e+000	1.405592e-001
236930	-1.005176e+000	1.443079e-001
241885	-1.004409e+000	1.479529e-001
246840	-1.003613e+000	1.516669e-001
251795	-1.002700e+000	1.552985e-001
256750	-1.001808e+000	1.589879e-001
261705	-1.000935e+000	1.626326e-001
266660	-9.997970e-001	1.661050e-001
271615	-9.987431e-001	1.697525e-001
276570	-9.977761e-001	1.735555e-001
281525	-9.966119e-001	1.772048e-001
286480	-9.953507e-001	1.806281e-001
291435	-9.942255e-001	1.844064e-001
296390	-9.931589e-001	1.881304e-001
301345	-9.919708e-001	1.918616e-001
306300	-9.908207e-001	1.956327e-001
311255	-9.895593e-001	1.994617e-001
316210	-9.882357e-001	2.032711e-001
321165	-9.870292e-001	2.072566e-001
326120	-9.857263e-001	2.113109e-001
331075	-9.846108e-001	2.153811e-001
336030	-9.831001e-001	2.193614e-001
340985	-9.816268e-001	2.233558e-001
345940	-9.799653e-001	2.272429e-001
350895	-9.787340e-001	2.316406e-001
355850	-9.772342e-001	2.359367e-001
360805	-9.756041e-001	2.401384e-001
365760	-9.731571e-001	2.435270e-001
370715	-9.711253e-001	2.471912e-001
375670	-9.692900e-001	2.513935e-001
380625	-9.672976e-001	2.555949e-001
385580	-9.650644e-001	2.595389e-001
390535	-9.630312e-001	2.636825e-001
395490	-9.606591e-001	2.681144e-001
400445	-9.589542e-001	2.728037e-001
405400	-9.565697e-001	2.773835e-001
410355	-9.539918e-001	2.808192e-001
415310	-9.512769e-001	2.854648e-001
420265	-9.485060e-001	2.900198e-001
425220	-9.458879e-001	2.951418e-001
430175	-9.432697e-001	3.010194e-001
435130	-9.400004e-001	3.059065e-001
440085	-9.369956e-001	3.116168e-001
445040	-9.344930e-001	3.188919e-001
449995	-9.313436e-001	3.255187e-001
454950	-9.275396e-001	3.318166e-001
459905	-9.234465e-001	3.375625e-001
464860	-9.188693e-001	3.433441e-001
469815	-9.140867e-001	3.492557e-001
474770	-9.089469e-001	3.554066e-001
479725	-9.034421e-001	3.616710e-001
484680	-8.968267e-001	3.663054e-001
489635	-8.902174e-001	3.716119e-001
494590	-8.829443e-001	3.754162e-001
499545	-8.755630e-001	3.801202e-001
504500	-8.676854e-001	3.858703e-001
509455	-8.595265e-001	3.919580e-001
514410	-8.501724e-001	3.987002e-001
519365	-8.401582e-001	4.084918e-001
524320	-8.293430e-001	4.195854e-001
529275	-8.170946e-001	4.251681e-001
534230	-8.040516e-001	4.290538e-001
539185	-7.895101e-001	4.345354e-001
544140	-7.731664e-001	4.393876e-001
549095	-7.557202e-001	4.460830e-001
554050	-7.355377e-001	4.507149e-001
559005	-7.130555e-001	4.580407e-001
563960	-6.889768e-001	4.594694e-001
568915	-6.616846e-001	4.593418e-001
573870	-6.295015e-001	4.607482e-001
578825	-5.968457e-001	4.543417e-001
583780	-5.626189e-001	4.419126e-001
588735	-5.278192e-001	4.226974e-001
593690	-4.931788e-001	3.962507e-001
598645	-4.606529e-001	3.620240e-001
603600	-4.330693e-001	3.192348e-001
608555	-4.159920e-001	2.678151e-001
613510	-4.121332e-001	2.130555e-001
618465	-4.132437e-001	1.560415e-001
623420	-4.286732e-001	1.007580e-001
628375	-4.593405e-001	5.275051e-002
633330	-4.935281e-001	1.067444e-002
638285	-5.298442e-001	-2.421269e-002
643240	-5.708492e-001	-4.916335e-002
648195	-6.129295e-001	-6.527807e-002
653150	-6.533557e-001	-7.526815e-002
658105	-6.918230e-001	-7.655145e-002
663060	-7.266320e-001	-7.501291e-002
668015	-7.582638e-001	-6.903024e-002
672970	-7.864794e-001	-6.319413e-002
677925	-8.110596e-001	-5.172239e-002
682880	-8.326557e-001	-3.935894e-002
687835	-8.511382e-001	-2.546177e-002
692790	-8.683050e-001	-1.433467e-002
697745	-8.825269e-001	-9.915881e-004
702700	-8.944157e-001	1.254606e-002
707655	-9.036628e-001	2.715131e-002
712610	-9.119165e-001	4.046157e-002
717565	-9.196034e-001	5.244813e-002
722520	-9.261819e-001	6.409179e-002
727475	-9.319247e-001	7.524787e-002
732430	-9.367685e-001	8.607218e-002
737385	-9.409147e-001	9.655102e-002
742340	-9.448786e-001	1.061903e-001
747295	-9.480847e-001	1.153945e-001
752250	-9.504087e-001	1.249296e-001
757205	-9.527311e-001	1.336890e-001
762160	-9.547048e-001	1.420497e-001
767115	-9.563682e-001	1.500799e-001
772070	-9.576954e-001	1.578157e-001
777025	-9.588318e-001	1.652366e-001
781980	-9.598191e-001	1.722717e-001
786935	-9.604823e-001	1.793173e-001
791890	-9.610064e-001	1.861315e-001
796845	-9.613860e-001	1.927108e-001
801800	-9.615204e-001	1.990934e-001
806755	-9.616624e-001	2.052359e-001
811710	-9.616324e-001	2.113197e-001
816665	-9.615775e-001	2.171869e-001
821620	-9.613562e-001	2.228462e-001
826575	-9.611489e-001	2.284438e-001
831530	-9.607974e-001	2.339023e-001
836485	-9.604452e-001	2.390630e-001
841440	-9.600337e-001	2.442132e-001
846395	-9.595108e-001	2.492106e-001
851350	-9.590456e-001	2.540902e-001
856305	-9.586050e-001	2.590601e-001
861260	-9.577595e-001	2.635542e-001
866215	-9.569521e-001	2.682385e-001
871170	-9.561499e-001	2.727870e-001
876125	-9.554428e-001	2.772219e-001
881080	-9.545908e-001	2.816413e-001
886035	-9.537963e-001	2.858966e-001
890990	-9.529909e-001	2.900868e-001
895945	-9.520848e-001	2.942439e-001
900900	-9.512373e-001	2.982218e-001
905855	-9.502590e-001	3.021684e-001
910810	-9.492797e-001	3.061556e-001
915765	-9.482845e-001	3.102393e-001
920720	-9.473424e-001	3.140385e-001
925675	-9.463173e-001	3.178527e-001
930630	-9.452893e-001	3.217848e-001
935585	-9.442695e-001	3.254937e-001
940540	-9.432022e-001	3.292665e-001
945495	-9.421340e-001	3.328444e-001
950450	-9.409515e-001	3.364593e-001
955405	-9.399040e-001	3.399051e-001
960360	-9.387881e-001	3.433738e-001
965315	-9.376251e-001	3.467454e-001
970270	-9.365468e-001	3.501425e-001
975225	-9.353030e-001	3.531737e-001
980180	-9.341860e-001	3.564982e-001
985135	-9.329814e-001	3.597786e-001
990090	-9.318711e-001	3.628937e-001
995045	-9.306641e-001	3.661541e-001
1000000	-9.293873e-001	3.690372e-001
