!Agilent Technologies,E5071C,MY46109397,A.09.54
!Date: Mon Jan 01 01:30:04 2001
!Data & Calibration Information:
!Freq	S11:SOLT1(ON)
# Hz S RI R 50
9000	-1.571701e-001	3.827903e-001
13955	-6.085050e-001	1.116124e-001
18910	-9.342134e-001	8.705197e-002
23865	-9.923363e-001	7.664226e-002
28820	-9.811914e-001	9.932391e-002
33775	-9.699783e-001	2.401193e-002
38730	-1.007303e+000	3.753587e-002
43685	-1.003685e+000	6.395254e-002
48640	-9.594493e-001	8.049217e-002
53595	-9.152133e-001	2.802272e-002
58550	-9.702198e-001	-3.204947e-002
63505	-9.992197e-001	-8.991579e-003
68460	-1.010999e+000	4.568007e-003
73415	-1.014018e+000	1.974245e-002
78370	-1.012927e+000	2.968436e-002
83325	-1.009550e+000	3.848954e-002
88280	-1.002133e+000	4.534541e-002
93235	-9.928243e-001	4.590336e-002
98190	-9.883457e-001	3.861489e-002
103145	-9.933529e-001	3.095452e-002
108100	-1.002081e+000	3.160140e-002
113055	-1.009014e+000	3.641110e-002
118010	-1.012836e+000	4.274125e-002
122965	-1.015104e+000	4.890713e-002
127920	-1.016149e+000	5.469295e-002
132875	-1.016448e+000	6.003350e-002
137830	-1.017100e+000	6.509703e-002
142785	-1.016860e+000	7.016984e-002
147740	-1.016573e+000	7.449683e-002
152695	-1.016148e+000	7.912915e-002
157650	-1.015713e+000	8.321495e-002
162605	-1.015172e+000	8.738711e-002
167560	-1.014680e+000	9.147967e-002
172515	-1.014180e+000	9.552404e-002
177470	-1.013673e+000	9.947281e-002
182425	-1.013044e+000	1.033730e-001
187380	-1.012305e+000	1.072768e-001
192335	-1.011771e+000	1.110073e-001
197290	-1.011186e+000	1.149338e-001
202245	-1.010391e+000	1.184865e-001
207200	-1.009800e+000	1.223377e-001
212155	-1.009092e+000	1.259919e-001
217110	-1.008114e+000	1.296096e-001
222065	-1.007502e+000	1.333938e-001
227020	-1.006752e+000	1.370263e-001
231975	-1.005866e+000	1.406517e-001
236930	-1.005110e+000	1.443315e-001
241885	-1.004326e+000	1.480420e-001
246840	-1.003456e+000	1.517059e-001
251795	-1.002465e+000	1.551963e-001
256750	-1.001315e+000	1.586327e-001
261705	-1.000432e+000	1.622859e-001
266660	-9.994191e-001	1.659124e-001
271615	-9.982930e-001	1.696699e-001
276570	-9.976059e-001	1.733934e-001
281525	-9.965713e-001	1.772335e-001
286480	-9.957859e-001	1.811478e-001
291435	-9.947071e-001	1.848692e-001
296390	-9.936527e-001	1.886829e-001
301345	-9.924934e-001	1.924960e-001
306300	-9.912871e-001	1.963347e-001
311255	-9.900592e-001	2.000354e-001
316210	-9.885777e-001	2.037698e-001
321165	-9.872963e-001	2.075220e-001
326120	-9.859460e-001	2.114815e-001
331075	-9.845416e-001	2.153233e-001
336030	-9.830053e-001	2.191666e-001
340985	-9.815711e-001	2.232481e-001
345940	-9.802320e-001	2.271099e-001
350895	-9.786294e-001	2.316154e-001
355850	-9.772822e-001	2.358814e-001
360805	-9.754255e-001	2.397377e-001
365760	-9.727832e-001	2.426046e-001
370715	-9.710510e-001	2.467267e-001
375670	-9.690942e-001	2.510055e-001
380625	-9.673854e-001	2.553324e-001
385580	-9.653435e-001	2.595952e-001
390535	-9.636021e-001	2.641104e-001
395490	-9.618000e-001	2.694450e-001
400445	-9.601858e-001	2.741178e-001
405400	-9.579914e-001	2.789270e-001
410355	-9.559084e-001	2.837618e-001
415310	-9.531222e-001	2.881523e-001
420265	-9.498132e-001	2.921626e-001
425220	-9.470845e-001	2.970975e-001
430175	-9.442979e-001	3.024721e-001
435130	-9.413550e-001	3.081476e-001
440085	-9.376967e-001	3.126513e-001
445040	-9.339786e-001	3.177596e-001
449995	-9.306431e-001	3.243668e-001
454950	-9.267654e-001	3.298774e-001
459905	-9.221951e-001	3.349207e-001
464860	-9.176668e-001	3.408724e-001
469815	-9.131395e-001	3.470040e-001
474770	-9.081632e-001	3.532921e-001
479725	-9.026570e-001	3.594487e-001
484680	-8.972668e-001	3.677206e-001
489635	-8.912761e-001	3.748192e-001
494590	-8.835034e-001	3.784799e-001
499545	-8.760355e-001	3.839667e-001
504500	-8.673947e-001	3.869948e-001
509455	-8.592082e-001	3.918488e-001
514410	-8.500672e-001	3.981294e-001
519365	-8.402882e-001	4.044850e-001
524320	-8.289532e-001	4.134096e-001
529275	-8.170245e-001	4.225805e-001
534230	-8.040683e-001	4.296710e-001
539185	-7.894630e-001	4.358431e-001
544140	-7.729232e-001	4.419144e-001
549095	-7.549412e-001	4.496141e-001
554050	-7.353876e-001	4.538060e-001
559005	-7.141591e-001	4.547597e-001
563960	-6.901186e-001	4.562633e-001
568915	-6.615270e-001	4.609884e-001
573870	-6.330808e-001	4.563740e-001
578825	-6.017479e-001	4.489412e-001
583780	-5.689820e-001	4.357981e-001
588735	-5.336820e-001	4.185699e-001
593690	-5.066294e-001	3.862706e-001
598645	-4.840611e-001	3.517795e-001
603600	-4.579772e-001	3.123312e-001
608555	-4.364698e-001	2.662407e-001
613510	-4.275923e-001	2.142130e-001
618465	-4.286376e-001	1.598492e-001
623420	-4.388952e-001	1.052386e-001
628375	-4.472845e-001	4.757318e-002
633330	-4.809890e-001	2.851018e-003
638285	-5.209914e-001	-3.261743e-002
643240	-5.636593e-001	-5.965819e-002
648195	-6.080837e-001	-7.586767e-002
653150	-6.510459e-001	-8.209873e-002
658105	-6.910731e-001	-8.193980e-002
663060	-7.262207e-001	-7.827430e-002
668015	-7.580760e-001	-7.165137e-002
672970	-7.861143e-001	-6.187388e-002
677925	-8.108062e-001	-5.060158e-002
682880	-8.323848e-001	-3.818249e-002
687835	-8.511929e-001	-2.564438e-002
692790	-8.680794e-001	-1.346582e-002
697745	-8.818530e-001	1.740007e-004
702700	-8.923177e-001	1.599800e-002
707655	-9.024362e-001	2.884220e-002
712610	-9.115829e-001	4.109153e-002
717565	-9.193787e-001	5.290581e-002
722520	-9.261151e-001	6.439402e-002
727475	-9.320888e-001	7.521872e-002
732430	-9.371200e-001	8.578230e-002
737385	-9.415379e-001	9.597864e-002
742340	-9.454127e-001	1.056141e-001
747295	-9.485589e-001	1.149337e-001
752250	-9.510641e-001	1.243001e-001
757205	-9.532109e-001	1.332542e-001
762160	-9.550971e-001	1.416962e-001
767115	-9.567145e-001	1.497310e-001
772070	-9.580797e-001	1.574235e-001
777025	-9.590971e-001	1.650491e-001
781980	-9.600578e-001	1.721936e-001
786935	-9.607328e-001	1.792824e-001
791890	-9.612531e-001	1.860685e-001
796845	-9.615858e-001	1.926346e-001
801800	-9.618397e-001	1.989611e-001
806755	-9.620461e-001	2.050944e-001
811710	-9.620303e-001	2.110917e-001
816665	-9.619301e-001	2.169746e-001
821620	-9.617562e-001	2.225961e-001
826575	-9.614753e-001	2.281307e-001
831530	-9.612281e-001	2.335705e-001
836485	-9.607503e-001	2.387298e-001
841440	-9.603780e-001	2.438756e-001
846395	-9.599198e-001	2.488127e-001
851350	-9.594584e-001	2.537510e-001
856305	-9.590413e-001	2.586669e-001
861260	-9.582827e-001	2.631097e-001
866215	-9.575561e-001	2.677246e-001
871170	-9.568520e-001	2.720710e-001
876125	-9.560677e-001	2.765537e-001
881080	-9.552168e-001	2.810112e-001
886035	-9.544421e-001	2.853813e-001
890990	-9.535666e-001	2.895837e-001
895945	-9.527261e-001	2.937236e-001
900900	-9.519213e-001	2.977347e-001
905855	-9.509414e-001	3.017298e-001
910810	-9.500155e-001	3.057596e-001
915765	-9.490633e-001	3.095537e-001
920720	-9.481255e-001	3.134676e-001
925675	-9.471686e-001	3.173534e-001
930630	-9.461867e-001	3.210842e-001
935585	-9.451829e-001	3.247591e-001
940540	-9.441446e-001	3.283856e-001
945495	-9.431231e-001	3.319582e-001
950450	-9.419620e-001	3.355900e-001
955405	-9.408766e-001	3.388271e-001
960360	-9.398326e-001	3.419132e-001
965315	-9.387295e-001	3.452682e-001
970270	-9.376937e-001	3.487323e-001
975225	-9.365091e-001	3.520465e-001
980180	-9.353676e-001	3.552799e-001
985135	-9.342150e-001	3.586593e-001
990090	-9.330800e-001	3.619964e-001
995045	-9.319631e-001	3.656335e-001
1000000	-9.308609e-001	3.690017e-001
