!Agilent Technologies,E5071C,MY46109397,A.09.54
!Date: Mon Jan 01 01:28:01 2001
!Data & Calibration Information:
!Freq	S11:SOLT1(ON)
# Hz S RI R 50
9000	-2.064583e-001	9.970852e-001
13955	-6.311613e-001	1.656375e-001
18910	-8.479927e-001	1.125832e-001
23865	-1.006208e+000	6.968594e-002
28820	-9.693417e-001	8.005111e-002
33775	-9.653832e-001	1.672930e-002
38730	-1.006236e+000	3.504501e-002
43685	-1.001743e+000	6.093578e-002
48640	-9.613948e-001	7.780545e-002
53595	-9.127308e-001	2.140201e-002
58550	-9.697332e-001	-2.877643e-002
63505	-1.002241e+000	-8.502834e-003
68460	-1.009108e+000	7.313036e-003
73415	-1.011753e+000	1.831195e-002
78370	-1.012117e+000	3.014769e-002
83325	-1.008882e+000	3.850557e-002
88280	-1.001809e+000	4.510096e-002
93235	-9.929993e-001	4.538894e-002
98190	-9.883647e-001	3.848387e-002
103145	-9.934461e-001	3.131481e-002
108100	-1.002259e+000	3.107039e-002
113055	-1.009082e+000	3.612807e-002
118010	-1.012547e+000	4.261772e-002
122965	-1.015268e+000	4.875142e-002
127920	-1.016220e+000	5.450304e-002
132875	-1.016639e+000	5.936429e-002
137830	-1.016718e+000	6.521251e-002
142785	-1.016207e+000	6.974417e-002
147740	-1.016323e+000	7.455605e-002
152695	-1.016110e+000	7.886848e-002
157650	-1.015623e+000	8.324265e-002
162605	-1.015319e+000	8.717117e-002
167560	-1.014768e+000	9.131893e-002
172515	-1.014292e+000	9.527942e-002
177470	-1.013724e+000	9.919310e-002
182425	-1.013140e+000	1.030717e-001
187380	-1.012350e+000	1.068607e-001
192335	-1.011665e+000	1.107161e-001
197290	-1.011092e+000	1.143454e-001
202245	-1.010331e+000	1.182639e-001
207200	-1.009681e+000	1.217324e-001
212155	-1.009130e+000	1.254253e-001
217110	-1.008201e+000	1.292970e-001
222065	-1.007665e+000	1.330522e-001
227020	-1.006899e+000	1.366840e-001
231975	-1.006150e+000	1.402324e-001
236930	-1.005303e+000	1.439108e-001
241885	-1.004460e+000	1.475450e-001
246840	-1.003566e+000	1.510687e-001
251795	-1.002652e+000	1.547036e-001
256750	-1.001791e+000	1.583669e-001
261705	-1.000893e+000	1.620173e-001
266660	-9.998892e-001	1.654913e-001
271615	-9.989352e-001	1.692570e-001
276570	-9.980975e-001	1.728665e-001
281525	-9.968692e-001	1.763722e-001
286480	-9.959122e-001	1.803371e-001
291435	-9.947794e-001	1.839263e-001
296390	-9.937607e-001	1.876284e-001
301345	-9.926898e-001	1.913587e-001
306300	-9.914832e-001	1.951087e-001
311255	-9.902844e-001	1.987905e-001
316210	-9.890738e-001	2.026446e-001
321165	-9.878224e-001	2.066242e-001
326120	-9.865986e-001	2.104258e-001
331075	-9.853405e-001	2.145385e-001
336030	-9.843253e-001	2.188928e-001
340985	-9.829606e-001	2.227570e-001
345940	-9.811506e-001	2.263765e-001
350895	-9.792415e-001	2.300694e-001
355850	-9.777743e-001	2.339527e-001
360805	-9.758902e-001	2.376991e-001
365760	-9.734845e-001	2.407431e-001
370715	-9.715355e-001	2.445558e-001
375670	-9.698843e-001	2.490780e-001
380625	-9.686538e-001	2.538633e-001
385580	-9.666678e-001	2.579897e-001
390535	-9.653234e-001	2.631060e-001
395490	-9.630915e-001	2.671546e-001
400445	-9.609794e-001	2.713480e-001
405400	-9.586801e-001	2.755378e-001
410355	-9.565150e-001	2.801214e-001
415310	-9.540910e-001	2.846176e-001
420265	-9.510739e-001	2.886385e-001
425220	-9.484105e-001	2.933976e-001
430175	-9.454027e-001	2.986101e-001
435130	-9.424757e-001	3.038340e-001
440085	-9.398435e-001	3.098143e-001
445040	-9.364014e-001	3.148157e-001
449995	-9.330129e-001	3.207704e-001
454950	-9.295208e-001	3.265028e-001
459905	-9.254729e-001	3.323585e-001
464860	-9.216996e-001	3.391264e-001
469815	-9.157687e-001	3.410168e-001
474770	-9.106072e-001	3.471055e-001
479725	-9.060545e-001	3.536974e-001
484680	-9.001075e-001	3.579203e-001
489635	-8.942634e-001	3.638554e-001
494590	-8.875402e-001	3.718164e-001
499545	-8.818140e-001	3.820022e-001
504500	-8.745423e-001	3.889517e-001
509455	-8.660061e-001	3.945976e-001
514410	-8.572220e-001	4.028064e-001
519365	-8.476458e-001	4.094520e-001
524320	-8.369423e-001	4.144389e-001
529275	-8.249848e-001	4.218497e-001
534230	-8.121781e-001	4.273719e-001
539185	-7.981043e-001	4.345531e-001
544140	-7.824392e-001	4.414107e-001
549095	-7.652037e-001	4.475167e-001
554050	-7.462736e-001	4.522017e-001
559005	-7.252238e-001	4.558335e-001
563960	-7.017699e-001	4.580073e-001
568915	-6.745090e-001	4.597023e-001
573870	-6.460314e-001	4.589021e-001
578825	-6.155123e-001	4.523218e-001
583780	-5.845231e-001	4.384087e-001
588735	-5.532433e-001	4.207255e-001
593690	-5.194508e-001	3.976404e-001
598645	-4.878014e-001	3.662459e-001
603600	-4.582261e-001	3.277662e-001
608555	-4.375895e-001	2.809294e-001
613510	-4.289179e-001	2.285313e-001
618465	-4.254039e-001	1.725086e-001
623420	-4.314895e-001	1.162735e-001
628375	-4.530470e-001	6.394788e-002
633330	-4.853804e-001	1.786344e-002
638285	-5.243532e-001	-1.684957e-002
643240	-5.650648e-001	-4.459337e-002
648195	-6.077580e-001	-6.258170e-002
653150	-6.490334e-001	-7.363768e-002
658105	-6.881041e-001	-7.713336e-002
663060	-7.240124e-001	-7.557453e-002
668015	-7.564342e-001	-6.973362e-002
672970	-7.856835e-001	-6.207882e-002
677925	-8.113195e-001	-5.393367e-002
682880	-8.334412e-001	-4.130672e-002
687835	-8.524217e-001	-2.716833e-002
692790	-8.672318e-001	-1.090779e-002
697745	-8.805746e-001	3.974351e-003
702700	-8.923683e-001	1.735295e-002
707655	-9.026445e-001	2.998222e-002
712610	-9.113659e-001	4.269493e-002
717565	-9.197926e-001	5.404129e-002
722520	-9.269232e-001	6.473981e-002
727475	-9.330644e-001	7.535232e-002
732430	-9.384501e-001	8.549916e-002
737385	-9.427451e-001	9.563354e-002
742340	-9.463861e-001	1.055951e-001
747295	-9.494514e-001	1.149344e-001
752250	-9.521220e-001	1.239245e-001
757205	-9.543449e-001	1.327444e-001
762160	-9.563764e-001	1.409695e-001
767115	-9.581873e-001	1.487926e-001
772070	-9.595578e-001	1.564377e-001
777025	-9.608105e-001	1.636499e-001
781980	-9.617402e-001	1.707786e-001
786935	-9.625355e-001	1.775573e-001
791890	-9.631653e-001	1.842064e-001
796845	-9.636449e-001	1.905920e-001
801800	-9.639516e-001	1.967382e-001
806755	-9.642356e-001	2.028176e-001
811710	-9.643454e-001	2.086264e-001
816665	-9.643351e-001	2.142654e-001
821620	-9.642952e-001	2.197952e-001
826575	-9.641974e-001	2.251342e-001
831530	-9.640003e-001	2.303920e-001
836485	-9.636652e-001	2.353663e-001
841440	-9.632449e-001	2.403883e-001
846395	-9.628064e-001	2.451846e-001
851350	-9.624510e-001	2.499538e-001
856305	-9.622160e-001	2.547688e-001
861260	-9.614474e-001	2.590874e-001
866215	-9.608181e-001	2.635316e-001
871170	-9.602623e-001	2.678322e-001
876125	-9.596646e-001	2.720619e-001
881080	-9.589861e-001	2.762403e-001
886035	-9.583374e-001	2.804853e-001
890990	-9.576404e-001	2.844622e-001
895945	-9.569609e-001	2.883773e-001
900900	-9.562447e-001	2.923072e-001
905855	-9.554755e-001	2.961086e-001
910810	-9.546722e-001	2.999182e-001
915765	-9.538129e-001	3.036317e-001
920720	-9.530858e-001	3.072627e-001
925675	-9.522661e-001	3.110955e-001
930630	-9.513875e-001	3.145979e-001
935585	-9.506088e-001	3.181401e-001
940540	-9.496899e-001	3.216310e-001
945495	-9.488442e-001	3.249688e-001
950450	-9.478496e-001	3.282602e-001
955405	-9.469301e-001	3.315458e-001
960360	-9.460808e-001	3.348371e-001
965315	-9.451320e-001	3.380529e-001
970270	-9.442874e-001	3.413241e-001
975225	-9.432558e-001	3.443179e-001
980180	-9.422950e-001	3.475164e-001
985135	-9.413565e-001	3.507771e-001
990090	-9.404824e-001	3.538667e-001
995045	-9.394885e-001	3.568407e-001
1000000	-9.385176e-001	3.599991e-001
