!Agilent Technologies,E5071C,MY46109397,A.09.54
!Date: Mon Jan 01 01:47:56 2001
!Data & Calibration Information:
!Freq	S11:SOLT1(ON)
# Hz S RI R 50
9000	-2.039583e-001	3.740708e-001
13955	-9.233190e-001	1.513089e-003
18910	-1.016224e+000	3.007326e-002
23865	-9.898104e-001	7.001410e-002
28820	-9.578316e-001	7.113682e-002
33775	-9.720907e-001	-7.568820e-003
38730	-9.980953e-001	1.931855e-002
43685	-9.967018e-001	5.302224e-002
48640	-9.595118e-001	7.825164e-002
53595	-9.152182e-001	2.126928e-002
58550	-9.684691e-001	-3.249291e-002
63505	-9.991792e-001	-1.215851e-002
68460	-1.009687e+000	1.811644e-003
73415	-1.013276e+000	1.517258e-002
78370	-1.013231e+000	2.698262e-002
83325	-1.008502e+000	3.686342e-002
88280	-1.001777e+000	4.356217e-002
93235	-9.922556e-001	4.453891e-002
98190	-9.874290e-001	3.679768e-002
103145	-9.928060e-001	2.942039e-002
108100	-1.002173e+000	3.028947e-002
113055	-1.008803e+000	3.523485e-002
118010	-1.012761e+000	4.144223e-002
122965	-1.014988e+000	4.781859e-002
127920	-1.015935e+000	5.375301e-002
132875	-1.016875e+000	5.939428e-002
137830	-1.016988e+000	6.359145e-002
142785	-1.017143e+000	6.924999e-002
147740	-1.016530e+000	7.356425e-002
152695	-1.016156e+000	7.827626e-002
157650	-1.015635e+000	8.237315e-002
162605	-1.015200e+000	8.671053e-002
167560	-1.014822e+000	9.079229e-002
172515	-1.014299e+000	9.480472e-002
177470	-1.013711e+000	9.874957e-002
182425	-1.013167e+000	1.026588e-001
187380	-1.012490e+000	1.066015e-001
192335	-1.011882e+000	1.103318e-001
197290	-1.011145e+000	1.142607e-001
202245	-1.010562e+000	1.179420e-001
207200	-1.009570e+000	1.215910e-001
212155	-1.008971e+000	1.252196e-001
217110	-1.008274e+000	1.289759e-001
222065	-1.007447e+000	1.325326e-001
227020	-1.006739e+000	1.362021e-001
231975	-1.006027e+000	1.399065e-001
236930	-1.005247e+000	1.436003e-001
241885	-1.004291e+000	1.471637e-001
246840	-1.003426e+000	1.507670e-001
251795	-1.002520e+000	1.543563e-001
256750	-1.001638e+000	1.581166e-001
261705	-1.000643e+000	1.616165e-001
266660	-9.999036e-001	1.652583e-001
271615	-9.988400e-001	1.689680e-001
276570	-9.979373e-001	1.727247e-001
281525	-9.969089e-001	1.764236e-001
286480	-9.959715e-001	1.802700e-001
291435	-9.950674e-001	1.840304e-001
296390	-9.937136e-001	1.876133e-001
301345	-9.924794e-001	1.911630e-001
306300	-9.914453e-001	1.949428e-001
311255	-9.901398e-001	1.987263e-001
316210	-9.887291e-001	2.024886e-001
321165	-9.875698e-001	2.063459e-001
326120	-9.862450e-001	2.102114e-001
331075	-9.849606e-001	2.140699e-001
336030	-9.833941e-001	2.178689e-001
340985	-9.817998e-001	2.217462e-001
345940	-9.802771e-001	2.255559e-001
350895	-9.788298e-001	2.297133e-001
355850	-9.769653e-001	2.333455e-001
360805	-9.754357e-001	2.376390e-001
365760	-9.733606e-001	2.411401e-001
370715	-9.717981e-001	2.454824e-001
375670	-9.701474e-001	2.499120e-001
380625	-9.682133e-001	2.540709e-001
385580	-9.666573e-001	2.590819e-001
390535	-9.649337e-001	2.637316e-001
395490	-9.625124e-001	2.674948e-001
400445	-9.604186e-001	2.713719e-001
405400	-9.582354e-001	2.758074e-001
410355	-9.561808e-001	2.804502e-001
415310	-9.537480e-001	2.854099e-001
420265	-9.516244e-001	2.909559e-001
425220	-9.495343e-001	2.970556e-001
430175	-9.468256e-001	3.022246e-001
435130	-9.437972e-001	3.076151e-001
440085	-9.404729e-001	3.128222e-001
445040	-9.372153e-001	3.181847e-001
449995	-9.336966e-001	3.240748e-001
454950	-9.298390e-001	3.297249e-001
459905	-9.252655e-001	3.345995e-001
464860	-9.208879e-001	3.399576e-001
469815	-9.163373e-001	3.456951e-001
474770	-9.113160e-001	3.515483e-001
479725	-9.061381e-001	3.575922e-001
484680	-8.998126e-001	3.625040e-001
489635	-8.939304e-001	3.686683e-001
494590	-8.874809e-001	3.752218e-001
499545	-8.801777e-001	3.811629e-001
504500	-8.725447e-001	3.872888e-001
509455	-8.645257e-001	3.972925e-001
514410	-8.557515e-001	4.053065e-001
519365	-8.459598e-001	4.123857e-001
524320	-8.347512e-001	4.192345e-001
529275	-8.229927e-001	4.262834e-001
534230	-8.098680e-001	4.332388e-001
539185	-7.953828e-001	4.397226e-001
544140	-7.790503e-001	4.456840e-001
549095	-7.610688e-001	4.508224e-001
554050	-7.422246e-001	4.535955e-001
559005	-7.216507e-001	4.555640e-001
563960	-6.983141e-001	4.573926e-001
568915	-6.727836e-001	4.564843e-001
573870	-6.426974e-001	4.552631e-001
578825	-6.110454e-001	4.511195e-001
583780	-5.833703e-001	4.337605e-001
588735	-5.504982e-001	4.168428e-001
593690	-5.172911e-001	3.925334e-001
598645	-4.868584e-001	3.608171e-001
603600	-4.650734e-001	3.191030e-001
608555	-4.379918e-001	2.747228e-001
613510	-4.234809e-001	2.238479e-001
618465	-4.223606e-001	1.680417e-001
623420	-4.335753e-001	1.124676e-001
628375	-4.499100e-001	5.723715e-002
633330	-4.795103e-001	1.020990e-002
638285	-5.207152e-001	-2.532982e-002
643240	-5.665899e-001	-4.705885e-002
648195	-6.091129e-001	-6.456717e-002
653150	-6.506663e-001	-7.503791e-002
658105	-6.898919e-001	-7.536038e-002
663060	-7.252479e-001	-7.322139e-002
668015	-7.573380e-001	-6.827209e-002
672970	-7.856587e-001	-5.972769e-002
677925	-8.100583e-001	-4.809866e-002
682880	-8.316095e-001	-3.511437e-002
687835	-8.500657e-001	-2.140917e-002
692790	-8.665631e-001	-9.170947e-003
697745	-8.803733e-001	4.264836e-003
702700	-8.920751e-001	1.771341e-002
707655	-9.025361e-001	2.965857e-002
712610	-9.119353e-001	4.142869e-002
717565	-9.201003e-001	5.278351e-002
722520	-9.268077e-001	6.442457e-002
727475	-9.331107e-001	7.477347e-002
732430	-9.384285e-001	8.511747e-002
737385	-9.424918e-001	9.547060e-002
742340	-9.459315e-001	1.055550e-001
747295	-9.490225e-001	1.149117e-001
752250	-9.518204e-001	1.238348e-001
757205	-9.543389e-001	1.322974e-001
762160	-9.563661e-001	1.404838e-001
767115	-9.578930e-001	1.484830e-001
772070	-9.592982e-001	1.561716e-001
777025	-9.604066e-001	1.636537e-001
781980	-9.613188e-001	1.707999e-001
786935	-9.620564e-001	1.777183e-001
791890	-9.626416e-001	1.844385e-001
796845	-9.630396e-001	1.909067e-001
801800	-9.633422e-001	1.971658e-001
806755	-9.635987e-001	2.032119e-001
811710	-9.636345e-001	2.091208e-001
816665	-9.636419e-001	2.148911e-001
821620	-9.635642e-001	2.204242e-001
826575	-9.633867e-001	2.258826e-001
831530	-9.631890e-001	2.311357e-001
836485	-9.628020e-001	2.361674e-001
841440	-9.624571e-001	2.412550e-001
846395	-9.620614e-001	2.461418e-001
851350	-9.616211e-001	2.508857e-001
856305	-9.613121e-001	2.558317e-001
861260	-9.605373e-001	2.602026e-001
866215	-9.599391e-001	2.647235e-001
871170	-9.592978e-001	2.690527e-001
876125	-9.586635e-001	2.733747e-001
881080	-9.579823e-001	2.777161e-001
886035	-9.573001e-001	2.818727e-001
890990	-9.565574e-001	2.859547e-001
895945	-9.557974e-001	2.900049e-001
900900	-9.550959e-001	2.939220e-001
905855	-9.542515e-001	2.977522e-001
910810	-9.534159e-001	3.015720e-001
915765	-9.526084e-001	3.052605e-001
920720	-9.518133e-001	3.089431e-001
925675	-9.509200e-001	3.125355e-001
930630	-9.500391e-001	3.161987e-001
935585	-9.491366e-001	3.198460e-001
940540	-9.482914e-001	3.235557e-001
945495	-9.473346e-001	3.267021e-001
950450	-9.462832e-001	3.301426e-001
955405	-9.453940e-001	3.334485e-001
960360	-9.444464e-001	3.367249e-001
965315	-9.434803e-001	3.399950e-001
970270	-9.425487e-001	3.434056e-001
975225	-9.414977e-001	3.466807e-001
980180	-9.405488e-001	3.498922e-001
985135	-9.395626e-001	3.530845e-001
990090	-9.385603e-001	3.562980e-001
995045	-9.375022e-001	3.594863e-001
1000000	-9.365623e-001	3.628393e-001
