!Agilent Technologies,E5071C,MY46109397,A.09.54
!Date: Mon Jan 01 01:47:05 2001
!Data & Calibration Information:
!Freq	S11:SOLT1(ON)
# Hz S RI R 50
9000	1.013450e+000	1.676979e-002
13955	9.995833e-001	4.445267e-003
18910	9.992695e-001	1.683609e-003
23865	9.997228e-001	-6.299107e-004
28820	9.996149e-001	-1.708546e-003
33775	9.997512e-001	-2.865075e-003
38730	9.995963e-001	-3.606989e-003
43685	9.995241e-001	-4.466357e-003
48640	9.996805e-001	-5.089799e-003
53595	9.994708e-001	-5.892272e-003
58550	9.994622e-001	-6.462368e-003
63505	9.993825e-001	-7.040165e-003
68460	9.995219e-001	-7.623653e-003
73415	9.994595e-001	-8.345003e-003
78370	9.993973e-001	-8.833632e-003
83325	9.993534e-001	-9.493607e-003
88280	9.993539e-001	-1.007897e-002
93235	9.991464e-001	-1.059300e-002
98190	9.991252e-001	-1.113090e-002
103145	9.990705e-001	-1.167055e-002
108100	9.991241e-001	-1.228072e-002
113055	9.991919e-001	-1.282454e-002
118010	9.990455e-001	-1.324742e-002
122965	9.989242e-001	-1.395497e-002
127920	9.988578e-001	-1.441495e-002
132875	9.989160e-001	-1.503257e-002
137830	9.988902e-001	-1.552776e-002
142785	9.988822e-001	-1.607789e-002
147740	9.988399e-001	-1.660881e-002
152695	9.986940e-001	-1.704954e-002
157650	9.986963e-001	-1.768123e-002
162605	9.985796e-001	-1.806170e-002
167560	9.986084e-001	-1.859519e-002
172515	9.984916e-001	-1.917357e-002
177470	9.985746e-001	-1.965990e-002
182425	9.985434e-001	-2.012815e-002
187380	9.983789e-001	-2.076302e-002
192335	9.983320e-001	-2.122801e-002
197290	9.982461e-001	-2.165155e-002
202245	9.982137e-001	-2.214885e-002
207200	9.981863e-001	-2.277825e-002
212155	9.982301e-001	-2.318023e-002
217110	9.980356e-001	-2.377880e-002
222065	9.982178e-001	-2.415044e-002
227020	9.980275e-001	-2.466494e-002
231975	9.979814e-001	-2.528766e-002
236930	9.979114e-001	-2.582808e-002
241885	9.978307e-001	-2.618617e-002
246840	9.978400e-001	-2.671379e-002
251795	9.976974e-001	-2.729105e-002
256750	9.976242e-001	-2.778209e-002
261705	9.975658e-001	-2.829808e-002
266660	9.974661e-001	-2.874642e-002
271615	9.974910e-001	-2.927397e-002
276570	9.973763e-001	-2.964342e-002
281525	9.974684e-001	-3.015768e-002
286480	9.972269e-001	-3.063789e-002
291435	9.971734e-001	-3.122436e-002
296390	9.971093e-001	-3.165646e-002
301345	9.971600e-001	-3.212093e-002
306300	9.969540e-001	-3.267994e-002
311255	9.969073e-001	-3.318450e-002
316210	9.968169e-001	-3.368680e-002
321165	9.967952e-001	-3.410584e-002
326120	9.967065e-001	-3.466591e-002
331075	9.966172e-001	-3.499738e-002
336030	9.965753e-001	-3.551853e-002
340985	9.963652e-001	-3.598083e-002
345940	9.963610e-001	-3.653370e-002
350895	9.963022e-001	-3.702275e-002
355850	9.961615e-001	-3.749907e-002
360805	9.961876e-001	-3.788331e-002
365760	9.960655e-001	-3.853948e-002
370715	9.959767e-001	-3.898828e-002
375670	9.959737e-001	-3.936854e-002
380625	9.957514e-001	-3.986418e-002
385580	9.957047e-001	-4.041522e-002
390535	9.956649e-001	-4.078874e-002
395490	9.955855e-001	-4.136514e-002
400445	9.954549e-001	-4.182509e-002
405400	9.953750e-001	-4.232280e-002
410355	9.951934e-001	-4.272112e-002
415310	9.951728e-001	-4.329424e-002
420265	9.951201e-001	-4.369489e-002
425220	9.950093e-001	-4.413238e-002
430175	9.948825e-001	-4.456174e-002
435130	9.947505e-001	-4.507713e-002
440085	9.946382e-001	-4.557951e-002
445040	9.945742e-001	-4.609363e-002
449995	9.945003e-001	-4.654198e-002
454950	9.944032e-001	-4.686288e-002
459905	9.943043e-001	-4.735977e-002
464860	9.941103e-001	-4.788469e-002
469815	9.940929e-001	-4.836615e-002
474770	9.939450e-001	-4.881937e-002
479725	9.938315e-001	-4.930448e-002
484680	9.938157e-001	-4.977601e-002
489635	9.937197e-001	-5.027335e-002
494590	9.935657e-001	-5.065812e-002
499545	9.934286e-001	-5.113263e-002
504500	9.932535e-001	-5.158231e-002
509455	9.931879e-001	-5.204613e-002
514410	9.930497e-001	-5.245466e-002
519365	9.929180e-001	-5.298735e-002
524320	9.928670e-001	-5.335601e-002
529275	9.927073e-001	-5.380943e-002
534230	9.925890e-001	-5.430978e-002
539185	9.924418e-001	-5.465918e-002
544140	9.923915e-001	-5.510660e-002
549095	9.923363e-001	-5.560649e-002
554050	9.920866e-001	-5.603099e-002
559005	9.919466e-001	-5.644739e-002
563960	9.918402e-001	-5.691188e-002
568915	9.916760e-001	-5.746589e-002
573870	9.915716e-001	-5.779865e-002
578825	9.914887e-001	-5.817827e-002
583780	9.913748e-001	-5.853644e-002
588735	9.911529e-001	-5.900573e-002
593690	9.911989e-001	-5.954550e-002
598645	9.909048e-001	-5.993979e-002
603600	9.908237e-001	-6.036980e-002
608555	9.906987e-001	-6.079221e-002
613510	9.905080e-001	-6.120565e-002
618465	9.904431e-001	-6.159738e-002
623420	9.903296e-001	-6.207956e-002
628375	9.901185e-001	-6.244621e-002
633330	9.899514e-001	-6.286132e-002
638285	9.899288e-001	-6.325364e-002
643240	9.896802e-001	-6.376366e-002
648195	9.896701e-001	-6.409278e-002
653150	9.894728e-001	-6.450045e-002
658105	9.893275e-001	-6.490475e-002
663060	9.891975e-001	-6.528103e-002
668015	9.890352e-001	-6.567631e-002
672970	9.889980e-001	-6.602697e-002
677925	9.887661e-001	-6.652013e-002
682880	9.887383e-001	-6.695496e-002
687835	9.886324e-001	-6.726881e-002
692790	9.883912e-001	-6.764723e-002
697745	9.882352e-001	-6.802008e-002
702700	9.881876e-001	-6.847031e-002
707655	9.880848e-001	-6.883757e-002
712610	9.879511e-001	-6.927523e-002
717565	9.878356e-001	-6.968941e-002
722520	9.877456e-001	-7.006520e-002
727475	9.875959e-001	-7.034285e-002
732430	9.874076e-001	-7.080377e-002
737385	9.873325e-001	-7.118585e-002
742340	9.871893e-001	-7.150967e-002
747295	9.870558e-001	-7.195337e-002
752250	9.869584e-001	-7.226654e-002
757205	9.869719e-001	-7.262639e-002
762160	9.867735e-001	-7.302576e-002
767115	9.866542e-001	-7.350224e-002
772070	9.864826e-001	-7.366937e-002
777025	9.864317e-001	-7.407616e-002
781980	9.862895e-001	-7.444349e-002
786935	9.862105e-001	-7.491786e-002
791890	9.859716e-001	-7.530011e-002
796845	9.859452e-001	-7.560178e-002
801800	9.857477e-001	-7.605722e-002
806755	9.857149e-001	-7.614814e-002
811710	9.855741e-001	-7.675927e-002
816665	9.854131e-001	-7.708152e-002
821620	9.854578e-001	-7.748030e-002
826575	9.852317e-001	-7.779222e-002
831530	9.851715e-001	-7.827504e-002
836485	9.851293e-001	-7.852648e-002
841440	9.850046e-001	-7.898834e-002
846395	9.849392e-001	-7.926375e-002
851350	9.847791e-001	-7.970592e-002
856305	9.847967e-001	-8.004247e-002
861260	9.846833e-001	-8.040596e-002
866215	9.846042e-001	-8.076553e-002
871170	9.844887e-001	-8.115576e-002
876125	9.844458e-001	-8.149342e-002
881080	9.841669e-001	-8.185662e-002
886035	9.841849e-001	-8.221796e-002
890990	9.841217e-001	-8.271759e-002
895945	9.839935e-001	-8.309740e-002
900900	9.839362e-001	-8.353329e-002
905855	9.838256e-001	-8.376811e-002
910810	9.837814e-001	-8.408117e-002
915765	9.837306e-001	-8.448941e-002
920720	9.835703e-001	-8.482039e-002
925675	9.834771e-001	-8.524280e-002
930630	9.834947e-001	-8.564487e-002
935585	9.832770e-001	-8.598309e-002
940540	9.832358e-001	-8.644132e-002
945495	9.831733e-001	-8.673800e-002
950450	9.830204e-001	-8.719320e-002
955405	9.830387e-001	-8.743151e-002
960360	9.829911e-001	-8.789568e-002
965315	9.829025e-001	-8.817119e-002
970270	9.828088e-001	-8.864179e-002
975225	9.827416e-001	-8.905946e-002
980180	9.827085e-001	-8.944288e-002
985135	9.825297e-001	-8.973614e-002
990090	9.825035e-001	-9.012963e-002
995045	9.824712e-001	-9.054510e-002
1000000	9.824216e-001	-9.092747e-002
