!Agilent Technologies,E5071C,MY46109397,A.09.54
!Date: Mon Jan 01 01:24:45 2001
!Data & Calibration Information:
!Freq	S11:SOLT1(ON)
# Hz S RI R 50
9000	1.007827e+000	8.050580e-003
13955	9.986383e-001	-1.568225e-003
18910	9.989438e-001	-2.282667e-003
23865	9.993134e-001	-3.145191e-003
28820	9.993857e-001	-3.724427e-003
33775	9.994975e-001	-4.515414e-003
38730	9.994137e-001	-5.111527e-003
43685	9.994601e-001	-5.713417e-003
48640	9.995498e-001	-6.343466e-003
53595	9.993801e-001	-6.968568e-003
58550	9.993590e-001	-7.526274e-003
63505	9.993730e-001	-8.115151e-003
68460	9.995230e-001	-8.796020e-003
73415	9.993304e-001	-9.473064e-003
78370	9.992463e-001	-1.000555e-002
83325	9.991270e-001	-1.075593e-002
88280	9.990220e-001	-1.139128e-002
93235	9.986059e-001	-1.182119e-002
98190	9.985569e-001	-1.207373e-002
103145	9.986731e-001	-1.240088e-002
108100	9.987991e-001	-1.316266e-002
113055	9.990001e-001	-1.366628e-002
118010	9.988360e-001	-1.424197e-002
122965	9.987567e-001	-1.503978e-002
127920	9.985952e-001	-1.552381e-002
132875	9.985551e-001	-1.608432e-002
137830	9.983671e-001	-1.654335e-002
142785	9.984797e-001	-1.704667e-002
147740	9.984766e-001	-1.744644e-002
152695	9.984072e-001	-1.796430e-002
157650	9.984174e-001	-1.863633e-002
162605	9.983734e-001	-1.904877e-002
167560	9.984616e-001	-1.956479e-002
172515	9.982898e-001	-2.020153e-002
177470	9.984065e-001	-2.077912e-002
182425	9.983469e-001	-2.135315e-002
187380	9.981598e-001	-2.191463e-002
192335	9.980134e-001	-2.243602e-002
197290	9.979613e-001	-2.277541e-002
202245	9.979028e-001	-2.320259e-002
207200	9.978743e-001	-2.376870e-002
212155	9.980541e-001	-2.423967e-002
217110	9.978816e-001	-2.484861e-002
222065	9.979865e-001	-2.528448e-002
227020	9.979600e-001	-2.581087e-002
231975	9.978602e-001	-2.643767e-002
236930	9.978447e-001	-2.712554e-002
241885	9.977607e-001	-2.753310e-002
246840	9.977673e-001	-2.795072e-002
251795	9.976594e-001	-2.860896e-002
256750	9.975555e-001	-2.913527e-002
261705	9.975798e-001	-2.965043e-002
266660	9.974350e-001	-3.019074e-002
271615	9.974303e-001	-3.069584e-002
276570	9.973577e-001	-3.114731e-002
281525	9.973266e-001	-3.163613e-002
286480	9.971783e-001	-3.219974e-002
291435	9.971285e-001	-3.278640e-002
296390	9.971155e-001	-3.320935e-002
301345	9.969903e-001	-3.372999e-002
306300	9.969360e-001	-3.426444e-002
311255	9.968975e-001	-3.483256e-002
316210	9.967964e-001	-3.532633e-002
321165	9.967262e-001	-3.565052e-002
326120	9.966710e-001	-3.623697e-002
331075	9.966250e-001	-3.663853e-002
336030	9.965525e-001	-3.717406e-002
340985	9.965048e-001	-3.765999e-002
345940	9.963827e-001	-3.818174e-002
350895	9.963900e-001	-3.875024e-002
355850	9.963380e-001	-3.924872e-002
360805	9.962851e-001	-3.959559e-002
365760	9.962649e-001	-4.027990e-002
370715	9.962073e-001	-4.077489e-002
375670	9.961623e-001	-4.111825e-002
380625	9.959240e-001	-4.171184e-002
385580	9.959397e-001	-4.225449e-002
390535	9.958218e-001	-4.270622e-002
395490	9.958865e-001	-4.330079e-002
400445	9.957972e-001	-4.374680e-002
405400	9.956815e-001	-4.426996e-002
410355	9.955783e-001	-4.471794e-002
415310	9.956205e-001	-4.532181e-002
420265	9.954596e-001	-4.571607e-002
425220	9.953943e-001	-4.627699e-002
430175	9.952985e-001	-4.663533e-002
435130	9.952771e-001	-4.716240e-002
440085	9.951286e-001	-4.774338e-002
445040	9.949784e-001	-4.824286e-002
449995	9.950430e-001	-4.872626e-002
454950	9.949462e-001	-4.917604e-002
459905	9.948479e-001	-4.966191e-002
464860	9.947159e-001	-5.019700e-002
469815	9.947373e-001	-5.065626e-002
474770	9.945719e-001	-5.118234e-002
479725	9.945358e-001	-5.166581e-002
484680	9.945174e-001	-5.216152e-002
489635	9.944315e-001	-5.273225e-002
494590	9.943098e-001	-5.312832e-002
499545	9.941919e-001	-5.355818e-002
504500	9.941275e-001	-5.411818e-002
509455	9.940800e-001	-5.465512e-002
514410	9.939232e-001	-5.509433e-002
519365	9.938480e-001	-5.560881e-002
524320	9.938167e-001	-5.604258e-002
529275	9.937261e-001	-5.660087e-002
534230	9.936221e-001	-5.703507e-002
539185	9.935738e-001	-5.746622e-002
544140	9.935276e-001	-5.790927e-002
549095	9.934798e-001	-5.847477e-002
554050	9.933067e-001	-5.899422e-002
559005	9.932553e-001	-5.941462e-002
563960	9.931384e-001	-5.991570e-002
568915	9.929867e-001	-6.052171e-002
573870	9.929848e-001	-6.087373e-002
578825	9.929475e-001	-6.142609e-002
583780	9.928645e-001	-6.181727e-002
588735	9.927926e-001	-6.230087e-002
593690	9.926998e-001	-6.290519e-002
598645	9.925801e-001	-6.325102e-002
603600	9.925211e-001	-6.380467e-002
608555	9.924378e-001	-6.439776e-002
613510	9.922303e-001	-6.491953e-002
618465	9.922217e-001	-6.532835e-002
623420	9.921450e-001	-6.580584e-002
628375	9.919738e-001	-6.626436e-002
633330	9.918605e-001	-6.677588e-002
638285	9.918232e-001	-6.733081e-002
643240	9.917012e-001	-6.782038e-002
648195	9.916592e-001	-6.820961e-002
653150	9.914396e-001	-6.869154e-002
658105	9.914150e-001	-6.923529e-002
663060	9.913558e-001	-6.966903e-002
668015	9.911792e-001	-7.010499e-002
672970	9.911724e-001	-7.061078e-002
677925	9.909994e-001	-7.116904e-002
682880	9.909634e-001	-7.168729e-002
687835	9.908242e-001	-7.204403e-002
692790	9.906168e-001	-7.258813e-002
697745	9.905474e-001	-7.297493e-002
702700	9.903732e-001	-7.353154e-002
707655	9.904704e-001	-7.403061e-002
712610	9.902806e-001	-7.449445e-002
717565	9.902009e-001	-7.507912e-002
722520	9.900419e-001	-7.542697e-002
727475	9.899450e-001	-7.589960e-002
732430	9.896555e-001	-7.639728e-002
737385	9.896176e-001	-7.691538e-002
742340	9.896236e-001	-7.740667e-002
747295	9.894587e-001	-7.789593e-002
752250	9.894490e-001	-7.829730e-002
757205	9.894154e-001	-7.888838e-002
762160	9.892337e-001	-7.921352e-002
767115	9.891399e-001	-7.978997e-002
772070	9.890374e-001	-8.019157e-002
777025	9.888744e-001	-8.066837e-002
781980	9.888096e-001	-8.109893e-002
786935	9.886773e-001	-8.165414e-002
791890	9.886061e-001	-8.219760e-002
796845	9.884725e-001	-8.255324e-002
801800	9.882797e-001	-8.310643e-002
806755	9.882453e-001	-8.335742e-002
811710	9.880973e-001	-8.403756e-002
816665	9.880101e-001	-8.451449e-002
821620	9.879009e-001	-8.491973e-002
826575	9.878186e-001	-8.544026e-002
831530	9.876736e-001	-8.602150e-002
836485	9.875681e-001	-8.639561e-002
841440	9.874889e-001	-8.691946e-002
846395	9.874211e-001	-8.737170e-002
851350	9.872427e-001	-8.786039e-002
856305	9.870459e-001	-8.834550e-002
861260	9.870616e-001	-8.876302e-002
866215	9.869637e-001	-8.932087e-002
871170	9.868473e-001	-8.982537e-002
876125	9.866666e-001	-9.028444e-002
881080	9.864643e-001	-9.070836e-002
886035	9.865154e-001	-9.125698e-002
890990	9.863892e-001	-9.173305e-002
895945	9.862042e-001	-9.225027e-002
900900	9.860709e-001	-9.277188e-002
905855	9.858823e-001	-9.314973e-002
910810	9.859063e-001	-9.351298e-002
915765	9.856547e-001	-9.402593e-002
920720	9.855577e-001	-9.460444e-002
925675	9.854622e-001	-9.505994e-002
930630	9.854136e-001	-9.551713e-002
935585	9.851618e-001	-9.597371e-002
940540	9.850580e-001	-9.657546e-002
945495	9.849812e-001	-9.704798e-002
950450	9.848137e-001	-9.749797e-002
955405	9.845745e-001	-9.786602e-002
960360	9.846429e-001	-9.838328e-002
965315	9.844732e-001	-9.881300e-002
970270	9.843519e-001	-9.936107e-002
975225	9.841972e-001	-9.991890e-002
980180	9.841134e-001	-1.003415e-001
985135	9.838005e-001	-1.007108e-001
990090	9.837805e-001	-1.014847e-001
995045	9.836432e-001	-1.017739e-001
1000000	9.835426e-001	-1.023234e-001
