!Agilent Technologies,E5071C,MY46109397,A.09.54
!Date: Mon Jan 01 01:23:45 2001
!Data & Calibration Information:
!Freq	S11:SOLT1(ON)
# Hz S RI R 50
9000	1.004654e+000	-1.724324e-003
13955	9.942705e-001	-1.639628e-002
18910	9.937477e-001	-2.332908e-002
23865	9.919442e-001	-3.337748e-002
28820	9.869341e-001	-4.476789e-002
33775	9.755664e-001	-5.957796e-002
38730	9.469671e-001	-7.468954e-002
43685	8.960242e-001	-5.802238e-002
48640	8.866863e-001	1.283928e-002
53595	9.344275e-001	3.825511e-002
58550	9.596197e-001	2.582100e-002
63505	9.678274e-001	1.401514e-002
68460	9.680009e-001	6.448580e-003
73415	9.657056e-001	7.109428e-003
78370	9.700168e-001	1.130601e-002
83325	9.781269e-001	1.002783e-002
88280	9.838747e-001	5.642507e-003
93235	9.873849e-001	7.353327e-004
98190	9.896389e-001	-4.206555e-003
103145	9.910038e-001	-8.827464e-003
108100	9.917858e-001	-1.341045e-002
113055	9.921576e-001	-1.773662e-002
118010	9.915252e-001	-2.228749e-002
122965	9.898693e-001	-2.694726e-002
127920	9.858726e-001	-3.068094e-002
132875	9.801220e-001	-3.080249e-002
137830	9.780292e-001	-2.568227e-002
142785	9.825182e-001	-2.270401e-002
147740	9.866414e-001	-2.450411e-002
152695	9.890352e-001	-2.746234e-002
157650	9.902932e-001	-3.082744e-002
162605	9.906514e-001	-3.403878e-002
167560	9.905457e-001	-3.678934e-002
172515	9.902500e-001	-3.922649e-002
177470	9.900818e-001	-4.152001e-002
182425	9.899603e-001	-4.383349e-002
187380	9.895557e-001	-4.623661e-002
192335	9.888714e-001	-4.860546e-002
197290	9.880469e-001	-5.080285e-002
202245	9.867540e-001	-5.281180e-002
207200	9.851769e-001	-5.470346e-002
212155	9.834281e-001	-5.584980e-002
217110	9.814188e-001	-5.625299e-002
222065	9.803586e-001	-5.551043e-002
227020	9.802369e-001	-5.440462e-002
231975	9.814496e-001	-5.390604e-002
236930	9.832634e-001	-5.434123e-002
241885	9.850346e-001	-5.551132e-002
246840	9.864922e-001	-5.748964e-002
251795	9.873990e-001	-5.979511e-002
256750	9.879792e-001	-6.205071e-002
261705	9.882382e-001	-6.451859e-002
266660	9.881187e-001	-6.679003e-002
271615	9.879706e-001	-6.894886e-002
276570	9.874606e-001	-7.094251e-002
281525	9.870792e-001	-7.274451e-002
286480	9.865108e-001	-7.425134e-002
291435	9.861356e-001	-7.579909e-002
296390	9.859551e-001	-7.724297e-002
301345	9.857408e-001	-7.880572e-002
306300	9.854524e-001	-8.035787e-002
311255	9.851767e-001	-8.191110e-002
316210	9.848398e-001	-8.337243e-002
321165	9.846281e-001	-8.450622e-002
326120	9.846468e-001	-8.584143e-002
331075	9.847777e-001	-8.713425e-002
336030	9.850952e-001	-8.878347e-002
340985	9.850918e-001	-9.057331e-002
345940	9.851735e-001	-9.251280e-002
350895	9.851198e-001	-9.447382e-002
355850	9.848978e-001	-9.645879e-002
360805	9.847512e-001	-9.837058e-002
365760	9.844643e-001	-1.005093e-001
370715	9.840255e-001	-1.023250e-001
375670	9.835358e-001	-1.041974e-001
380625	9.828551e-001	-1.061653e-001
385580	9.823201e-001	-1.082237e-001
390535	9.817988e-001	-1.100156e-001
395490	9.811225e-001	-1.119426e-001
400445	9.802889e-001	-1.136974e-001
405400	9.794737e-001	-1.155301e-001
410355	9.785328e-001	-1.171712e-001
415310	9.777880e-001	-1.188402e-001
420265	9.769239e-001	-1.203144e-001
425220	9.762475e-001	-1.218291e-001
430175	9.754926e-001	-1.232597e-001
435130	9.748390e-001	-1.249174e-001
440085	9.743345e-001	-1.265929e-001
445040	9.735563e-001	-1.285220e-001
449995	9.727927e-001	-1.304583e-001
454950	9.717965e-001	-1.323919e-001
459905	9.706469e-001	-1.344776e-001
464860	9.690744e-001	-1.364603e-001
469815	9.675076e-001	-1.384573e-001
474770	9.654736e-001	-1.401179e-001
479725	9.634423e-001	-1.416154e-001
484680	9.611463e-001	-1.427643e-001
489635	9.586703e-001	-1.436293e-001
494590	9.563654e-001	-1.437905e-001
499545	9.542208e-001	-1.436712e-001
504500	9.521956e-001	-1.430626e-001
509455	9.508212e-001	-1.423474e-001
514410	9.496992e-001	-1.413530e-001
519365	9.490716e-001	-1.403554e-001
524320	9.491061e-001	-1.394627e-001
529275	9.492810e-001	-1.386562e-001
534230	9.498170e-001	-1.381792e-001
539185	9.507151e-001	-1.379867e-001
544140	9.517286e-001	-1.381698e-001
549095	9.527766e-001	-1.386467e-001
554050	9.537025e-001	-1.394161e-001
559005	9.545661e-001	-1.403662e-001
563960	9.553963e-001	-1.415437e-001
568915	9.560405e-001	-1.430268e-001
573870	9.567508e-001	-1.444654e-001
578825	9.572999e-001	-1.460228e-001
583780	9.578535e-001	-1.476407e-001
588735	9.581983e-001	-1.493726e-001
593690	9.584218e-001	-1.513023e-001
598645	9.584832e-001	-1.530332e-001
603600	9.585947e-001	-1.548575e-001
608555	9.585035e-001	-1.568875e-001
613510	9.583041e-001	-1.588876e-001
618465	9.582228e-001	-1.608303e-001
623420	9.578832e-001	-1.627831e-001
628375	9.574234e-001	-1.647289e-001
633330	9.569679e-001	-1.666770e-001
638285	9.564946e-001	-1.686509e-001
643240	9.558748e-001	-1.706710e-001
648195	9.551678e-001	-1.725245e-001
653150	9.544411e-001	-1.743867e-001
658105	9.536160e-001	-1.762334e-001
663060	9.528564e-001	-1.780954e-001
668015	9.518537e-001	-1.799160e-001
672970	9.509781e-001	-1.817251e-001
677925	9.499105e-001	-1.836056e-001
682880	9.488172e-001	-1.852870e-001
687835	9.477466e-001	-1.868715e-001
692790	9.465406e-001	-1.884402e-001
697745	9.454097e-001	-1.899817e-001
702700	9.441938e-001	-1.916335e-001
707655	9.430686e-001	-1.930808e-001
712610	9.417591e-001	-1.945328e-001
717565	9.405097e-001	-1.960318e-001
722520	9.392678e-001	-1.974165e-001
727475	9.379061e-001	-1.986276e-001
732430	9.364745e-001	-1.999720e-001
737385	9.352131e-001	-2.012472e-001
742340	9.338222e-001	-2.025336e-001
747295	9.325349e-001	-2.037240e-001
752250	9.312888e-001	-2.048475e-001
757205	9.298206e-001	-2.061105e-001
762160	9.283705e-001	-2.071910e-001
767115	9.269159e-001	-2.082975e-001
772070	9.254645e-001	-2.092635e-001
777025	9.239804e-001	-2.102076e-001
781980	9.223760e-001	-2.111510e-001
786935	9.209526e-001	-2.119724e-001
791890	9.193560e-001	-2.129668e-001
796845	9.178557e-001	-2.135433e-001
801800	9.162057e-001	-2.142839e-001
806755	9.147603e-001	-2.147761e-001
811710	9.132687e-001	-2.154551e-001
816665	9.117058e-001	-2.159082e-001
821620	9.102672e-001	-2.163883e-001
826575	9.088281e-001	-2.167352e-001
831530	9.074144e-001	-2.171443e-001
836485	9.060232e-001	-2.173519e-001
841440	9.047060e-001	-2.175819e-001
846395	9.033616e-001	-2.176728e-001
851350	9.021458e-001	-2.178589e-001
856305	9.009066e-001	-2.180818e-001
861260	8.998310e-001	-2.180554e-001
866215	8.987034e-001	-2.181354e-001
871170	8.976377e-001	-2.181656e-001
876125	8.965066e-001	-2.180947e-001
881080	8.954845e-001	-2.180355e-001
886035	8.945399e-001	-2.180033e-001
890990	8.937670e-001	-2.179964e-001
895945	8.928841e-001	-2.179031e-001
900900	8.920587e-001	-2.178683e-001
905855	8.912802e-001	-2.176210e-001
910810	8.905719e-001	-2.174042e-001
915765	8.899496e-001	-2.174315e-001
920720	8.890764e-001	-2.171864e-001
925675	8.886086e-001	-2.170279e-001
930630	8.881444e-001	-2.168008e-001
935585	8.875561e-001	-2.164454e-001
940540	8.871676e-001	-2.163202e-001
945495	8.867606e-001	-2.159392e-001
950450	8.865252e-001	-2.156901e-001
955405	8.864294e-001	-2.152372e-001
960360	8.864807e-001	-2.151357e-001
965315	8.864654e-001	-2.146337e-001
970270	8.865929e-001	-2.144639e-001
975225	8.868287e-001	-2.143358e-001
980180	8.871847e-001	-2.142956e-001
985135	8.876520e-001	-2.141970e-001
990090	8.882240e-001	-2.144305e-001
995045	8.887150e-001	-2.145406e-001
1000000	8.894078e-001	-2.149427e-001
