!Agilent Technologies,E5071C,MY46109397,A.09.54
!Date: Mon Jan 01 01:24:03 2001
!Data & Calibration Information:
!Freq	S11:SOLT1(ON)
# Hz S RI R 50
9000	1.000793e+000	-1.827689e-002
13955	9.795247e-001	-4.079943e-002
18910	9.605881e-001	-5.784924e-002
23865	9.192317e-001	-6.631346e-002
28820	8.709129e-001	-1.902066e-002
33775	8.986835e-001	4.667702e-002
38730	9.443762e-001	5.037343e-002
43685	9.644102e-001	3.740115e-002
48640	9.748571e-001	2.640990e-002
53595	9.803562e-001	1.613207e-002
58550	9.833794e-001	7.370847e-003
63505	9.846106e-001	-8.391652e-004
68460	9.843497e-001	-8.607886e-003
73415	9.818502e-001	-1.629730e-002
78370	9.759184e-001	-2.283822e-002
83325	9.656207e-001	-2.485299e-002
88280	9.568566e-001	-1.573655e-002
93235	9.629120e-001	-3.647324e-003
98190	9.745521e-001	-3.577567e-003
103145	9.813434e-001	-9.447299e-003
108100	9.845948e-001	-1.660555e-002
113055	9.855252e-001	-2.369844e-002
118010	9.839946e-001	-3.108764e-002
122965	9.788182e-001	-3.815908e-002
127920	9.685001e-001	-4.080228e-002
132875	9.592963e-001	-3.213381e-002
137830	9.641154e-001	-2.091390e-002
142785	9.742977e-001	-2.046521e-002
147740	9.799180e-001	-2.481778e-002
152695	9.828391e-001	-2.981426e-002
157650	9.842308e-001	-3.485436e-002
162605	9.842752e-001	-3.954288e-002
167560	9.839242e-001	-4.386129e-002
172515	9.830088e-001	-4.822626e-002
177470	9.813738e-001	-5.275352e-002
182425	9.785442e-001	-5.700001e-002
187380	9.743365e-001	-6.081229e-002
192335	9.689410e-001	-6.316146e-002
197290	9.625002e-001	-6.326918e-002
202245	9.559170e-001	-6.041059e-002
207200	9.516006e-001	-5.418829e-002
212155	9.517479e-001	-4.631685e-002
217110	9.558592e-001	-4.018328e-002
222065	9.621335e-001	-3.730905e-002
227020	9.682080e-001	-3.739377e-002
231975	9.731522e-001	-3.943523e-002
236930	9.769931e-001	-4.242583e-002
241885	9.798204e-001	-4.558872e-002
246840	9.819365e-001	-4.880907e-002
251795	9.833828e-001	-5.226766e-002
256750	9.844680e-001	-5.542863e-002
261705	9.852723e-001	-5.854100e-002
266660	9.856279e-001	-6.157505e-002
271615	9.859759e-001	-6.446771e-002
276570	9.861180e-001	-6.715548e-002
281525	9.861917e-001	-6.971387e-002
286480	9.860302e-001	-7.225042e-002
291435	9.858995e-001	-7.481140e-002
296390	9.857738e-001	-7.715057e-002
301345	9.855676e-001	-7.955167e-002
306300	9.851449e-001	-8.202496e-002
311255	9.846871e-001	-8.422597e-002
316210	9.841482e-001	-8.632082e-002
321165	9.837050e-001	-8.816945e-002
326120	9.834030e-001	-9.003507e-002
331075	9.832366e-001	-9.196989e-002
336030	9.831793e-001	-9.412781e-002
340985	9.828613e-001	-9.631597e-002
345940	9.825124e-001	-9.871759e-002
350895	9.820286e-001	-1.011463e-001
355850	9.813755e-001	-1.034768e-001
360805	9.806006e-001	-1.057895e-001
365760	9.795688e-001	-1.083607e-001
370715	9.783020e-001	-1.104989e-001
375670	9.770479e-001	-1.124909e-001
380625	9.754498e-001	-1.144884e-001
385580	9.738477e-001	-1.162348e-001
390535	9.722062e-001	-1.177015e-001
395490	9.704078e-001	-1.190182e-001
400445	9.685582e-001	-1.199266e-001
405400	9.667420e-001	-1.205141e-001
410355	9.651105e-001	-1.204714e-001
415310	9.639877e-001	-1.200987e-001
420265	9.634857e-001	-1.194417e-001
425220	9.636389e-001	-1.189160e-001
430175	9.643556e-001	-1.187180e-001
435130	9.655017e-001	-1.192670e-001
440085	9.667527e-001	-1.203402e-001
445040	9.677142e-001	-1.219420e-001
449995	9.686172e-001	-1.238602e-001
454950	9.689764e-001	-1.258530e-001
459905	9.692106e-001	-1.281510e-001
464860	9.689562e-001	-1.305822e-001
469815	9.685652e-001	-1.329676e-001
474770	9.676567e-001	-1.350869e-001
479725	9.666708e-001	-1.371146e-001
484680	9.653778e-001	-1.389334e-001
489635	9.639234e-001	-1.403861e-001
494590	9.624983e-001	-1.412420e-001
499545	9.612723e-001	-1.417819e-001
504500	9.602957e-001	-1.418195e-001
509455	9.600820e-001	-1.420675e-001
514410	9.600618e-001	-1.423297e-001
519365	9.604936e-001	-1.429299e-001
524320	9.610803e-001	-1.438551e-001
529275	9.613447e-001	-1.449700e-001
534230	9.616487e-001	-1.464126e-001
539185	9.617995e-001	-1.477612e-001
544140	9.621185e-001	-1.491802e-001
549095	9.621354e-001	-1.506934e-001
554050	9.619723e-001	-1.521578e-001
559005	9.619989e-001	-1.536668e-001
563960	9.618300e-001	-1.551034e-001
568915	9.618742e-001	-1.567076e-001
573870	9.619376e-001	-1.582149e-001
578825	9.619649e-001	-1.597192e-001
583780	9.619368e-001	-1.612860e-001
588735	9.618936e-001	-1.629399e-001
593690	9.619326e-001	-1.647640e-001
598645	9.616839e-001	-1.663778e-001
603600	9.616193e-001	-1.681614e-001
608555	9.613617e-001	-1.700016e-001
613510	9.610691e-001	-1.719115e-001
618465	9.609218e-001	-1.736185e-001
623420	9.606531e-001	-1.754538e-001
628375	9.601862e-001	-1.772469e-001
633330	9.598445e-001	-1.791285e-001
638285	9.594208e-001	-1.808920e-001
643240	9.589634e-001	-1.828429e-001
648195	9.584294e-001	-1.845572e-001
653150	9.578584e-001	-1.863499e-001
658105	9.572977e-001	-1.882157e-001
663060	9.567272e-001	-1.899794e-001
668015	9.560891e-001	-1.917298e-001
672970	9.554297e-001	-1.935187e-001
677925	9.547159e-001	-1.952857e-001
682880	9.540025e-001	-1.970429e-001
687835	9.533171e-001	-1.986152e-001
692790	9.524751e-001	-2.002699e-001
697745	9.517360e-001	-2.018932e-001
702700	9.509690e-001	-2.036150e-001
707655	9.502936e-001	-2.050528e-001
712610	9.494559e-001	-2.066518e-001
717565	9.487157e-001	-2.083090e-001
722520	9.480029e-001	-2.097869e-001
727475	9.472590e-001	-2.111507e-001
732430	9.464310e-001	-2.127565e-001
737385	9.457925e-001	-2.142184e-001
742340	9.449983e-001	-2.158651e-001
747295	9.443029e-001	-2.173300e-001
752250	9.437112e-001	-2.187782e-001
757205	9.429997e-001	-2.204478e-001
762160	9.422956e-001	-2.219856e-001
767115	9.415372e-001	-2.236692e-001
772070	9.408083e-001	-2.251100e-001
777025	9.400251e-001	-2.267370e-001
781980	9.392157e-001	-2.283385e-001
786935	9.384957e-001	-2.299853e-001
791890	9.376464e-001	-2.317111e-001
796845	9.367985e-001	-2.332260e-001
801800	9.358617e-001	-2.349388e-001
806755	9.350000e-001	-2.363338e-001
811710	9.339696e-001	-2.381516e-001
816665	9.330284e-001	-2.397770e-001
821620	9.320789e-001	-2.413163e-001
826575	9.310530e-001	-2.429350e-001
831530	9.299132e-001	-2.446874e-001
836485	9.288603e-001	-2.461178e-001
841440	9.277827e-001	-2.477760e-001
846395	9.266280e-001	-2.492606e-001
851350	9.254102e-001	-2.506838e-001
856305	9.242963e-001	-2.522566e-001
861260	9.231241e-001	-2.537246e-001
866215	9.219953e-001	-2.552082e-001
871170	9.207089e-001	-2.566963e-001
876125	9.193873e-001	-2.579930e-001
881080	9.180960e-001	-2.593625e-001
886035	9.169331e-001	-2.607333e-001
890990	9.155842e-001	-2.621523e-001
895945	9.142069e-001	-2.634320e-001
900900	9.129097e-001	-2.647745e-001
905855	9.116011e-001	-2.659139e-001
910810	9.103632e-001	-2.671253e-001
915765	9.089258e-001	-2.684008e-001
920720	9.074668e-001	-2.696375e-001
925675	9.060401e-001	-2.707748e-001
930630	9.046873e-001	-2.718746e-001
935585	9.032267e-001	-2.729108e-001
940540	9.017327e-001	-2.740571e-001
945495	9.003120e-001	-2.749905e-001
950450	8.988540e-001	-2.759670e-001
955405	8.973679e-001	-2.768248e-001
960360	8.959851e-001	-2.777892e-001
965315	8.946059e-001	-2.784603e-001
970270	8.929902e-001	-2.793328e-001
975225	8.916321e-001	-2.800805e-001
980180	8.901660e-001	-2.808210e-001
985135	8.886908e-001	-2.814208e-001
990090	8.873871e-001	-2.820386e-001
995045	8.859283e-001	-2.825809e-001
1000000	8.847192e-001	-2.829994e-001
