!Agilent Technologies,E5071C,MY46109397,A.09.54
!Date: Mon Jan 01 01:24:15 2001
!Data & Calibration Information:
!Freq	S11:SOLT1(ON)
# Hz S RI R 50
9000	9.788336e-001	-3.108249e-002
13955	9.236602e-001	-3.732675e-002
18910	8.989591e-001	-3.079486e-003
23865	9.095277e-001	4.328442e-002
28820	9.447719e-001	5.648032e-002
33775	9.681360e-001	4.484325e-002
38730	9.787416e-001	3.352289e-002
43685	9.845119e-001	2.433520e-002
48640	9.876054e-001	1.645886e-002
53595	9.892811e-001	9.759087e-003
58550	9.900323e-001	3.885395e-003
63505	9.899898e-001	-1.675427e-003
68460	9.894284e-001	-7.017895e-003
73415	9.875384e-001	-1.204149e-002
78370	9.837940e-001	-1.604395e-002
83325	9.782618e-001	-1.790150e-002
88280	9.734807e-001	-1.466917e-002
93235	9.746896e-001	-8.784184e-003
98190	9.805127e-001	-7.545493e-003
103145	9.852429e-001	-1.082466e-002
108100	9.875222e-001	-1.595965e-002
113055	9.875266e-001	-2.147408e-002
118010	9.843536e-001	-2.678971e-002
122965	9.774324e-001	-2.924904e-002
127920	9.709019e-001	-2.369491e-002
132875	9.740055e-001	-1.548680e-002
137830	9.811552e-001	-1.430669e-002
142785	9.860866e-001	-1.697325e-002
147740	9.888714e-001	-2.037308e-002
152695	9.904606e-001	-2.368899e-002
157650	9.914100e-001	-2.706281e-002
162605	9.914402e-001	-2.994274e-002
167560	9.913778e-001	-3.214444e-002
172515	9.914611e-001	-3.413489e-002
177470	9.919980e-001	-3.590793e-002
182425	9.924679e-001	-3.800305e-002
187380	9.927147e-001	-4.013137e-002
192335	9.929450e-001	-4.219593e-002
197290	9.931086e-001	-4.422415e-002
202245	9.930519e-001	-4.624086e-002
207200	9.931191e-001	-4.835161e-002
212155	9.931650e-001	-5.032069e-002
217110	9.930239e-001	-5.226110e-002
222065	9.931373e-001	-5.409129e-002
227020	9.930809e-001	-5.605817e-002
231975	9.929471e-001	-5.801042e-002
236930	9.927067e-001	-6.006240e-002
241885	9.925295e-001	-6.188457e-002
246840	9.923806e-001	-6.363526e-002
251795	9.920294e-001	-6.560350e-002
256750	9.917181e-001	-6.734123e-002
261705	9.915013e-001	-6.911292e-002
266660	9.911699e-001	-7.091746e-002
271615	9.908509e-001	-7.266222e-002
276570	9.904007e-001	-7.426900e-002
281525	9.902068e-001	-7.583670e-002
286480	9.898311e-001	-7.745836e-002
291435	9.895318e-001	-7.918865e-002
296390	9.891888e-001	-8.079160e-002
301345	9.888636e-001	-8.253758e-002
306300	9.884202e-001	-8.426256e-002
311255	9.879437e-001	-8.591397e-002
316210	9.873549e-001	-8.744204e-002
321165	9.868930e-001	-8.872754e-002
326120	9.866466e-001	-9.015958e-002
331075	9.864195e-001	-9.144875e-002
336030	9.864309e-001	-9.305629e-002
340985	9.861355e-001	-9.463822e-002
345940	9.858894e-001	-9.650294e-002
350895	9.855732e-001	-9.830998e-002
355850	9.850708e-001	-1.000948e-001
360805	9.845998e-001	-1.017182e-001
365760	9.839570e-001	-1.036496e-001
370715	9.831408e-001	-1.052415e-001
375670	9.825377e-001	-1.065630e-001
380625	9.816223e-001	-1.079417e-001
385580	9.810346e-001	-1.092201e-001
390535	9.807395e-001	-1.103070e-001
395490	9.804917e-001	-1.116240e-001
400445	9.801332e-001	-1.129777e-001
405400	9.799969e-001	-1.145401e-001
410355	9.796790e-001	-1.161786e-001
415310	9.794091e-001	-1.179515e-001
420265	9.789300e-001	-1.195634e-001
425220	9.784207e-001	-1.213522e-001
430175	9.778175e-001	-1.231269e-001
435130	9.770866e-001	-1.249696e-001
440085	9.763612e-001	-1.266962e-001
445040	9.755510e-001	-1.285259e-001
449995	9.746906e-001	-1.302067e-001
454950	9.735884e-001	-1.318614e-001
459905	9.725354e-001	-1.335400e-001
464860	9.712839e-001	-1.351545e-001
469815	9.700496e-001	-1.367356e-001
474770	9.685713e-001	-1.380401e-001
479725	9.671284e-001	-1.392937e-001
484680	9.656639e-001	-1.403784e-001
489635	9.641428e-001	-1.412280e-001
494590	9.626148e-001	-1.417433e-001
499545	9.613382e-001	-1.422863e-001
504500	9.600587e-001	-1.425945e-001
509455	9.590011e-001	-1.429793e-001
514410	9.579319e-001	-1.431639e-001
519365	9.569885e-001	-1.433396e-001
524320	9.563286e-001	-1.434008e-001
529275	9.556859e-001	-1.433156e-001
534230	9.552046e-001	-1.432647e-001
539185	9.550238e-001	-1.431809e-001
544140	9.550958e-001	-1.432239e-001
549095	9.553277e-001	-1.433985e-001
554050	9.555749e-001	-1.437045e-001
559005	9.560014e-001	-1.441347e-001
563960	9.563280e-001	-1.446804e-001
568915	9.567122e-001	-1.455300e-001
573870	9.571750e-001	-1.464014e-001
578825	9.576062e-001	-1.473466e-001
583780	9.580120e-001	-1.482866e-001
588735	9.582960e-001	-1.494402e-001
593690	9.586323e-001	-1.505834e-001
598645	9.587776e-001	-1.517069e-001
603600	9.589941e-001	-1.529787e-001
608555	9.591734e-001	-1.542597e-001
613510	9.593302e-001	-1.556431e-001
618465	9.595150e-001	-1.568740e-001
623420	9.596826e-001	-1.582940e-001
628375	9.597876e-001	-1.597230e-001
633330	9.598659e-001	-1.611359e-001
638285	9.599508e-001	-1.627354e-001
643240	9.598718e-001	-1.643028e-001
648195	9.598781e-001	-1.657635e-001
653150	9.597107e-001	-1.673619e-001
658105	9.595731e-001	-1.690374e-001
663060	9.595239e-001	-1.705989e-001
668015	9.591584e-001	-1.721652e-001
672970	9.590043e-001	-1.738048e-001
677925	9.585154e-001	-1.755075e-001
682880	9.581802e-001	-1.770555e-001
687835	9.577870e-001	-1.785444e-001
692790	9.572911e-001	-1.800755e-001
697745	9.568989e-001	-1.815026e-001
702700	9.564728e-001	-1.830958e-001
707655	9.561219e-001	-1.844415e-001
712610	9.555579e-001	-1.859229e-001
717565	9.550812e-001	-1.875096e-001
722520	9.546678e-001	-1.888165e-001
727475	9.541734e-001	-1.901380e-001
732430	9.536272e-001	-1.916681e-001
737385	9.532624e-001	-1.930742e-001
742340	9.527650e-001	-1.945139e-001
747295	9.522313e-001	-1.958912e-001
752250	9.518894e-001	-1.972201e-001
757205	9.515306e-001	-1.987415e-001
762160	9.509265e-001	-2.000518e-001
767115	9.504557e-001	-2.016356e-001
772070	9.499454e-001	-2.029937e-001
777025	9.493797e-001	-2.045411e-001
781980	9.489674e-001	-2.059624e-001
786935	9.484019e-001	-2.073929e-001
791890	9.477932e-001	-2.091022e-001
796845	9.473490e-001	-2.104362e-001
801800	9.465679e-001	-2.119828e-001
806755	9.459898e-001	-2.132895e-001
811710	9.452865e-001	-2.149213e-001
816665	9.445882e-001	-2.163604e-001
821620	9.439858e-001	-2.178829e-001
826575	9.432954e-001	-2.193372e-001
831530	9.425245e-001	-2.208802e-001
836485	9.418085e-001	-2.223590e-001
841440	9.409880e-001	-2.238340e-001
846395	9.401695e-001	-2.251983e-001
851350	9.392922e-001	-2.265264e-001
856305	9.384894e-001	-2.280651e-001
861260	9.376890e-001	-2.294814e-001
866215	9.368685e-001	-2.308760e-001
871170	9.359330e-001	-2.322603e-001
876125	9.350083e-001	-2.335886e-001
881080	9.340407e-001	-2.348493e-001
886035	9.332331e-001	-2.361885e-001
890990	9.322341e-001	-2.375151e-001
895945	9.312092e-001	-2.388333e-001
900900	9.302998e-001	-2.401391e-001
905855	9.293029e-001	-2.412706e-001
910810	9.283663e-001	-2.424047e-001
915765	9.273672e-001	-2.436589e-001
920720	9.262927e-001	-2.448654e-001
925675	9.253012e-001	-2.460340e-001
930630	9.242333e-001	-2.471685e-001
935585	9.231795e-001	-2.483260e-001
940540	9.221083e-001	-2.494036e-001
945495	9.211077e-001	-2.504116e-001
950450	9.200194e-001	-2.514799e-001
955405	9.189997e-001	-2.524191e-001
960360	9.180981e-001	-2.534847e-001
965315	9.170120e-001	-2.544066e-001
970270	9.159291e-001	-2.554410e-001
975225	9.148348e-001	-2.562773e-001
980180	9.138242e-001	-2.572502e-001
985135	9.127312e-001	-2.579803e-001
990090	9.118073e-001	-2.588818e-001
995045	9.107838e-001	-2.596390e-001
1000000	9.099147e-001	-2.603745e-001
