!Agilent Technologies,E5071C,MY46109397,A.09.54
!Date: Mon Jan 01 01:42:26 2001
!Data & Calibration Information:
!Freq	S11:SOLT1(ON)
# Hz S RI R 50
9000	4.281462e-001	-7.776344e-001
13955	-6.742452e-003	-7.239210e-001
18910	-1.808354e-001	-7.226740e-001
23865	-3.391944e-001	-7.078401e-001
28820	-4.465003e-001	-6.717259e-001
33775	-5.292539e-001	-6.356389e-001
38730	-5.940664e-001	-5.981024e-001
43685	-6.458578e-001	-5.635369e-001
48640	-6.889519e-001	-5.306493e-001
53595	-7.243534e-001	-5.004424e-001
58550	-7.538184e-001	-4.715730e-001
63505	-7.786711e-001	-4.450791e-001
68460	-7.998494e-001	-4.207666e-001
73415	-8.178255e-001	-3.980307e-001
78370	-8.333202e-001	-3.765557e-001
83325	-8.466436e-001	-3.570602e-001
88280	-8.586044e-001	-3.387170e-001
93235	-8.686211e-001	-3.216550e-001
98190	-8.777154e-001	-3.055671e-001
103145	-8.855512e-001	-2.906437e-001
108100	-8.926326e-001	-2.765667e-001
113055	-8.988909e-001	-2.634401e-001
118010	-9.044980e-001	-2.510058e-001
122965	-9.095172e-001	-2.392658e-001
127920	-9.140244e-001	-2.281311e-001
132875	-9.180517e-001	-2.176628e-001
137830	-9.217466e-001	-2.076702e-001
142785	-9.250267e-001	-1.980857e-001
147740	-9.281510e-001	-1.890690e-001
152695	-9.309856e-001	-1.802730e-001
157650	-9.334081e-001	-1.721088e-001
162605	-9.357608e-001	-1.641779e-001
167560	-9.379091e-001	-1.565982e-001
172515	-9.399124e-001	-1.491994e-001
177470	-9.417153e-001	-1.422532e-001
182425	-9.434155e-001	-1.355229e-001
187380	-9.448646e-001	-1.289384e-001
192335	-9.463144e-001	-1.226001e-001
197290	-9.476653e-001	-1.164941e-001
202245	-9.488681e-001	-1.105971e-001
207200	-9.499545e-001	-1.048583e-001
212155	-9.510182e-001	-9.942359e-002
217110	-9.520574e-001	-9.393907e-002
222065	-9.530006e-001	-8.870184e-002
227020	-9.538039e-001	-8.360952e-002
231975	-9.545839e-001	-7.865028e-002
236930	-9.552880e-001	-7.382190e-002
241885	-9.559783e-001	-6.911559e-002
246840	-9.565929e-001	-6.444327e-002
251795	-9.572119e-001	-5.998578e-002
256750	-9.577401e-001	-5.556109e-002
261705	-9.582429e-001	-5.130797e-002
266660	-9.587122e-001	-4.709989e-002
271615	-9.591603e-001	-4.291058e-002
276570	-9.595351e-001	-3.892069e-002
281525	-9.598752e-001	-3.490102e-002
286480	-9.602589e-001	-3.100298e-002
291435	-9.605837e-001	-2.725854e-002
296390	-9.608611e-001	-2.352238e-002
301345	-9.611138e-001	-1.977004e-002
306300	-9.613725e-001	-1.616797e-002
311255	-9.615585e-001	-1.264393e-002
316210	-9.617608e-001	-9.068666e-003
321165	-9.619084e-001	-5.591932e-003
326120	-9.620846e-001	-2.181797e-003
331075	-9.622920e-001	1.219868e-003
336030	-9.623698e-001	4.520711e-003
340985	-9.624911e-001	7.768945e-003
345940	-9.625781e-001	1.092900e-002
350895	-9.626566e-001	1.419720e-002
355850	-9.627142e-001	1.735390e-002
360805	-9.628233e-001	2.042616e-002
365760	-9.628281e-001	2.349692e-002
370715	-9.628506e-001	2.646753e-002
375670	-9.629009e-001	2.951971e-002
380625	-9.628169e-001	3.252824e-002
385580	-9.628622e-001	3.545083e-002
390535	-9.628606e-001	3.834336e-002
395490	-9.628322e-001	4.122746e-002
400445	-9.627752e-001	4.400078e-002
405400	-9.626315e-001	4.689246e-002
410355	-9.627055e-001	4.963295e-002
415310	-9.626121e-001	5.235527e-002
420265	-9.625662e-001	5.508484e-002
425220	-9.624658e-001	5.783321e-002
430175	-9.623877e-001	6.053051e-002
435130	-9.622399e-001	6.324883e-002
440085	-9.621257e-001	6.580964e-002
445040	-9.620392e-001	6.846221e-002
449995	-9.618965e-001	7.104481e-002
454950	-9.618243e-001	7.360574e-002
459905	-9.616681e-001	7.617711e-002
464860	-9.615242e-001	7.875577e-002
469815	-9.613719e-001	8.123484e-002
474770	-9.611748e-001	8.377049e-002
479725	-9.609867e-001	8.626213e-002
484680	-9.608064e-001	8.879416e-002
489635	-9.607003e-001	9.111711e-002
494590	-9.604839e-001	9.363492e-002
499545	-9.603419e-001	9.609280e-002
504500	-9.601637e-001	9.845218e-002
509455	-9.599678e-001	1.008393e-001
514410	-9.596919e-001	1.031858e-001
519365	-9.595279e-001	1.056066e-001
524320	-9.593317e-001	1.079229e-001
529275	-9.590975e-001	1.102863e-001
534230	-9.589049e-001	1.125714e-001
539185	-9.586821e-001	1.149312e-001
544140	-9.583912e-001	1.172067e-001
549095	-9.582320e-001	1.195033e-001
554050	-9.579452e-001	1.217333e-001
559005	-9.577056e-001	1.240282e-001
563960	-9.574943e-001	1.262640e-001
568915	-9.571953e-001	1.285297e-001
573870	-9.569822e-001	1.307204e-001
578825	-9.566798e-001	1.330199e-001
583780	-9.563633e-001	1.351521e-001
588735	-9.561412e-001	1.373422e-001
593690	-9.558952e-001	1.395924e-001
598645	-9.555947e-001	1.417223e-001
603600	-9.553364e-001	1.439104e-001
608555	-9.550250e-001	1.460857e-001
613510	-9.547378e-001	1.482404e-001
618465	-9.544536e-001	1.503906e-001
623420	-9.541391e-001	1.525612e-001
628375	-9.538727e-001	1.546897e-001
633330	-9.535711e-001	1.567986e-001
638285	-9.532274e-001	1.589275e-001
643240	-9.529426e-001	1.610210e-001
648195	-9.526053e-001	1.630804e-001
653150	-9.523188e-001	1.651791e-001
658105	-9.519244e-001	1.672826e-001
663060	-9.516271e-001	1.693827e-001
668015	-9.512905e-001	1.714427e-001
672970	-9.509542e-001	1.734366e-001
677925	-9.506596e-001	1.755166e-001
682880	-9.502662e-001	1.775124e-001
687835	-9.499192e-001	1.796025e-001
692790	-9.495890e-001	1.816644e-001
697745	-9.492243e-001	1.836877e-001
702700	-9.489320e-001	1.856486e-001
707655	-9.485139e-001	1.876749e-001
712610	-9.481580e-001	1.896722e-001
717565	-9.477716e-001	1.917647e-001
722520	-9.472524e-001	1.938687e-001
727475	-9.470910e-001	1.957122e-001
732430	-9.467177e-001	1.976750e-001
737385	-9.462705e-001	1.996155e-001
742340	-9.459375e-001	2.016571e-001
747295	-9.456102e-001	2.035919e-001
752250	-9.451981e-001	2.055478e-001
757205	-9.448140e-001	2.075364e-001
762160	-9.444035e-001	2.095295e-001
767115	-9.440170e-001	2.114214e-001
772070	-9.436166e-001	2.133272e-001
777025	-9.431984e-001	2.152952e-001
781980	-9.427751e-001	2.172369e-001
786935	-9.423803e-001	2.192050e-001
791890	-9.420008e-001	2.211228e-001
796845	-9.416037e-001	2.230802e-001
801800	-9.411384e-001	2.249620e-001
806755	-9.407877e-001	2.267871e-001
811710	-9.403421e-001	2.287563e-001
816665	-9.399134e-001	2.306481e-001
821620	-9.395007e-001	2.325741e-001
826575	-9.390947e-001	2.344584e-001
831530	-9.386731e-001	2.363620e-001
836485	-9.382151e-001	2.381538e-001
841440	-9.377689e-001	2.401134e-001
846395	-9.373190e-001	2.419543e-001
851350	-9.368915e-001	2.438276e-001
856305	-9.366554e-001	2.459369e-001
861260	-9.360662e-001	2.475526e-001
866215	-9.355265e-001	2.494069e-001
871170	-9.350879e-001	2.512514e-001
876125	-9.346668e-001	2.531182e-001
881080	-9.341842e-001	2.549891e-001
886035	-9.337527e-001	2.568870e-001
890990	-9.332924e-001	2.586647e-001
895945	-9.328110e-001	2.605919e-001
900900	-9.323847e-001	2.623738e-001
905855	-9.318563e-001	2.641841e-001
910810	-9.313875e-001	2.660185e-001
915765	-9.309154e-001	2.678327e-001
920720	-9.304881e-001	2.696044e-001
925675	-9.300259e-001	2.714292e-001
930630	-9.295265e-001	2.732468e-001
935585	-9.290142e-001	2.751072e-001
940540	-9.285651e-001	2.769346e-001
945495	-9.280431e-001	2.786862e-001
950450	-9.274653e-001	2.805459e-001
955405	-9.270182e-001	2.822928e-001
960360	-9.265312e-001	2.840928e-001
965315	-9.259771e-001	2.857951e-001
970270	-9.255608e-001	2.877094e-001
975225	-9.249976e-001	2.894586e-001
980180	-9.244949e-001	2.912434e-001
985135	-9.240074e-001	2.930989e-001
990090	-9.235076e-001	2.948315e-001
995045	-9.229964e-001	2.966186e-001
1000000	-9.224315e-001	2.984146e-001
