!Agilent Technologies,E5071C,MY46109397,A.09.54
!Date: Mon Jan 01 01:43:54 2001
!Data & Calibration Information:
!Freq	S11:SOLT1(ON)
# Hz S RI R 50
9000	-1.093965e+000	1.405431e+000
13955	-7.979630e-001	2.257143e-001
18910	-9.396204e-001	-2.001740e-002
23865	-9.601802e-001	7.509134e-002
28820	-9.775890e-001	7.761008e-002
33775	-9.856936e-001	1.238685e-002
38730	-1.016617e+000	4.138043e-002
43685	-1.001349e+000	5.087291e-002
48640	-9.508372e-001	7.379299e-002
53595	-9.144258e-001	5.568864e-003
58550	-9.818993e-001	-3.360118e-002
63505	-1.002241e+000	-1.228275e-002
68460	-1.008286e+000	2.367382e-003
73415	-1.011298e+000	1.565402e-002
78370	-1.009587e+000	2.820568e-002
83325	-1.004444e+000	3.842176e-002
88280	-9.944747e-001	4.449397e-002
93235	-9.827035e-001	4.243736e-002
98190	-9.785506e-001	3.266948e-002
103145	-9.862772e-001	2.646975e-002
108100	-9.957723e-001	2.965336e-002
113055	-1.001484e+000	3.678068e-002
118010	-1.003922e+000	4.573992e-002
122965	-1.004031e+000	5.509848e-002
127920	-1.002245e+000	6.433269e-002
132875	-9.991306e-001	7.349025e-002
137830	-9.947176e-001	8.326330e-002
142785	-9.885065e-001	9.274283e-002
147740	-9.808553e-001	1.022309e-001
152695	-9.707034e-001	1.121815e-001
157650	-9.578742e-001	1.215869e-001
162605	-9.419064e-001	1.299516e-001
167560	-9.219129e-001	1.365393e-001
172515	-8.971251e-001	1.393424e-001
177470	-8.684651e-001	1.357249e-001
182425	-8.379574e-001	1.226656e-001
187380	-8.092018e-001	9.793575e-002
192335	-7.898221e-001	6.267038e-002
197290	-7.840673e-001	2.103066e-002
202245	-7.927506e-001	-1.796914e-002
207200	-8.126999e-001	-4.868423e-002
212155	-8.373666e-001	-6.968074e-002
217110	-8.627558e-001	-8.080038e-002
222065	-8.861635e-001	-8.569616e-002
227020	-9.061802e-001	-8.565794e-002
231975	-9.230244e-001	-8.303631e-002
236930	-9.368705e-001	-7.864888e-002
241885	-9.484355e-001	-7.342287e-002
246840	-9.579235e-001	-6.791799e-002
251795	-9.657998e-001	-6.222430e-002
256750	-9.723895e-001	-5.667279e-002
261705	-9.778784e-001	-5.129129e-002
266660	-9.825571e-001	-4.618129e-002
271615	-9.865067e-001	-4.116250e-002
276570	-9.898978e-001	-3.650849e-002
281525	-9.927501e-001	-3.195873e-002
286480	-9.953396e-001	-2.782459e-002
291435	-9.975435e-001	-2.373735e-002
296390	-9.994903e-001	-1.993191e-002
301345	-1.001138e+000	-1.619176e-002
306300	-1.002648e+000	-1.267588e-002
311255	-1.003902e+000	-9.382520e-003
316210	-1.005008e+000	-6.055918e-003
321165	-1.006093e+000	-2.933109e-003
326120	-1.006963e+000	9.210719e-005
331075	-1.007783e+000	3.014047e-003
336030	-1.008520e+000	5.822531e-003
340985	-1.009139e+000	8.547645e-003
345940	-1.009785e+000	1.113425e-002
350895	-1.010312e+000	1.381619e-002
355850	-1.010752e+000	1.628381e-002
360805	-1.011151e+000	1.873892e-002
365760	-1.011515e+000	2.114066e-002
370715	-1.011868e+000	2.342092e-002
375670	-1.012161e+000	2.569276e-002
380625	-1.012319e+000	2.798171e-002
385580	-1.012566e+000	3.021833e-002
390535	-1.012752e+000	3.239338e-002
395490	-1.012937e+000	3.449704e-002
400445	-1.013093e+000	3.651723e-002
405400	-1.013117e+000	3.857617e-002
410355	-1.013313e+000	4.067937e-002
415310	-1.013346e+000	4.275020e-002
420265	-1.013344e+000	4.464835e-002
425220	-1.013332e+000	4.665377e-002
430175	-1.013384e+000	4.859518e-002
435130	-1.013307e+000	5.058580e-002
440085	-1.013271e+000	5.239983e-002
445040	-1.013152e+000	5.435471e-002
449995	-1.013128e+000	5.634969e-002
454950	-1.012979e+000	5.809691e-002
459905	-1.012841e+000	5.999575e-002
464860	-1.012739e+000	6.194578e-002
469815	-1.012627e+000	6.386349e-002
474770	-1.012372e+000	6.579561e-002
479725	-1.012183e+000	6.767729e-002
484680	-1.011978e+000	6.970785e-002
489635	-1.011796e+000	7.154896e-002
494590	-1.011405e+000	7.338612e-002
499545	-1.011182e+000	7.533634e-002
504500	-1.010842e+000	7.723463e-002
509455	-1.010529e+000	7.921624e-002
514410	-1.010105e+000	8.112693e-002
519365	-1.009639e+000	8.307276e-002
524320	-1.009169e+000	8.512796e-002
529275	-1.008644e+000	8.706937e-002
534230	-1.008097e+000	8.903187e-002
539185	-1.007475e+000	9.112127e-002
544140	-1.006697e+000	9.315019e-002
549095	-1.005934e+000	9.510021e-002
554050	-1.005101e+000	9.719998e-002
559005	-1.004250e+000	9.950677e-002
563960	-1.003238e+000	1.016420e-001
568915	-1.002135e+000	1.039852e-001
573870	-1.000927e+000	1.064138e-001
578825	-9.994808e-001	1.090217e-001
583780	-9.980160e-001	1.114077e-001
588735	-9.963116e-001	1.138647e-001
593690	-9.943765e-001	1.164281e-001
598645	-9.921205e-001	1.188965e-001
603600	-9.895236e-001	1.214910e-001
608555	-9.865084e-001	1.243459e-001
613510	-9.832073e-001	1.268721e-001
618465	-9.793339e-001	1.290962e-001
623420	-9.748200e-001	1.312986e-001
628375	-9.697050e-001	1.331206e-001
633330	-9.638201e-001	1.342241e-001
638285	-9.575971e-001	1.337193e-001
643240	-9.505451e-001	1.330397e-001
648195	-9.429476e-001	1.310143e-001
653150	-9.349274e-001	1.272318e-001
658105	-9.275881e-001	1.208702e-001
663060	-9.212646e-001	1.124856e-001
668015	-9.157449e-001	1.022022e-001
672970	-9.130837e-001	9.038719e-002
677925	-9.147658e-001	7.818293e-002
682880	-9.197610e-001	6.699075e-002
687835	-9.273416e-001	5.798787e-002
692790	-9.364990e-001	5.172166e-002
697745	-9.458568e-001	4.793798e-002
702700	-9.549297e-001	4.637397e-002
707655	-9.631688e-001	4.661936e-002
712610	-9.704708e-001	4.794237e-002
717565	-9.769060e-001	5.063261e-002
722520	-9.820405e-001	5.327658e-002
727475	-9.868609e-001	5.599005e-002
732430	-9.906635e-001	5.914172e-002
737385	-9.938741e-001	6.241610e-002
742340	-9.966667e-001	6.570441e-002
747295	-9.989635e-001	6.859614e-002
752250	-1.000921e+000	7.170100e-002
757205	-1.002558e+000	7.473714e-002
762160	-1.003945e+000	7.761259e-002
767115	-1.005110e+000	8.037091e-002
772070	-1.006159e+000	8.294919e-002
777025	-1.007010e+000	8.546806e-002
781980	-1.007721e+000	8.788911e-002
786935	-1.008403e+000	9.024188e-002
791890	-1.009001e+000	9.255984e-002
796845	-1.009443e+000	9.470412e-002
801800	-1.009813e+000	9.675707e-002
806755	-1.010218e+000	9.878928e-002
811710	-1.010518e+000	1.007544e-001
816665	-1.010744e+000	1.027722e-001
821620	-1.010977e+000	1.046293e-001
826575	-1.011184e+000	1.064558e-001
831530	-1.011277e+000	1.082571e-001
836485	-1.011377e+000	1.099403e-001
841440	-1.011474e+000	1.117114e-001
846395	-1.011538e+000	1.133881e-001
851350	-1.011647e+000	1.150023e-001
856305	-1.011947e+000	1.167962e-001
861260	-1.011709e+000	1.181392e-001
866215	-1.011677e+000	1.197448e-001
871170	-1.011694e+000	1.212649e-001
876125	-1.011663e+000	1.227460e-001
881080	-1.011623e+000	1.242716e-001
886035	-1.011624e+000	1.257248e-001
890990	-1.011609e+000	1.270998e-001
895945	-1.011507e+000	1.285840e-001
900900	-1.011476e+000	1.299603e-001
905855	-1.011416e+000	1.313048e-001
910810	-1.011328e+000	1.326765e-001
915765	-1.011218e+000	1.340064e-001
920720	-1.011176e+000	1.352788e-001
925675	-1.011106e+000	1.366472e-001
930630	-1.011002e+000	1.379917e-001
935585	-1.010903e+000	1.392351e-001
940540	-1.010790e+000	1.406015e-001
945495	-1.010720e+000	1.418642e-001
950450	-1.010556e+000	1.431615e-001
955405	-1.010517e+000	1.444449e-001
960360	-1.010392e+000	1.457105e-001
965315	-1.010199e+000	1.468526e-001
970270	-1.010184e+000	1.481763e-001
975225	-1.010025e+000	1.494359e-001
980180	-1.009911e+000	1.506388e-001
985135	-1.009832e+000	1.518792e-001
990090	-1.009684e+000	1.530094e-001
995045	-1.009569e+000	1.542222e-001
1000000	-1.009401e+000	1.554236e-001
