!Agilent Technologies,E5071C,MY46109397,A.09.54
!Date: Mon Jan 01 01:58:41 2001
!Data & Calibration Information:
!Freq	S11:SOLT1(ON)	S21:RESPT(ON)	S12:NONE(--)	S22:NONE(--)
# Hz S RI R 50
9000	9.670311e-001	2.983652e-001	8.962370e-001	5.355027e-001	0.000000e+000	0.000000e+000	0.000000e+000	0.000000e+000
13955	9.603501e-001	4.147826e-001	2.521769e-002	1.084707e-001	0.000000e+000	0.000000e+000	0.000000e+000	0.000000e+000
18910	9.041309e-001	5.027769e-001	4.515684e-002	1.408741e-001	0.000000e+000	0.000000e+000	0.000000e+000	0.000000e+000
23865	8.257734e-001	5.949235e-001	6.800589e-002	1.703706e-001	0.000000e+000	0.000000e+000	0.000000e+000	0.000000e+000
28820	7.561958e-001	6.705353e-001	9.356836e-002	1.932647e-001	0.000000e+000	0.000000e+000	0.000000e+000	0.000000e+000
33775	6.859540e-001	7.260407e-001	1.202764e-001	2.117976e-001	0.000000e+000	0.000000e+000	0.000000e+000	0.000000e+000
38730	6.189257e-001	7.687092e-001	1.477066e-001	2.267668e-001	0.000000e+000	0.000000e+000	0.000000e+000	0.000000e+000
43685	5.560078e-001	7.975086e-001	1.740962e-001	2.373541e-001	0.000000e+000	0.000000e+000	0.000000e+000	0.000000e+000
48640	4.968827e-001	8.150584e-001	1.993309e-001	2.444109e-001	0.000000e+000	0.000000e+000	0.000000e+000	0.000000e+000
53595	4.436327e-001	8.239155e-001	2.232520e-001	2.478276e-001	0.000000e+000	0.000000e+000	0.000000e+000	0.000000e+000
58550	3.949815e-001	8.257187e-001	2.466309e-001	2.489318e-001	0.000000e+000	0.000000e+000	0.000000e+000	0.000000e+000
63505	3.512281e-001	8.219448e-001	2.673623e-001	2.483606e-001	0.000000e+000	0.000000e+000	0.000000e+000	0.000000e+000
68460	3.121802e-001	8.139018e-001	2.859150e-001	2.459935e-001	0.000000e+000	0.000000e+000	0.000000e+000	0.000000e+000
73415	2.772032e-001	8.026033e-001	3.038659e-001	2.429062e-001	0.000000e+000	0.000000e+000	0.000000e+000	0.000000e+000
78370	2.458223e-001	7.890005e-001	3.196514e-001	2.383435e-001	0.000000e+000	0.000000e+000	0.000000e+000	0.000000e+000
83325	2.177989e-001	7.736591e-001	3.341100e-001	2.332210e-001	0.000000e+000	0.000000e+000	0.000000e+000	0.000000e+000
88280	1.924456e-001	7.574615e-001	3.470083e-001	2.277487e-001	0.000000e+000	0.000000e+000	0.000000e+000	0.000000e+000
93235	1.701247e-001	7.404899e-001	3.589399e-001	2.217093e-001	0.000000e+000	0.000000e+000	0.000000e+000	0.000000e+000
98190	1.495974e-001	7.233959e-001	3.695445e-001	2.156000e-001	0.000000e+000	0.000000e+000	0.000000e+000	0.000000e+000
103145	1.311011e-001	7.062308e-001	3.790705e-001	2.096325e-001	0.000000e+000	0.000000e+000	0.000000e+000	0.000000e+000
108100	1.144061e-001	6.890517e-001	3.874773e-001	2.034532e-001	0.000000e+000	0.000000e+000	0.000000e+000	0.000000e+000
113055	9.928481e-002	6.722224e-001	3.948720e-001	1.971560e-001	0.000000e+000	0.000000e+000	0.000000e+000	0.000000e+000
118010	8.538706e-002	6.557221e-001	4.016136e-001	1.916725e-001	0.000000e+000	0.000000e+000	0.000000e+000	0.000000e+000
122965	7.296660e-002	6.397490e-001	4.078799e-001	1.855517e-001	0.000000e+000	0.000000e+000	0.000000e+000	0.000000e+000
127920	6.132862e-002	6.242286e-001	4.133374e-001	1.799089e-001	0.000000e+000	0.000000e+000	0.000000e+000	0.000000e+000
132875	5.082063e-002	6.092914e-001	4.181960e-001	1.743839e-001	0.000000e+000	0.000000e+000	0.000000e+000	0.000000e+000
137830	4.100179e-002	5.948500e-001	4.228167e-001	1.690658e-001	0.000000e+000	0.000000e+000	0.000000e+000	0.000000e+000
142785	3.204676e-002	5.808876e-001	4.266088e-001	1.641722e-001	0.000000e+000	0.000000e+000	0.000000e+000	0.000000e+000
147740	2.363632e-002	5.675392e-001	4.302002e-001	1.591694e-001	0.000000e+000	0.000000e+000	0.000000e+000	0.000000e+000
152695	1.583378e-002	5.547458e-001	4.333969e-001	1.543060e-001	0.000000e+000	0.000000e+000	0.000000e+000	0.000000e+000
157650	8.691117e-003	5.423845e-001	4.363594e-001	1.497406e-001	0.000000e+000	0.000000e+000	0.000000e+000	0.000000e+000
162605	1.903822e-003	5.305376e-001	4.389465e-001	1.455512e-001	0.000000e+000	0.000000e+000	0.000000e+000	0.000000e+000
167560	-4.432500e-003	5.192120e-001	4.413751e-001	1.411588e-001	0.000000e+000	0.000000e+000	0.000000e+000	0.000000e+000
172515	-1.033663e-002	5.083692e-001	4.434076e-001	1.370992e-001	0.000000e+000	0.000000e+000	0.000000e+000	0.000000e+000
177470	-1.588785e-002	4.979796e-001	4.450866e-001	1.333102e-001	0.000000e+000	0.000000e+000	0.000000e+000	0.000000e+000
182425	-2.122469e-002	4.879151e-001	4.469187e-001	1.295229e-001	0.000000e+000	0.000000e+000	0.000000e+000	0.000000e+000
187380	-2.617845e-002	4.782425e-001	4.484959e-001	1.259850e-001	0.000000e+000	0.000000e+000	0.000000e+000	0.000000e+000
192335	-3.088570e-002	4.690754e-001	4.496676e-001	1.226130e-001	0.000000e+000	0.000000e+000	0.000000e+000	0.000000e+000
197290	-3.540692e-002	4.602586e-001	4.509883e-001	1.192611e-001	0.000000e+000	0.000000e+000	0.000000e+000	0.000000e+000
202245	-3.971862e-002	4.517178e-001	4.519652e-001	1.160955e-001	0.000000e+000	0.000000e+000	0.000000e+000	0.000000e+000
207200	-4.389094e-002	4.435422e-001	4.528516e-001	1.130456e-001	0.000000e+000	0.000000e+000	0.000000e+000	0.000000e+000
212155	-4.783748e-002	4.358084e-001	4.537226e-001	1.101349e-001	0.000000e+000	0.000000e+000	0.000000e+000	0.000000e+000
217110	-5.165977e-002	4.282462e-001	4.543874e-001	1.072908e-001	0.000000e+000	0.000000e+000	0.000000e+000	0.000000e+000
222065	-5.542169e-002	4.210556e-001	4.548279e-001	1.046313e-001	0.000000e+000	0.000000e+000	0.000000e+000	0.000000e+000
227020	-5.905494e-002	4.142339e-001	4.554335e-001	1.019318e-001	0.000000e+000	0.000000e+000	0.000000e+000	0.000000e+000
231975	-6.253862e-002	4.075197e-001	4.557405e-001	9.946250e-002	0.000000e+000	0.000000e+000	0.000000e+000	0.000000e+000
236930	-6.585922e-002	4.011249e-001	4.558024e-001	9.714187e-002	0.000000e+000	0.000000e+000	0.000000e+000	0.000000e+000
241885	-6.928712e-002	3.950497e-001	4.560959e-001	9.488639e-002	0.000000e+000	0.000000e+000	0.000000e+000	0.000000e+000
246840	-7.249285e-002	3.891816e-001	4.562382e-001	9.254875e-002	0.000000e+000	0.000000e+000	0.000000e+000	0.000000e+000
251795	-7.569354e-002	3.834936e-001	4.561000e-001	9.048881e-002	0.000000e+000	0.000000e+000	0.000000e+000	0.000000e+000
256750	-7.890523e-002	3.781711e-001	4.560705e-001	8.841364e-002	0.000000e+000	0.000000e+000	0.000000e+000	0.000000e+000
261705	-8.198984e-002	3.730237e-001	4.559327e-001	8.671474e-002	0.000000e+000	0.000000e+000	0.000000e+000	0.000000e+000
266660	-8.513908e-002	3.681475e-001	4.559171e-001	8.478065e-002	0.000000e+000	0.000000e+000	0.000000e+000	0.000000e+000
271615	-8.818291e-002	3.634971e-001	4.556669e-001	8.313411e-002	0.000000e+000	0.000000e+000	0.000000e+000	0.000000e+000
276570	-9.122437e-002	3.590142e-001	4.553596e-001	8.152101e-002	0.000000e+000	0.000000e+000	0.000000e+000	0.000000e+000
281525	-9.421101e-002	3.547669e-001	4.550439e-001	8.008381e-002	0.000000e+000	0.000000e+000	0.000000e+000	0.000000e+000
286480	-9.712927e-002	3.506294e-001	4.546420e-001	7.853856e-002	0.000000e+000	0.000000e+000	0.000000e+000	0.000000e+000
291435	-1.000349e-001	3.467786e-001	4.542358e-001	7.730204e-002	0.000000e+000	0.000000e+000	0.000000e+000	0.000000e+000
296390	-1.029687e-001	3.432150e-001	4.537853e-001	7.607199e-002	0.000000e+000	0.000000e+000	0.000000e+000	0.000000e+000
301345	-1.058791e-001	3.397520e-001	4.532490e-001	7.496181e-002	0.000000e+000	0.000000e+000	0.000000e+000	0.000000e+000
306300	-1.086914e-001	3.365550e-001	4.527237e-001	7.378527e-002	0.000000e+000	0.000000e+000	0.000000e+000	0.000000e+000
311255	-1.115334e-001	3.334932e-001	4.522792e-001	7.295043e-002	0.000000e+000	0.000000e+000	0.000000e+000	0.000000e+000
316210	-1.142854e-001	3.306281e-001	4.517976e-001	7.200240e-002	0.000000e+000	0.000000e+000	0.000000e+000	0.000000e+000
321165	-1.170824e-001	3.280157e-001	4.511121e-001	7.122135e-002	0.000000e+000	0.000000e+000	0.000000e+000	0.000000e+000
326120	-1.197835e-001	3.254772e-001	4.507243e-001	7.045804e-002	0.000000e+000	0.000000e+000	0.000000e+000	0.000000e+000
331075	-1.224809e-001	3.231177e-001	4.501284e-001	6.993427e-002	0.000000e+000	0.000000e+000	0.000000e+000	0.000000e+000
336030	-1.250406e-001	3.209387e-001	4.495650e-001	6.929253e-002	0.000000e+000	0.000000e+000	0.000000e+000	0.000000e+000
340985	-1.276495e-001	3.189191e-001	4.491164e-001	6.875812e-002	0.000000e+000	0.000000e+000	0.000000e+000	0.000000e+000
345940	-1.301487e-001	3.171531e-001	4.486019e-001	6.835189e-002	0.000000e+000	0.000000e+000	0.000000e+000	0.000000e+000
350895	-1.325713e-001	3.154790e-001	4.481734e-001	6.781359e-002	0.000000e+000	0.000000e+000	0.000000e+000	0.000000e+000
355850	-1.349898e-001	3.139452e-001	4.475524e-001	6.766964e-002	0.000000e+000	0.000000e+000	0.000000e+000	0.000000e+000
360805	-1.373093e-001	3.125494e-001	4.470580e-001	6.738258e-002	0.000000e+000	0.000000e+000	0.000000e+000	0.000000e+000
365760	-1.396657e-001	3.112068e-001	4.467825e-001	6.713957e-002	0.000000e+000	0.000000e+000	0.000000e+000	0.000000e+000
370715	-1.418889e-001	3.099949e-001	4.462888e-001	6.703088e-002	0.000000e+000	0.000000e+000	0.000000e+000	0.000000e+000
375670	-1.440356e-001	3.088551e-001	4.459178e-001	6.690212e-002	0.000000e+000	0.000000e+000	0.000000e+000	0.000000e+000
380625	-1.461682e-001	3.079322e-001	4.455786e-001	6.679718e-002	0.000000e+000	0.000000e+000	0.000000e+000	0.000000e+000
385580	-1.482543e-001	3.070527e-001	4.452840e-001	6.664734e-002	0.000000e+000	0.000000e+000	0.000000e+000	0.000000e+000
390535	-1.503130e-001	3.062749e-001	4.449756e-001	6.668529e-002	0.000000e+000	0.000000e+000	0.000000e+000	0.000000e+000
395490	-1.522653e-001	3.055672e-001	4.446749e-001	6.669179e-002	0.000000e+000	0.000000e+000	0.000000e+000	0.000000e+000
400445	-1.541929e-001	3.049903e-001	4.443107e-001	6.669451e-002	0.000000e+000	0.000000e+000	0.000000e+000	0.000000e+000
405400	-1.560623e-001	3.044152e-001	4.440438e-001	6.688337e-002	0.000000e+000	0.000000e+000	0.000000e+000	0.000000e+000
410355	-1.579104e-001	3.040069e-001	4.438284e-001	6.690481e-002	0.000000e+000	0.000000e+000	0.000000e+000	0.000000e+000
415310	-1.596508e-001	3.036267e-001	4.436342e-001	6.699311e-002	0.000000e+000	0.000000e+000	0.000000e+000	0.000000e+000
420265	-1.614067e-001	3.033321e-001	4.435015e-001	6.710798e-002	0.000000e+000	0.000000e+000	0.000000e+000	0.000000e+000
425220	-1.630361e-001	3.030720e-001	4.432187e-001	6.733456e-002	0.000000e+000	0.000000e+000	0.000000e+000	0.000000e+000
430175	-1.646944e-001	3.028717e-001	4.431749e-001	6.747582e-002	0.000000e+000	0.000000e+000	0.000000e+000	0.000000e+000
435130	-1.662243e-001	3.028378e-001	4.430437e-001	6.763570e-002	0.000000e+000	0.000000e+000	0.000000e+000	0.000000e+000
440085	-1.678712e-001	3.026100e-001	4.428664e-001	6.778514e-002	0.000000e+000	0.000000e+000	0.000000e+000	0.000000e+000
445040	-1.694103e-001	3.026567e-001	4.427952e-001	6.807739e-002	0.000000e+000	0.000000e+000	0.000000e+000	0.000000e+000
449995	-1.707954e-001	3.027066e-001	4.427239e-001	6.835525e-002	0.000000e+000	0.000000e+000	0.000000e+000	0.000000e+000
454950	-1.721939e-001	3.028086e-001	4.427034e-001	6.850993e-002	0.000000e+000	0.000000e+000	0.000000e+000	0.000000e+000
459905	-1.736666e-001	3.029087e-001	4.426413e-001	6.885551e-002	0.000000e+000	0.000000e+000	0.000000e+000	0.000000e+000
464860	-1.750071e-001	3.029749e-001	4.426781e-001	6.903998e-002	0.000000e+000	0.000000e+000	0.000000e+000	0.000000e+000
469815	-1.763708e-001	3.031777e-001	4.426614e-001	6.923038e-002	0.000000e+000	0.000000e+000	0.000000e+000	0.000000e+000
474770	-1.776343e-001	3.034579e-001	4.426856e-001	6.954031e-002	0.000000e+000	0.000000e+000	0.000000e+000	0.000000e+000
479725	-1.789038e-001	3.037220e-001	4.426902e-001	6.972271e-002	0.000000e+000	0.000000e+000	0.000000e+000	0.000000e+000
484680	-1.801005e-001	3.040057e-001	4.428121e-001	7.012106e-002	0.000000e+000	0.000000e+000	0.000000e+000	0.000000e+000
489635	-1.813942e-001	3.042670e-001	4.427603e-001	7.033188e-002	0.000000e+000	0.000000e+000	0.000000e+000	0.000000e+000
494590	-1.824677e-001	3.045132e-001	4.429326e-001	7.058972e-002	0.000000e+000	0.000000e+000	0.000000e+000	0.000000e+000
499545	-1.836335e-001	3.048796e-001	4.429940e-001	7.095697e-002	0.000000e+000	0.000000e+000	0.000000e+000	0.000000e+000
504500	-1.846934e-001	3.052822e-001	4.430302e-001	7.113484e-002	0.000000e+000	0.000000e+000	0.000000e+000	0.000000e+000
509455	-1.859088e-001	3.056771e-001	4.432215e-001	7.133974e-002	0.000000e+000	0.000000e+000	0.000000e+000	0.000000e+000
514410	-1.868646e-001	3.061076e-001	4.432711e-001	7.164869e-002	0.000000e+000	0.000000e+000	0.000000e+000	0.000000e+000
519365	-1.879277e-001	3.066126e-001	4.434356e-001	7.197828e-002	0.000000e+000	0.000000e+000	0.000000e+000	0.000000e+000
524320	-1.889168e-001	3.071357e-001	4.435774e-001	7.220474e-002	0.000000e+000	0.000000e+000	0.000000e+000	0.000000e+000
529275	-1.899484e-001	3.075429e-001	4.437526e-001	7.246548e-002	0.000000e+000	0.000000e+000	0.000000e+000	0.000000e+000
534230	-1.908908e-001	3.080748e-001	4.438480e-001	7.273006e-002	0.000000e+000	0.000000e+000	0.000000e+000	0.000000e+000
539185	-1.919117e-001	3.085860e-001	4.440865e-001	7.293267e-002	0.000000e+000	0.000000e+000	0.000000e+000	0.000000e+000
544140	-1.929075e-001	3.090110e-001	4.442360e-001	7.312188e-002	0.000000e+000	0.000000e+000	0.000000e+000	0.000000e+000
549095	-1.937868e-001	3.095202e-001	4.444143e-001	7.346026e-002	0.000000e+000	0.000000e+000	0.000000e+000	0.000000e+000
554050	-1.947173e-001	3.101153e-001	4.446194e-001	7.371282e-002	0.000000e+000	0.000000e+000	0.000000e+000	0.000000e+000
559005	-1.956036e-001	3.106009e-001	4.447339e-001	7.397742e-002	0.000000e+000	0.000000e+000	0.000000e+000	0.000000e+000
563960	-1.964754e-001	3.112004e-001	4.450682e-001	7.420746e-002	0.000000e+000	0.000000e+000	0.000000e+000	0.000000e+000
568915	-1.974108e-001	3.117085e-001	4.451682e-001	7.443626e-002	0.000000e+000	0.000000e+000	0.000000e+000	0.000000e+000
573870	-1.981681e-001	3.123554e-001	4.454350e-001	7.464922e-002	0.000000e+000	0.000000e+000	0.000000e+000	0.000000e+000
578825	-1.990646e-001	3.128404e-001	4.457187e-001	7.491208e-002	0.000000e+000	0.000000e+000	0.000000e+000	0.000000e+000
583780	-1.999744e-001	3.133950e-001	4.458788e-001	7.513387e-002	0.000000e+000	0.000000e+000	0.000000e+000	0.000000e+000
588735	-2.008650e-001	3.139256e-001	4.460963e-001	7.534321e-002	0.000000e+000	0.000000e+000	0.000000e+000	0.000000e+000
593690	-2.015966e-001	3.145573e-001	4.462256e-001	7.559685e-002	0.000000e+000	0.000000e+000	0.000000e+000	0.000000e+000
598645	-2.024490e-001	3.151826e-001	4.464832e-001	7.575413e-002	0.000000e+000	0.000000e+000	0.000000e+000	0.000000e+000
603600	-2.033149e-001	3.158483e-001	4.467012e-001	7.602608e-002	0.000000e+000	0.000000e+000	0.000000e+000	0.000000e+000
608555	-2.041143e-001	3.163980e-001	4.470023e-001	7.621240e-002	0.000000e+000	0.000000e+000	0.000000e+000	0.000000e+000
613510	-2.048449e-001	3.170084e-001	4.472118e-001	7.637448e-002	0.000000e+000	0.000000e+000	0.000000e+000	0.000000e+000
618465	-2.057136e-001	3.176158e-001	4.474248e-001	7.663929e-002	0.000000e+000	0.000000e+000	0.000000e+000	0.000000e+000
623420	-2.065054e-001	3.182355e-001	4.476039e-001	7.681863e-002	0.000000e+000	0.000000e+000	0.000000e+000	0.000000e+000
628375	-2.072822e-001	3.189273e-001	4.478975e-001	7.708895e-002	0.000000e+000	0.000000e+000	0.000000e+000	0.000000e+000
633330	-2.080326e-001	3.194484e-001	4.480679e-001	7.727339e-002	0.000000e+000	0.000000e+000	0.000000e+000	0.000000e+000
638285	-2.088197e-001	3.200801e-001	4.482971e-001	7.744599e-002	0.000000e+000	0.000000e+000	0.000000e+000	0.000000e+000
643240	-2.096701e-001	3.206873e-001	4.485084e-001	7.762973e-002	0.000000e+000	0.000000e+000	0.000000e+000	0.000000e+000
648195	-2.105061e-001	3.213534e-001	4.486874e-001	7.780318e-002	0.000000e+000	0.000000e+000	0.000000e+000	0.000000e+000
653150	-2.112632e-001	3.219718e-001	4.489626e-001	7.798048e-002	0.000000e+000	0.000000e+000	0.000000e+000	0.000000e+000
658105	-2.120400e-001	3.226132e-001	4.491475e-001	7.827079e-002	0.000000e+000	0.000000e+000	0.000000e+000	0.000000e+000
663060	-2.128204e-001	3.232349e-001	4.493839e-001	7.843657e-002	0.000000e+000	0.000000e+000	0.000000e+000	0.000000e+000
668015	-2.135949e-001	3.238903e-001	4.496191e-001	7.859767e-002	0.000000e+000	0.000000e+000	0.000000e+000	0.000000e+000
672970	-2.144277e-001	3.245036e-001	4.498822e-001	7.880539e-002	0.000000e+000	0.000000e+000	0.000000e+000	0.000000e+000
677925	-2.152301e-001	3.251317e-001	4.500794e-001	7.902008e-002	0.000000e+000	0.000000e+000	0.000000e+000	0.000000e+000
682880	-2.160730e-001	3.257794e-001	4.502756e-001	7.920959e-002	0.000000e+000	0.000000e+000	0.000000e+000	0.000000e+000
687835	-2.167589e-001	3.263826e-001	4.504792e-001	7.927678e-002	0.000000e+000	0.000000e+000	0.000000e+000	0.000000e+000
692790	-2.175505e-001	3.270920e-001	4.506792e-001	7.951832e-002	0.000000e+000	0.000000e+000	0.000000e+000	0.000000e+000
697745	-2.183528e-001	3.276815e-001	4.509432e-001	7.964900e-002	0.000000e+000	0.000000e+000	0.000000e+000	0.000000e+000
702700	-2.191977e-001	3.283113e-001	4.511180e-001	7.985009e-002	0.000000e+000	0.000000e+000	0.000000e+000	0.000000e+000
707655	-2.200111e-001	3.289262e-001	4.513714e-001	8.000877e-002	0.000000e+000	0.000000e+000	0.000000e+000	0.000000e+000
712610	-2.208513e-001	3.295402e-001	4.515189e-001	8.021192e-002	0.000000e+000	0.000000e+000	0.000000e+000	0.000000e+000
717565	-2.216220e-001	3.303052e-001	4.517404e-001	8.038889e-002	0.000000e+000	0.000000e+000	0.000000e+000	0.000000e+000
722520	-2.224850e-001	3.307640e-001	4.518619e-001	8.066199e-002	0.000000e+000	0.000000e+000	0.000000e+000	0.000000e+000
727475	-2.232562e-001	3.315293e-001	4.520162e-001	8.061698e-002	0.000000e+000	0.000000e+000	0.000000e+000	0.000000e+000
732430	-2.240950e-001	3.322055e-001	4.523031e-001	8.079963e-002	0.000000e+000	0.000000e+000	0.000000e+000	0.000000e+000
737385	-2.249262e-001	3.327539e-001	4.524657e-001	8.099152e-002	0.000000e+000	0.000000e+000	0.000000e+000	0.000000e+000
742340	-2.256840e-001	3.334642e-001	4.527584e-001	8.118902e-002	0.000000e+000	0.000000e+000	0.000000e+000	0.000000e+000
747295	-2.265798e-001	3.341999e-001	4.529770e-001	8.130595e-002	0.000000e+000	0.000000e+000	0.000000e+000	0.000000e+000
752250	-2.274070e-001	3.348749e-001	4.530855e-001	8.147367e-002	0.000000e+000	0.000000e+000	0.000000e+000	0.000000e+000
757205	-2.283060e-001	3.355381e-001	4.532350e-001	8.164191e-002	0.000000e+000	0.000000e+000	0.000000e+000	0.000000e+000
762160	-2.290724e-001	3.360967e-001	4.534721e-001	8.186452e-002	0.000000e+000	0.000000e+000	0.000000e+000	0.000000e+000
767115	-2.300160e-001	3.368019e-001	4.536326e-001	8.205598e-002	0.000000e+000	0.000000e+000	0.000000e+000	0.000000e+000
772070	-2.308722e-001	3.373614e-001	4.537698e-001	8.225019e-002	0.000000e+000	0.000000e+000	0.000000e+000	0.000000e+000
777025	-2.316713e-001	3.380206e-001	4.539800e-001	8.241092e-002	0.000000e+000	0.000000e+000	0.000000e+000	0.000000e+000
781980	-2.325411e-001	3.388595e-001	4.541871e-001	8.255851e-002	0.000000e+000	0.000000e+000	0.000000e+000	0.000000e+000
786935	-2.334506e-001	3.394682e-001	4.543812e-001	8.276243e-002	0.000000e+000	0.000000e+000	0.000000e+000	0.000000e+000
791890	-2.343018e-001	3.401257e-001	4.545372e-001	8.294568e-002	0.000000e+000	0.000000e+000	0.000000e+000	0.000000e+000
796845	-2.351774e-001	3.408003e-001	4.547444e-001	8.315288e-002	0.000000e+000	0.000000e+000	0.000000e+000	0.000000e+000
801800	-2.360630e-001	3.413748e-001	4.549106e-001	8.325501e-002	0.000000e+000	0.000000e+000	0.000000e+000	0.000000e+000
806755	-2.370415e-001	3.420522e-001	4.550626e-001	8.339881e-002	0.000000e+000	0.000000e+000	0.000000e+000	0.000000e+000
811710	-2.379556e-001	3.427472e-001	4.551204e-001	8.358101e-002	0.000000e+000	0.000000e+000	0.000000e+000	0.000000e+000
816665	-2.388002e-001	3.434645e-001	4.553733e-001	8.379490e-002	0.000000e+000	0.000000e+000	0.000000e+000	0.000000e+000
821620	-2.396536e-001	3.441445e-001	4.555318e-001	8.397402e-002	0.000000e+000	0.000000e+000	0.000000e+000	0.000000e+000
