!Agilent Technologies,E5071C,MY46109397,A.09.54
!Date: Mon Jan 01 02:16:30 2001
!Data & Calibration Information:
!Freq	S11:SOLT1(ON)	S21:RESPT(ON)	S12:NONE(--)	S22:NONE(--)
# Hz S RI R 50
9000	9.668156e-001	2.975788e-001	8.865391e-001	5.380886e-001	0.000000e+000	0.000000e+000	0.000000e+000	0.000000e+000
13955	9.603683e-001	4.140797e-001	1.808384e-002	5.846003e-002	0.000000e+000	0.000000e+000	0.000000e+000	0.000000e+000
18910	9.047660e-001	5.018127e-001	3.507850e-002	8.606254e-002	0.000000e+000	0.000000e+000	0.000000e+000	0.000000e+000
23865	8.284569e-001	5.941860e-001	4.506332e-002	9.668930e-002	0.000000e+000	0.000000e+000	0.000000e+000	0.000000e+000
28820	7.620367e-001	6.703528e-001	5.688107e-002	1.095066e-001	0.000000e+000	0.000000e+000	0.000000e+000	0.000000e+000
33775	6.964546e-001	7.273373e-001	7.009241e-002	1.215288e-001	0.000000e+000	0.000000e+000	0.000000e+000	0.000000e+000
38730	6.351036e-001	7.718286e-001	8.561457e-002	1.315271e-001	0.000000e+000	0.000000e+000	0.000000e+000	0.000000e+000
43685	5.792856e-001	8.036183e-001	9.994763e-002	1.380996e-001	0.000000e+000	0.000000e+000	0.000000e+000	0.000000e+000
48640	5.284053e-001	8.251237e-001	1.128480e-001	1.417423e-001	0.000000e+000	0.000000e+000	0.000000e+000	0.000000e+000
53595	4.849557e-001	8.378218e-001	1.233129e-001	1.462331e-001	0.000000e+000	0.000000e+000	0.000000e+000	0.000000e+000
58550	4.461851e-001	8.429014e-001	1.359164e-001	1.523605e-001	0.000000e+000	0.000000e+000	0.000000e+000	0.000000e+000
63505	4.118329e-001	8.434969e-001	1.506828e-001	1.541576e-001	0.000000e+000	0.000000e+000	0.000000e+000	0.000000e+000
68460	3.823079e-001	8.400244e-001	1.636452e-001	1.557552e-001	0.000000e+000	0.000000e+000	0.000000e+000	0.000000e+000
73415	3.578099e-001	8.331522e-001	1.753618e-001	1.551451e-001	0.000000e+000	0.000000e+000	0.000000e+000	0.000000e+000
78370	3.364890e-001	8.236522e-001	1.861695e-001	1.534752e-001	0.000000e+000	0.000000e+000	0.000000e+000	0.000000e+000
83325	3.179608e-001	8.121837e-001	1.966289e-001	1.512852e-001	0.000000e+000	0.000000e+000	0.000000e+000	0.000000e+000
88280	3.023290e-001	7.996717e-001	2.054313e-001	1.482610e-001	0.000000e+000	0.000000e+000	0.000000e+000	0.000000e+000
93235	2.893703e-001	7.858459e-001	2.141152e-001	1.454971e-001	0.000000e+000	0.000000e+000	0.000000e+000	0.000000e+000
98190	2.778253e-001	7.710801e-001	2.221269e-001	1.420567e-001	0.000000e+000	0.000000e+000	0.000000e+000	0.000000e+000
103145	2.675960e-001	7.557638e-001	2.289497e-001	1.389556e-001	0.000000e+000	0.000000e+000	0.000000e+000	0.000000e+000
108100	2.585300e-001	7.404607e-001	2.360086e-001	1.353548e-001	0.000000e+000	0.000000e+000	0.000000e+000	0.000000e+000
113055	2.503369e-001	7.251299e-001	2.419803e-001	1.310398e-001	0.000000e+000	0.000000e+000	0.000000e+000	0.000000e+000
118010	2.447179e-001	7.109859e-001	2.457716e-001	1.271220e-001	0.000000e+000	0.000000e+000	0.000000e+000	0.000000e+000
122965	2.382813e-001	6.960584e-001	2.517977e-001	1.229097e-001	0.000000e+000	0.000000e+000	0.000000e+000	0.000000e+000
127920	2.320432e-001	6.813899e-001	2.564495e-001	1.184512e-001	0.000000e+000	0.000000e+000	0.000000e+000	0.000000e+000
132875	2.267344e-001	6.673721e-001	2.610098e-001	1.146025e-001	0.000000e+000	0.000000e+000	0.000000e+000	0.000000e+000
137830	2.230630e-001	6.537216e-001	2.643918e-001	1.108476e-001	0.000000e+000	0.000000e+000	0.000000e+000	0.000000e+000
142785	2.193892e-001	6.407220e-001	2.670929e-001	1.066738e-001	0.000000e+000	0.000000e+000	0.000000e+000	0.000000e+000
147740	2.149751e-001	6.275363e-001	2.708746e-001	1.031467e-001	0.000000e+000	0.000000e+000	0.000000e+000	0.000000e+000
152695	2.127097e-001	6.153384e-001	2.722237e-001	9.948190e-002	0.000000e+000	0.000000e+000	0.000000e+000	0.000000e+000
157650	2.107006e-001	6.038493e-001	2.737831e-001	9.532545e-002	0.000000e+000	0.000000e+000	0.000000e+000	0.000000e+000
162605	2.057071e-001	5.915392e-001	2.778983e-001	9.189905e-002	0.000000e+000	0.000000e+000	0.000000e+000	0.000000e+000
167560	2.025981e-001	5.802301e-001	2.801281e-001	8.849543e-002	0.000000e+000	0.000000e+000	0.000000e+000	0.000000e+000
172515	1.998868e-001	5.694431e-001	2.817473e-001	8.493744e-002	0.000000e+000	0.000000e+000	0.000000e+000	0.000000e+000
177470	1.979520e-001	5.590526e-001	2.824963e-001	8.179900e-002	0.000000e+000	0.000000e+000	0.000000e+000	0.000000e+000
182425	1.955966e-001	5.490452e-001	2.837503e-001	7.864230e-002	0.000000e+000	0.000000e+000	0.000000e+000	0.000000e+000
187380	1.922643e-001	5.389659e-001	2.856916e-001	7.544977e-002	0.000000e+000	0.000000e+000	0.000000e+000	0.000000e+000
192335	1.898732e-001	5.296893e-001	2.868747e-001	7.239746e-002	0.000000e+000	0.000000e+000	0.000000e+000	0.000000e+000
197290	1.877486e-001	5.208203e-001	2.877502e-001	6.974737e-002	0.000000e+000	0.000000e+000	0.000000e+000	0.000000e+000
202245	1.852137e-001	5.120239e-001	2.884441e-001	6.646411e-002	0.000000e+000	0.000000e+000	0.000000e+000	0.000000e+000
207200	1.826455e-001	5.036227e-001	2.891936e-001	6.391466e-002	0.000000e+000	0.000000e+000	0.000000e+000	0.000000e+000
212155	1.802794e-001	4.956039e-001	2.895236e-001	6.119310e-002	0.000000e+000	0.000000e+000	0.000000e+000	0.000000e+000
217110	1.779875e-001	4.878170e-001	2.896751e-001	5.866681e-002	0.000000e+000	0.000000e+000	0.000000e+000	0.000000e+000
222065	1.751539e-001	4.805782e-001	2.902322e-001	5.622989e-002	0.000000e+000	0.000000e+000	0.000000e+000	0.000000e+000
227020	1.731322e-001	4.735799e-001	2.901670e-001	5.379394e-002	0.000000e+000	0.000000e+000	0.000000e+000	0.000000e+000
231975	1.711948e-001	4.667609e-001	2.898924e-001	5.142329e-002	0.000000e+000	0.000000e+000	0.000000e+000	0.000000e+000
236930	1.682871e-001	4.601327e-001	2.901666e-001	4.953182e-002	0.000000e+000	0.000000e+000	0.000000e+000	0.000000e+000
241885	1.653061e-001	4.540871e-001	2.905512e-001	4.732707e-002	0.000000e+000	0.000000e+000	0.000000e+000	0.000000e+000
246840	1.627415e-001	4.479637e-001	2.899874e-001	4.509653e-002	0.000000e+000	0.000000e+000	0.000000e+000	0.000000e+000
251795	1.604321e-001	4.423944e-001	2.896054e-001	4.367657e-002	0.000000e+000	0.000000e+000	0.000000e+000	0.000000e+000
256750	1.575580e-001	4.368890e-001	2.892133e-001	4.182356e-002	0.000000e+000	0.000000e+000	0.000000e+000	0.000000e+000
261705	1.542608e-001	4.319052e-001	2.892424e-001	4.002112e-002	0.000000e+000	0.000000e+000	0.000000e+000	0.000000e+000
266660	1.510435e-001	4.271341e-001	2.891058e-001	3.852935e-002	0.000000e+000	0.000000e+000	0.000000e+000	0.000000e+000
271615	1.479707e-001	4.224997e-001	2.887163e-001	3.680387e-002	0.000000e+000	0.000000e+000	0.000000e+000	0.000000e+000
276570	1.450032e-001	4.181661e-001	2.882656e-001	3.536502e-002	0.000000e+000	0.000000e+000	0.000000e+000	0.000000e+000
281525	1.428790e-001	4.140177e-001	2.871877e-001	3.429166e-002	0.000000e+000	0.000000e+000	0.000000e+000	0.000000e+000
286480	1.412981e-001	4.098669e-001	2.854767e-001	3.316382e-002	0.000000e+000	0.000000e+000	0.000000e+000	0.000000e+000
291435	1.374600e-001	4.068906e-001	2.855430e-001	3.148271e-002	0.000000e+000	0.000000e+000	0.000000e+000	0.000000e+000
296390	1.325847e-001	4.032601e-001	2.863513e-001	3.020729e-002	0.000000e+000	0.000000e+000	0.000000e+000	0.000000e+000
301345	1.297777e-001	4.001211e-001	2.853802e-001	2.925756e-002	0.000000e+000	0.000000e+000	0.000000e+000	0.000000e+000
306300	1.267399e-001	3.972044e-001	2.847827e-001	2.814826e-002	0.000000e+000	0.000000e+000	0.000000e+000	0.000000e+000
311255	1.227098e-001	3.946701e-001	2.845596e-001	2.707099e-002	0.000000e+000	0.000000e+000	0.000000e+000	0.000000e+000
316210	1.193905e-001	3.922577e-001	2.841845e-001	2.620285e-002	0.000000e+000	0.000000e+000	0.000000e+000	0.000000e+000
321165	1.159963e-001	3.901563e-001	2.834929e-001	2.524932e-002	0.000000e+000	0.000000e+000	0.000000e+000	0.000000e+000
326120	1.126742e-001	3.881074e-001	2.829541e-001	2.444301e-002	0.000000e+000	0.000000e+000	0.000000e+000	0.000000e+000
331075	1.096126e-001	3.863298e-001	2.822502e-001	2.373615e-002	0.000000e+000	0.000000e+000	0.000000e+000	0.000000e+000
336030	1.072554e-001	3.846714e-001	2.808259e-001	2.308943e-002	0.000000e+000	0.000000e+000	0.000000e+000	0.000000e+000
340985	1.042415e-001	3.833588e-001	2.801082e-001	2.248510e-002	0.000000e+000	0.000000e+000	0.000000e+000	0.000000e+000
345940	1.011808e-001	3.821807e-001	2.793944e-001	2.198367e-002	0.000000e+000	0.000000e+000	0.000000e+000	0.000000e+000
350895	9.645614e-002	3.812679e-001	2.799758e-001	2.109439e-002	0.000000e+000	0.000000e+000	0.000000e+000	0.000000e+000
355850	9.313471e-002	3.805376e-001	2.794341e-001	2.045498e-002	0.000000e+000	0.000000e+000	0.000000e+000	0.000000e+000
360805	8.996245e-002	3.799083e-001	2.790129e-001	2.004193e-002	0.000000e+000	0.000000e+000	0.000000e+000	0.000000e+000
365760	8.694228e-002	3.794437e-001	2.782034e-001	1.940013e-002	0.000000e+000	0.000000e+000	0.000000e+000	0.000000e+000
370715	8.368732e-002	3.789596e-001	2.778772e-001	1.914991e-002	0.000000e+000	0.000000e+000	0.000000e+000	0.000000e+000
375670	8.066378e-002	3.787302e-001	2.773187e-001	1.869032e-002	0.000000e+000	0.000000e+000	0.000000e+000	0.000000e+000
380625	7.749861e-002	3.786939e-001	2.767415e-001	1.829364e-002	0.000000e+000	0.000000e+000	0.000000e+000	0.000000e+000
385580	7.528448e-002	3.786348e-001	2.759261e-001	1.818789e-002	0.000000e+000	0.000000e+000	0.000000e+000	0.000000e+000
390535	7.186812e-002	3.788484e-001	2.756478e-001	1.776697e-002	0.000000e+000	0.000000e+000	0.000000e+000	0.000000e+000
395490	6.881404e-002	3.791293e-001	2.753446e-001	1.746954e-002	0.000000e+000	0.000000e+000	0.000000e+000	0.000000e+000
400445	6.656634e-002	3.793916e-001	2.744464e-001	1.741387e-002	0.000000e+000	0.000000e+000	0.000000e+000	0.000000e+000
405400	6.346188e-002	3.799067e-001	2.743149e-001	1.712887e-002	0.000000e+000	0.000000e+000	0.000000e+000	0.000000e+000
410355	6.052793e-002	3.806707e-001	2.739023e-001	1.676952e-002	0.000000e+000	0.000000e+000	0.000000e+000	0.000000e+000
415310	5.751932e-002	3.813786e-001	2.738845e-001	1.662268e-002	0.000000e+000	0.000000e+000	0.000000e+000	0.000000e+000
420265	5.482976e-002	3.822107e-001	2.735570e-001	1.634960e-002	0.000000e+000	0.000000e+000	0.000000e+000	0.000000e+000
425220	5.243229e-002	3.830062e-001	2.730196e-001	1.614909e-002	0.000000e+000	0.000000e+000	0.000000e+000	0.000000e+000
430175	5.005720e-002	3.839040e-001	2.725689e-001	1.610925e-002	0.000000e+000	0.000000e+000	0.000000e+000	0.000000e+000
435130	4.744285e-002	3.851221e-001	2.722979e-001	1.574202e-002	0.000000e+000	0.000000e+000	0.000000e+000	0.000000e+000
440085	4.512236e-002	3.861157e-001	2.718560e-001	1.566650e-002	0.000000e+000	0.000000e+000	0.000000e+000	0.000000e+000
445040	4.287609e-002	3.874100e-001	2.713151e-001	1.555300e-002	0.000000e+000	0.000000e+000	0.000000e+000	0.000000e+000
449995	4.021902e-002	3.886554e-001	2.713905e-001	1.521750e-002	0.000000e+000	0.000000e+000	0.000000e+000	0.000000e+000
454950	3.806193e-002	3.899931e-001	2.710637e-001	1.500564e-002	0.000000e+000	0.000000e+000	0.000000e+000	0.000000e+000
459905	3.565188e-002	3.914958e-001	2.708780e-001	1.478055e-002	0.000000e+000	0.000000e+000	0.000000e+000	0.000000e+000
464860	3.352430e-002	3.928740e-001	2.706179e-001	1.461646e-002	0.000000e+000	0.000000e+000	0.000000e+000	0.000000e+000
469815	3.148652e-002	3.944388e-001	2.702689e-001	1.444978e-002	0.000000e+000	0.000000e+000	0.000000e+000	0.000000e+000
474770	3.125849e-002	3.955949e-001	2.686513e-001	1.502461e-002	0.000000e+000	0.000000e+000	0.000000e+000	0.000000e+000
479725	2.974894e-002	3.975431e-001	2.679023e-001	1.459765e-002	0.000000e+000	0.000000e+000	0.000000e+000	0.000000e+000
484680	2.639922e-002	3.993687e-001	2.689679e-001	1.413559e-002	0.000000e+000	0.000000e+000	0.000000e+000	0.000000e+000
489635	2.444603e-002	4.010071e-001	2.685688e-001	1.397249e-002	0.000000e+000	0.000000e+000	0.000000e+000	0.000000e+000
494590	2.231567e-002	4.027559e-001	2.686290e-001	1.373319e-002	0.000000e+000	0.000000e+000	0.000000e+000	0.000000e+000
499545	2.060272e-002	4.046678e-001	2.682345e-001	1.348570e-002	0.000000e+000	0.000000e+000	0.000000e+000	0.000000e+000
504500	1.957449e-002	4.065597e-001	2.675120e-001	1.333021e-002	0.000000e+000	0.000000e+000	0.000000e+000	0.000000e+000
509455	1.756538e-002	4.085855e-001	2.673358e-001	1.290973e-002	0.000000e+000	0.000000e+000	0.000000e+000	0.000000e+000
514410	1.643487e-002	4.105705e-001	2.667984e-001	1.274238e-002	0.000000e+000	0.000000e+000	0.000000e+000	0.000000e+000
519365	1.420216e-002	4.127399e-001	2.669129e-001	1.234254e-002	0.000000e+000	0.000000e+000	0.000000e+000	0.000000e+000
524320	1.333763e-002	4.148201e-001	2.662407e-001	1.210073e-002	0.000000e+000	0.000000e+000	0.000000e+000	0.000000e+000
529275	1.246651e-002	4.169463e-001	2.652387e-001	1.183301e-002	0.000000e+000	0.000000e+000	0.000000e+000	0.000000e+000
534230	1.039589e-002	4.194233e-001	2.655315e-001	1.121844e-002	0.000000e+000	0.000000e+000	0.000000e+000	0.000000e+000
539185	9.146952e-003	4.216748e-001	2.650144e-001	1.078858e-002	0.000000e+000	0.000000e+000	0.000000e+000	0.000000e+000
544140	7.907203e-003	4.238985e-001	2.643395e-001	1.039060e-002	0.000000e+000	0.000000e+000	0.000000e+000	0.000000e+000
549095	6.881730e-003	4.265653e-001	2.637288e-001	9.855088e-003	0.000000e+000	0.000000e+000	0.000000e+000	0.000000e+000
554050	6.000153e-003	4.290428e-001	2.628676e-001	9.356562e-003	0.000000e+000	0.000000e+000	0.000000e+000	0.000000e+000
559005	5.406452e-003	4.314544e-001	2.617901e-001	9.050258e-003	0.000000e+000	0.000000e+000	0.000000e+000	0.000000e+000
563960	5.126575e-003	4.338604e-001	2.606653e-001	8.835840e-003	0.000000e+000	0.000000e+000	0.000000e+000	0.000000e+000
568915	4.894939e-003	4.363054e-001	2.592590e-001	8.588014e-003	0.000000e+000	0.000000e+000	0.000000e+000	0.000000e+000
573870	5.210064e-003	4.384636e-001	2.578443e-001	8.748893e-003	0.000000e+000	0.000000e+000	0.000000e+000	0.000000e+000
578825	5.077196e-003	4.408805e-001	2.563491e-001	8.587886e-003	0.000000e+000	0.000000e+000	0.000000e+000	0.000000e+000
583780	5.467683e-003	4.433225e-001	2.544919e-001	8.543327e-003	0.000000e+000	0.000000e+000	0.000000e+000	0.000000e+000
588735	6.532347e-003	4.455972e-001	2.519986e-001	8.841626e-003	0.000000e+000	0.000000e+000	0.000000e+000	0.000000e+000
593690	7.868876e-003	4.473296e-001	2.497763e-001	9.725928e-003	0.000000e+000	0.000000e+000	0.000000e+000	0.000000e+000
598645	1.021829e-002	4.482678e-001	2.467144e-001	1.153098e-002	0.000000e+000	0.000000e+000	0.000000e+000	0.000000e+000
603600	1.309008e-002	4.490272e-001	2.434371e-001	1.382941e-002	0.000000e+000	0.000000e+000	0.000000e+000	0.000000e+000
608555	1.322513e-002	4.483313e-001	2.428534e-001	1.635594e-002	0.000000e+000	0.000000e+000	0.000000e+000	0.000000e+000
613510	1.522147e-002	4.470511e-001	2.410319e-001	1.987269e-002	0.000000e+000	0.000000e+000	0.000000e+000	0.000000e+000
618465	1.630039e-002	4.448965e-001	2.400915e-001	2.399624e-002	0.000000e+000	0.000000e+000	0.000000e+000	0.000000e+000
623420	1.635084e-002	4.419887e-001	2.404406e-001	2.834312e-002	0.000000e+000	0.000000e+000	0.000000e+000	0.000000e+000
628375	1.697065e-002	4.390991e-001	2.403672e-001	3.300957e-002	0.000000e+000	0.000000e+000	0.000000e+000	0.000000e+000
633330	1.386782e-002	4.363345e-001	2.431614e-001	3.610138e-002	0.000000e+000	0.000000e+000	0.000000e+000	0.000000e+000
638285	9.485063e-003	4.337895e-001	2.470544e-001	3.871249e-002	0.000000e+000	0.000000e+000	0.000000e+000	0.000000e+000
643240	5.472720e-003	4.325973e-001	2.501392e-001	4.020517e-002	0.000000e+000	0.000000e+000	0.000000e+000	0.000000e+000
648195	1.412914e-003	4.322648e-001	2.530901e-001	4.119064e-002	0.000000e+000	0.000000e+000	0.000000e+000	0.000000e+000
653150	-3.392881e-003	4.322084e-001	2.563991e-001	4.138344e-002	0.000000e+000	0.000000e+000	0.000000e+000	0.000000e+000
658105	-7.287303e-003	4.326090e-001	2.589128e-001	4.164608e-002	0.000000e+000	0.000000e+000	0.000000e+000	0.000000e+000
663060	-1.097847e-002	4.334134e-001	2.610899e-001	4.161268e-002	0.000000e+000	0.000000e+000	0.000000e+000	0.000000e+000
668015	-1.459389e-002	4.348470e-001	2.630699e-001	4.106583e-002	0.000000e+000	0.000000e+000	0.000000e+000	0.000000e+000
672970	-1.779991e-002	4.364911e-001	2.645405e-001	4.053558e-002	0.000000e+000	0.000000e+000	0.000000e+000	0.000000e+000
677925	-2.064438e-002	4.381837e-001	2.657094e-001	3.997571e-002	0.000000e+000	0.000000e+000	0.000000e+000	0.000000e+000
682880	-2.271927e-002	4.401968e-001	2.661288e-001	3.959191e-002	0.000000e+000	0.000000e+000	0.000000e+000	0.000000e+000
687835	-2.642966e-002	4.420626e-001	2.679238e-001	3.843818e-002	0.000000e+000	0.000000e+000	0.000000e+000	0.000000e+000
692790	-2.993023e-002	4.437977e-001	2.694417e-001	3.768606e-002	0.000000e+000	0.000000e+000	0.000000e+000	0.000000e+000
697745	-3.179959e-002	4.456180e-001	2.697265e-001	3.738452e-002	0.000000e+000	0.000000e+000	0.000000e+000	0.000000e+000
702700	-3.402863e-002	4.476236e-001	2.701662e-001	3.672599e-002	0.000000e+000	0.000000e+000	0.000000e+000	0.000000e+000
707655	-3.730856e-002	4.494630e-001	2.715214e-001	3.593420e-002	0.000000e+000	0.000000e+000	0.000000e+000	0.000000e+000
712610	-3.956431e-002	4.513212e-001	2.721277e-001	3.540471e-002	0.000000e+000	0.000000e+000	0.000000e+000	0.000000e+000
717565	-4.159060e-002	4.533173e-001	2.725331e-001	3.477514e-002	0.000000e+000	0.000000e+000	0.000000e+000	0.000000e+000
722520	-4.378801e-002	4.548957e-001	2.729583e-001	3.438415e-002	0.000000e+000	0.000000e+000	0.000000e+000	0.000000e+000
727475	-4.577351e-002	4.569665e-001	2.733293e-001	3.387370e-002	0.000000e+000	0.000000e+000	0.000000e+000	0.000000e+000
732430	-4.749470e-002	4.588246e-001	2.734735e-001	3.343445e-002	0.000000e+000	0.000000e+000	0.000000e+000	0.000000e+000
737385	-4.900907e-002	4.607330e-001	2.733169e-001	3.303151e-002	0.000000e+000	0.000000e+000	0.000000e+000	0.000000e+000
742340	-5.146784e-002	4.624005e-001	2.741754e-001	3.247977e-002	0.000000e+000	0.000000e+000	0.000000e+000	0.000000e+000
747295	-5.279434e-002	4.643912e-001	2.739531e-001	3.233282e-002	0.000000e+000	0.000000e+000	0.000000e+000	0.000000e+000
752250	-5.542066e-002	4.660931e-001	2.747139e-001	3.174041e-002	0.000000e+000	0.000000e+000	0.000000e+000	0.000000e+000
757205	-5.731199e-002	4.677909e-001	2.748768e-001	3.135719e-002	0.000000e+000	0.000000e+000	0.000000e+000	0.000000e+000
762160	-5.866092e-002	4.694124e-001	2.747699e-001	3.121973e-002	0.000000e+000	0.000000e+000	0.000000e+000	0.000000e+000
767115	-6.069759e-002	4.711797e-001	2.749714e-001	3.085650e-002	0.000000e+000	0.000000e+000	0.000000e+000	0.000000e+000
772070	-6.273692e-002	4.727723e-001	2.753725e-001	3.048887e-002	0.000000e+000	0.000000e+000	0.000000e+000	0.000000e+000
777025	-6.431039e-002	4.744127e-001	2.754070e-001	3.027832e-002	0.000000e+000	0.000000e+000	0.000000e+000	0.000000e+000
781980	-6.647755e-002	4.762201e-001	2.758565e-001	2.992766e-002	0.000000e+000	0.000000e+000	0.000000e+000	0.000000e+000
786935	-6.816871e-002	4.777718e-001	2.759033e-001	2.960686e-002	0.000000e+000	0.000000e+000	0.000000e+000	0.000000e+000
791890	-6.983915e-002	4.793817e-001	2.761174e-001	2.934047e-002	0.000000e+000	0.000000e+000	0.000000e+000	0.000000e+000
796845	-7.151530e-002	4.810255e-001	2.762561e-001	2.914165e-002	0.000000e+000	0.000000e+000	0.000000e+000	0.000000e+000
801800	-7.317837e-002	4.824981e-001	2.763270e-001	2.895899e-002	0.000000e+000	0.000000e+000	0.000000e+000	0.000000e+000
806755	-7.487327e-002	4.841049e-001	2.764346e-001	2.874163e-002	0.000000e+000	0.000000e+000	0.000000e+000	0.000000e+000
811710	-7.616912e-002	4.857084e-001	2.762141e-001	2.866819e-002	0.000000e+000	0.000000e+000	0.000000e+000	0.000000e+000
816665	-7.791639e-002	4.873457e-001	2.765388e-001	2.834840e-002	0.000000e+000	0.000000e+000	0.000000e+000	0.000000e+000
821620	-7.934383e-002	4.890639e-001	2.763809e-001	2.818641e-002	0.000000e+000	0.000000e+000	0.000000e+000	0.000000e+000
826575	-8.128802e-002	4.903952e-001	2.768631e-001	2.801352e-002	0.000000e+000	0.000000e+000	0.000000e+000	0.000000e+000
