!Agilent Technologies,E5071C,MY46109397,A.09.54
!Date: Mon Jan 01 02:08:51 2001
!Data & Calibration Information:
!Freq	S11:SOLT1(ON)	S21:RESPT(ON)	S12:NONE(--)	S22:NONE(--)
# Hz S RI R 50
9000	9.674876e-001	2.982282e-001	8.671438e-001	5.332293e-001	0.000000e+000	0.000000e+000	0.000000e+000	0.000000e+000
13955	9.614969e-001	4.148237e-001	6.295960e-004	-6.584623e-004	0.000000e+000	0.000000e+000	0.000000e+000	0.000000e+000
18910	9.072499e-001	5.034330e-001	-6.474904e-005	-9.811909e-005	0.000000e+000	0.000000e+000	0.000000e+000	0.000000e+000
23865	8.330760e-001	5.973493e-001	5.300534e-004	4.285881e-004	0.000000e+000	0.000000e+000	0.000000e+000	0.000000e+000
28820	7.697974e-001	6.760496e-001	1.775717e-004	3.338870e-004	0.000000e+000	0.000000e+000	0.000000e+000	0.000000e+000
33775	7.081765e-001	7.366362e-001	-5.370203e-004	5.223280e-005	0.000000e+000	0.000000e+000	0.000000e+000	0.000000e+000
38730	6.521223e-001	7.862397e-001	-1.030062e-004	6.331004e-004	0.000000e+000	0.000000e+000	0.000000e+000	0.000000e+000
43685	6.023250e-001	8.240045e-001	-7.232327e-004	4.789919e-004	0.000000e+000	0.000000e+000	0.000000e+000	0.000000e+000
48640	5.580946e-001	8.523728e-001	-8.758975e-004	9.562627e-004	0.000000e+000	0.000000e+000	0.000000e+000	0.000000e+000
53595	5.214405e-001	8.734138e-001	-1.040821e-003	1.087031e-003	0.000000e+000	0.000000e+000	0.000000e+000	0.000000e+000
58550	4.905990e-001	8.885329e-001	-1.108344e-003	1.508060e-003	0.000000e+000	0.000000e+000	0.000000e+000	0.000000e+000
63505	4.656842e-001	8.987955e-001	-1.547338e-003	1.397126e-003	0.000000e+000	0.000000e+000	0.000000e+000	0.000000e+000
68460	4.462869e-001	9.051235e-001	-1.617697e-003	1.751348e-003	0.000000e+000	0.000000e+000	0.000000e+000	0.000000e+000
73415	4.315268e-001	9.079886e-001	-1.683734e-003	1.767729e-003	0.000000e+000	0.000000e+000	0.000000e+000	0.000000e+000
78370	4.207268e-001	9.082738e-001	-1.391477e-003	2.174455e-003	0.000000e+000	0.000000e+000	0.000000e+000	0.000000e+000
83325	4.135065e-001	9.062623e-001	-1.840979e-003	2.610863e-003	0.000000e+000	0.000000e+000	0.000000e+000	0.000000e+000
88280	4.089608e-001	9.025924e-001	-1.959211e-003	2.721744e-003	0.000000e+000	0.000000e+000	0.000000e+000	0.000000e+000
93235	4.072720e-001	8.972015e-001	-1.917223e-003	2.924034e-003	0.000000e+000	0.000000e+000	0.000000e+000	0.000000e+000
98190	4.072615e-001	8.907703e-001	-1.860910e-003	3.220691e-003	0.000000e+000	0.000000e+000	0.000000e+000	0.000000e+000
103145	4.088421e-001	8.832063e-001	-2.120892e-003	3.510588e-003	0.000000e+000	0.000000e+000	0.000000e+000	0.000000e+000
108100	4.117902e-001	8.745821e-001	-2.053492e-003	3.520955e-003	0.000000e+000	0.000000e+000	0.000000e+000	0.000000e+000
113055	4.157385e-001	8.652642e-001	-2.130519e-003	4.122664e-003	0.000000e+000	0.000000e+000	0.000000e+000	0.000000e+000
118010	4.202355e-001	8.552388e-001	-2.067843e-003	4.356445e-003	0.000000e+000	0.000000e+000	0.000000e+000	0.000000e+000
122965	4.256379e-001	8.447189e-001	-2.171259e-003	4.713336e-003	0.000000e+000	0.000000e+000	0.000000e+000	0.000000e+000
127920	4.310091e-001	8.337623e-001	-2.141896e-003	4.972119e-003	0.000000e+000	0.000000e+000	0.000000e+000	0.000000e+000
132875	4.368143e-001	8.226672e-001	-2.255986e-003	5.193471e-003	0.000000e+000	0.000000e+000	0.000000e+000	0.000000e+000
137830	4.426657e-001	8.111857e-001	-2.301576e-003	5.502855e-003	0.000000e+000	0.000000e+000	0.000000e+000	0.000000e+000
142785	4.485722e-001	7.994529e-001	-2.230720e-003	5.730576e-003	0.000000e+000	0.000000e+000	0.000000e+000	0.000000e+000
147740	4.542478e-001	7.876922e-001	-2.153624e-003	6.170661e-003	0.000000e+000	0.000000e+000	0.000000e+000	0.000000e+000
152695	4.598130e-001	7.759128e-001	-2.171332e-003	6.231842e-003	0.000000e+000	0.000000e+000	0.000000e+000	0.000000e+000
157650	4.653384e-001	7.639918e-001	-2.091954e-003	6.486391e-003	0.000000e+000	0.000000e+000	0.000000e+000	0.000000e+000
162605	4.704541e-001	7.521529e-001	-2.173869e-003	6.809506e-003	0.000000e+000	0.000000e+000	0.000000e+000	0.000000e+000
167560	4.753498e-001	7.403388e-001	-2.153433e-003	6.961198e-003	0.000000e+000	0.000000e+000	0.000000e+000	0.000000e+000
172515	4.800723e-001	7.286808e-001	-2.009776e-003	7.229900e-003	0.000000e+000	0.000000e+000	0.000000e+000	0.000000e+000
177470	4.844580e-001	7.170910e-001	-2.014724e-003	7.467869e-003	0.000000e+000	0.000000e+000	0.000000e+000	0.000000e+000
182425	4.884098e-001	7.055809e-001	-2.144194e-003	7.659215e-003	0.000000e+000	0.000000e+000	0.000000e+000	0.000000e+000
187380	4.919853e-001	6.941032e-001	-1.974425e-003	7.915001e-003	0.000000e+000	0.000000e+000	0.000000e+000	0.000000e+000
192335	4.953726e-001	6.829215e-001	-2.019073e-003	8.287697e-003	0.000000e+000	0.000000e+000	0.000000e+000	0.000000e+000
197290	4.984010e-001	6.719148e-001	-1.910337e-003	8.492717e-003	0.000000e+000	0.000000e+000	0.000000e+000	0.000000e+000
202245	5.009983e-001	6.609899e-001	-1.836797e-003	8.671864e-003	0.000000e+000	0.000000e+000	0.000000e+000	0.000000e+000
207200	5.032290e-001	6.502698e-001	-1.877125e-003	8.902561e-003	0.000000e+000	0.000000e+000	0.000000e+000	0.000000e+000
212155	5.052738e-001	6.398609e-001	-1.864693e-003	9.042277e-003	0.000000e+000	0.000000e+000	0.000000e+000	0.000000e+000
217110	5.067307e-001	6.294152e-001	-1.759027e-003	9.323011e-003	0.000000e+000	0.000000e+000	0.000000e+000	0.000000e+000
222065	5.078575e-001	6.194906e-001	-1.726947e-003	9.498980e-003	0.000000e+000	0.000000e+000	0.000000e+000	0.000000e+000
227020	5.087132e-001	6.097157e-001	-1.678814e-003	9.792708e-003	0.000000e+000	0.000000e+000	0.000000e+000	0.000000e+000
231975	5.091620e-001	6.000078e-001	-1.594202e-003	9.981278e-003	0.000000e+000	0.000000e+000	0.000000e+000	0.000000e+000
236930	5.093626e-001	5.905426e-001	-1.684846e-003	1.021478e-002	0.000000e+000	0.000000e+000	0.000000e+000	0.000000e+000
241885	5.089793e-001	5.815347e-001	-1.567213e-003	1.042552e-002	0.000000e+000	0.000000e+000	0.000000e+000	0.000000e+000
246840	5.084053e-001	5.726441e-001	-1.524831e-003	1.050999e-002	0.000000e+000	0.000000e+000	0.000000e+000	0.000000e+000
251795	5.074050e-001	5.639372e-001	-1.597064e-003	1.082341e-002	0.000000e+000	0.000000e+000	0.000000e+000	0.000000e+000
256750	5.061251e-001	5.557167e-001	-1.540299e-003	1.086936e-002	0.000000e+000	0.000000e+000	0.000000e+000	0.000000e+000
261705	5.045267e-001	5.477190e-001	-1.450351e-003	1.110675e-002	0.000000e+000	0.000000e+000	0.000000e+000	0.000000e+000
266660	5.024351e-001	5.400534e-001	-1.378255e-003	1.136506e-002	0.000000e+000	0.000000e+000	0.000000e+000	0.000000e+000
271615	5.002763e-001	5.327448e-001	-1.491397e-003	1.162625e-002	0.000000e+000	0.000000e+000	0.000000e+000	0.000000e+000
276570	4.976789e-001	5.256779e-001	-1.388055e-003	1.170098e-002	0.000000e+000	0.000000e+000	0.000000e+000	0.000000e+000
281525	4.948262e-001	5.190594e-001	-1.327636e-003	1.200526e-002	0.000000e+000	0.000000e+000	0.000000e+000	0.000000e+000
286480	4.917635e-001	5.125586e-001	-1.351681e-003	1.208703e-002	0.000000e+000	0.000000e+000	0.000000e+000	0.000000e+000
291435	4.884655e-001	5.064733e-001	-1.300150e-003	1.216724e-002	0.000000e+000	0.000000e+000	0.000000e+000	0.000000e+000
296390	4.848410e-001	5.008928e-001	-1.337346e-003	1.237320e-002	0.000000e+000	0.000000e+000	0.000000e+000	0.000000e+000
301345	4.810197e-001	4.956158e-001	-1.384149e-003	1.258161e-002	0.000000e+000	0.000000e+000	0.000000e+000	0.000000e+000
306300	4.771150e-001	4.906546e-001	-1.214772e-003	1.282407e-002	0.000000e+000	0.000000e+000	0.000000e+000	0.000000e+000
311255	4.729143e-001	4.861118e-001	-1.243373e-003	1.297837e-002	0.000000e+000	0.000000e+000	0.000000e+000	0.000000e+000
316210	4.686287e-001	4.819334e-001	-1.281809e-003	1.305101e-002	0.000000e+000	0.000000e+000	0.000000e+000	0.000000e+000
321165	4.641859e-001	4.782112e-001	-1.281118e-003	1.330001e-002	0.000000e+000	0.000000e+000	0.000000e+000	0.000000e+000
326120	4.596829e-001	4.747565e-001	-1.256938e-003	1.334868e-002	0.000000e+000	0.000000e+000	0.000000e+000	0.000000e+000
331075	4.550081e-001	4.716437e-001	-1.245024e-003	1.349291e-002	0.000000e+000	0.000000e+000	0.000000e+000	0.000000e+000
336030	4.504324e-001	4.689099e-001	-1.137406e-003	1.375648e-002	0.000000e+000	0.000000e+000	0.000000e+000	0.000000e+000
340985	4.456701e-001	4.665134e-001	-1.276115e-003	1.389424e-002	0.000000e+000	0.000000e+000	0.000000e+000	0.000000e+000
345940	4.410197e-001	4.645065e-001	-1.335759e-003	1.400562e-002	0.000000e+000	0.000000e+000	0.000000e+000	0.000000e+000
350895	4.363561e-001	4.627706e-001	-1.320184e-003	1.414910e-002	0.000000e+000	0.000000e+000	0.000000e+000	0.000000e+000
355850	4.316491e-001	4.613610e-001	-1.306356e-003	1.434396e-002	0.000000e+000	0.000000e+000	0.000000e+000	0.000000e+000
360805	4.270464e-001	4.602247e-001	-1.333528e-003	1.451739e-002	0.000000e+000	0.000000e+000	0.000000e+000	0.000000e+000
365760	4.222527e-001	4.592783e-001	-1.398313e-003	1.468631e-002	0.000000e+000	0.000000e+000	0.000000e+000	0.000000e+000
370715	4.177307e-001	4.585714e-001	-1.295780e-003	1.480102e-002	0.000000e+000	0.000000e+000	0.000000e+000	0.000000e+000
375670	4.131955e-001	4.581753e-001	-1.361842e-003	1.507766e-002	0.000000e+000	0.000000e+000	0.000000e+000	0.000000e+000
380625	4.087244e-001	4.580029e-001	-1.419448e-003	1.523072e-002	0.000000e+000	0.000000e+000	0.000000e+000	0.000000e+000
385580	4.042701e-001	4.580335e-001	-1.468910e-003	1.539029e-002	0.000000e+000	0.000000e+000	0.000000e+000	0.000000e+000
390535	3.999246e-001	4.583256e-001	-1.458027e-003	1.560177e-002	0.000000e+000	0.000000e+000	0.000000e+000	0.000000e+000
395490	3.956956e-001	4.586909e-001	-1.542407e-003	1.567930e-002	0.000000e+000	0.000000e+000	0.000000e+000	0.000000e+000
400445	3.914535e-001	4.593044e-001	-1.515725e-003	1.583244e-002	0.000000e+000	0.000000e+000	0.000000e+000	0.000000e+000
405400	3.874055e-001	4.599998e-001	-1.558842e-003	1.611887e-002	0.000000e+000	0.000000e+000	0.000000e+000	0.000000e+000
410355	3.832273e-001	4.609594e-001	-1.629199e-003	1.613733e-002	0.000000e+000	0.000000e+000	0.000000e+000	0.000000e+000
415310	3.792836e-001	4.620598e-001	-1.587351e-003	1.634668e-002	0.000000e+000	0.000000e+000	0.000000e+000	0.000000e+000
420265	3.753600e-001	4.632521e-001	-1.697701e-003	1.649157e-002	0.000000e+000	0.000000e+000	0.000000e+000	0.000000e+000
425220	3.715578e-001	4.645305e-001	-1.684079e-003	1.671347e-002	0.000000e+000	0.000000e+000	0.000000e+000	0.000000e+000
430175	3.677048e-001	4.659317e-001	-1.749508e-003	1.684637e-002	0.000000e+000	0.000000e+000	0.000000e+000	0.000000e+000
435130	3.641636e-001	4.674801e-001	-1.847118e-003	1.701388e-002	0.000000e+000	0.000000e+000	0.000000e+000	0.000000e+000
440085	3.603967e-001	4.690554e-001	-1.799223e-003	1.726142e-002	0.000000e+000	0.000000e+000	0.000000e+000	0.000000e+000
445040	3.568434e-001	4.708241e-001	-1.888303e-003	1.743670e-002	0.000000e+000	0.000000e+000	0.000000e+000	0.000000e+000
449995	3.533993e-001	4.726219e-001	-1.989322e-003	1.762607e-002	0.000000e+000	0.000000e+000	0.000000e+000	0.000000e+000
454950	3.500447e-001	4.744983e-001	-1.962985e-003	1.779046e-002	0.000000e+000	0.000000e+000	0.000000e+000	0.000000e+000
459905	3.466310e-001	4.765127e-001	-2.076555e-003	1.790215e-002	0.000000e+000	0.000000e+000	0.000000e+000	0.000000e+000
464860	3.433724e-001	4.784526e-001	-2.082328e-003	1.814911e-002	0.000000e+000	0.000000e+000	0.000000e+000	0.000000e+000
469815	3.401654e-001	4.805994e-001	-2.151420e-003	1.829427e-002	0.000000e+000	0.000000e+000	0.000000e+000	0.000000e+000
474770	3.370223e-001	4.827715e-001	-2.181463e-003	1.850126e-002	0.000000e+000	0.000000e+000	0.000000e+000	0.000000e+000
479725	3.339540e-001	4.849848e-001	-2.274349e-003	1.864683e-002	0.000000e+000	0.000000e+000	0.000000e+000	0.000000e+000
484680	3.309113e-001	4.871945e-001	-2.268140e-003	1.885372e-002	0.000000e+000	0.000000e+000	0.000000e+000	0.000000e+000
489635	3.278973e-001	4.894674e-001	-2.397497e-003	1.905040e-002	0.000000e+000	0.000000e+000	0.000000e+000	0.000000e+000
494590	3.250736e-001	4.916149e-001	-2.403098e-003	1.925270e-002	0.000000e+000	0.000000e+000	0.000000e+000	0.000000e+000
499545	3.222960e-001	4.939527e-001	-2.432079e-003	1.946124e-002	0.000000e+000	0.000000e+000	0.000000e+000	0.000000e+000
504500	3.195262e-001	4.963445e-001	-2.417172e-003	1.960177e-002	0.000000e+000	0.000000e+000	0.000000e+000	0.000000e+000
509455	3.167152e-001	4.987176e-001	-2.561090e-003	1.985803e-002	0.000000e+000	0.000000e+000	0.000000e+000	0.000000e+000
514410	3.141253e-001	5.011421e-001	-2.564105e-003	1.995899e-002	0.000000e+000	0.000000e+000	0.000000e+000	0.000000e+000
519365	3.114625e-001	5.035865e-001	-2.641612e-003	2.016447e-002	0.000000e+000	0.000000e+000	0.000000e+000	0.000000e+000
524320	3.088706e-001	5.061253e-001	-2.722979e-003	2.039590e-002	0.000000e+000	0.000000e+000	0.000000e+000	0.000000e+000
529275	3.062824e-001	5.084182e-001	-2.729521e-003	2.055385e-002	0.000000e+000	0.000000e+000	0.000000e+000	0.000000e+000
534230	3.037663e-001	5.109611e-001	-2.800036e-003	2.078731e-002	0.000000e+000	0.000000e+000	0.000000e+000	0.000000e+000
539185	3.013111e-001	5.134069e-001	-2.855868e-003	2.089985e-002	0.000000e+000	0.000000e+000	0.000000e+000	0.000000e+000
544140	2.987959e-001	5.158353e-001	-2.929351e-003	2.121403e-002	0.000000e+000	0.000000e+000	0.000000e+000	0.000000e+000
549095	2.964728e-001	5.182782e-001	-3.005799e-003	2.130783e-002	0.000000e+000	0.000000e+000	0.000000e+000	0.000000e+000
554050	2.940537e-001	5.207697e-001	-3.076597e-003	2.156684e-002	0.000000e+000	0.000000e+000	0.000000e+000	0.000000e+000
559005	2.917290e-001	5.231693e-001	-3.034718e-003	2.175139e-002	0.000000e+000	0.000000e+000	0.000000e+000	0.000000e+000
563960	2.894391e-001	5.256840e-001	-3.157755e-003	2.193678e-002	0.000000e+000	0.000000e+000	0.000000e+000	0.000000e+000
568915	2.870649e-001	5.280226e-001	-3.205513e-003	2.213392e-002	0.000000e+000	0.000000e+000	0.000000e+000	0.000000e+000
573870	2.848633e-001	5.305374e-001	-3.254219e-003	2.236670e-002	0.000000e+000	0.000000e+000	0.000000e+000	0.000000e+000
578825	2.825838e-001	5.329293e-001	-3.391203e-003	2.257523e-002	0.000000e+000	0.000000e+000	0.000000e+000	0.000000e+000
583780	2.802863e-001	5.353549e-001	-3.413974e-003	2.271711e-002	0.000000e+000	0.000000e+000	0.000000e+000	0.000000e+000
588735	2.779923e-001	5.377236e-001	-3.385332e-003	2.298630e-002	0.000000e+000	0.000000e+000	0.000000e+000	0.000000e+000
593690	2.759637e-001	5.400830e-001	-3.480952e-003	2.319561e-002	0.000000e+000	0.000000e+000	0.000000e+000	0.000000e+000
598645	2.737199e-001	5.425330e-001	-3.509269e-003	2.335434e-002	0.000000e+000	0.000000e+000	0.000000e+000	0.000000e+000
603600	2.715432e-001	5.449796e-001	-3.623586e-003	2.354612e-002	0.000000e+000	0.000000e+000	0.000000e+000	0.000000e+000
608555	2.694207e-001	5.472316e-001	-3.646842e-003	2.369546e-002	0.000000e+000	0.000000e+000	0.000000e+000	0.000000e+000
613510	2.674016e-001	5.495549e-001	-3.691143e-003	2.399898e-002	0.000000e+000	0.000000e+000	0.000000e+000	0.000000e+000
618465	2.651242e-001	5.519305e-001	-3.750460e-003	2.415183e-002	0.000000e+000	0.000000e+000	0.000000e+000	0.000000e+000
623420	2.630119e-001	5.542104e-001	-3.848522e-003	2.436511e-002	0.000000e+000	0.000000e+000	0.000000e+000	0.000000e+000
628375	2.608308e-001	5.566091e-001	-3.856712e-003	2.460694e-002	0.000000e+000	0.000000e+000	0.000000e+000	0.000000e+000
633330	2.587627e-001	5.587734e-001	-3.834412e-003	2.484540e-002	0.000000e+000	0.000000e+000	0.000000e+000	0.000000e+000
638285	2.566863e-001	5.610684e-001	-3.950358e-003	2.501720e-002	0.000000e+000	0.000000e+000	0.000000e+000	0.000000e+000
643240	2.544949e-001	5.632829e-001	-3.997588e-003	2.521292e-002	0.000000e+000	0.000000e+000	0.000000e+000	0.000000e+000
648195	2.523497e-001	5.656263e-001	-4.059228e-003	2.539048e-002	0.000000e+000	0.000000e+000	0.000000e+000	0.000000e+000
653150	2.502364e-001	5.677857e-001	-4.089306e-003	2.558913e-002	0.000000e+000	0.000000e+000	0.000000e+000	0.000000e+000
658105	2.481636e-001	5.700773e-001	-4.133734e-003	2.585131e-002	0.000000e+000	0.000000e+000	0.000000e+000	0.000000e+000
663060	2.460526e-001	5.722221e-001	-4.209171e-003	2.598904e-002	0.000000e+000	0.000000e+000	0.000000e+000	0.000000e+000
668015	2.439815e-001	5.743901e-001	-4.306667e-003	2.620078e-002	0.000000e+000	0.000000e+000	0.000000e+000	0.000000e+000
672970	2.417607e-001	5.766040e-001	-4.320191e-003	2.639010e-002	0.000000e+000	0.000000e+000	0.000000e+000	0.000000e+000
677925	2.396419e-001	5.786792e-001	-4.416933e-003	2.665384e-002	0.000000e+000	0.000000e+000	0.000000e+000	0.000000e+000
682880	2.375107e-001	5.808914e-001	-4.481097e-003	2.682962e-002	0.000000e+000	0.000000e+000	0.000000e+000	0.000000e+000
687835	2.354276e-001	5.829305e-001	-4.500362e-003	2.705948e-002	0.000000e+000	0.000000e+000	0.000000e+000	0.000000e+000
692790	2.332524e-001	5.849925e-001	-4.547988e-003	2.730349e-002	0.000000e+000	0.000000e+000	0.000000e+000	0.000000e+000
697745	2.311290e-001	5.870334e-001	-4.524131e-003	2.747087e-002	0.000000e+000	0.000000e+000	0.000000e+000	0.000000e+000
702700	2.289887e-001	5.890916e-001	-4.627437e-003	2.774511e-002	0.000000e+000	0.000000e+000	0.000000e+000	0.000000e+000
707655	2.268038e-001	5.911472e-001	-4.651984e-003	2.793921e-002	0.000000e+000	0.000000e+000	0.000000e+000	0.000000e+000
712610	2.246156e-001	5.931085e-001	-4.771294e-003	2.814581e-002	0.000000e+000	0.000000e+000	0.000000e+000	0.000000e+000
717565	2.225770e-001	5.952221e-001	-4.821020e-003	2.836016e-002	0.000000e+000	0.000000e+000	0.000000e+000	0.000000e+000
722520	2.202919e-001	5.968977e-001	-4.925213e-003	2.867297e-002	0.000000e+000	0.000000e+000	0.000000e+000	0.000000e+000
727475	2.181423e-001	5.991530e-001	-4.864696e-003	2.876917e-002	0.000000e+000	0.000000e+000	0.000000e+000	0.000000e+000
732430	2.160004e-001	6.010738e-001	-4.966290e-003	2.896165e-002	0.000000e+000	0.000000e+000	0.000000e+000	0.000000e+000
737385	2.137507e-001	6.029690e-001	-5.011264e-003	2.917317e-002	0.000000e+000	0.000000e+000	0.000000e+000	0.000000e+000
742340	2.115580e-001	6.049154e-001	-5.057123e-003	2.937752e-002	0.000000e+000	0.000000e+000	0.000000e+000	0.000000e+000
747295	2.093579e-001	6.069538e-001	-5.102941e-003	2.956395e-002	0.000000e+000	0.000000e+000	0.000000e+000	0.000000e+000
752250	2.070191e-001	6.089031e-001	-5.210515e-003	2.982450e-002	0.000000e+000	0.000000e+000	0.000000e+000	0.000000e+000
757205	2.047442e-001	6.108090e-001	-5.265899e-003	3.001715e-002	0.000000e+000	0.000000e+000	0.000000e+000	0.000000e+000
762160	2.026140e-001	6.125346e-001	-5.319457e-003	3.019686e-002	0.000000e+000	0.000000e+000	0.000000e+000	0.000000e+000
767115	2.002384e-001	6.145107e-001	-5.330960e-003	3.044513e-002	0.000000e+000	0.000000e+000	0.000000e+000	0.000000e+000
772070	1.979161e-001	6.162953e-001	-5.396108e-003	3.063559e-002	0.000000e+000	0.000000e+000	0.000000e+000	0.000000e+000
777025	1.957266e-001	6.180999e-001	-5.432317e-003	3.081468e-002	0.000000e+000	0.000000e+000	0.000000e+000	0.000000e+000
781980	1.933493e-001	6.201587e-001	-5.532490e-003	3.112880e-002	0.000000e+000	0.000000e+000	0.000000e+000	0.000000e+000
786935	1.910802e-001	6.218271e-001	-5.584948e-003	3.126911e-002	0.000000e+000	0.000000e+000	0.000000e+000	0.000000e+000
791890	1.888084e-001	6.236554e-001	-5.658656e-003	3.152352e-002	0.000000e+000	0.000000e+000	0.000000e+000	0.000000e+000
796845	1.864427e-001	6.254725e-001	-5.705788e-003	3.168662e-002	0.000000e+000	0.000000e+000	0.000000e+000	0.000000e+000
801800	1.840922e-001	6.271555e-001	-5.703446e-003	3.190142e-002	0.000000e+000	0.000000e+000	0.000000e+000	0.000000e+000
806755	1.816589e-001	6.289704e-001	-5.766918e-003	3.215743e-002	0.000000e+000	0.000000e+000	0.000000e+000	0.000000e+000
811710	1.792887e-001	6.307519e-001	-5.821606e-003	3.235225e-002	0.000000e+000	0.000000e+000	0.000000e+000	0.000000e+000
816665	1.769736e-001	6.325133e-001	-5.903116e-003	3.251085e-002	0.000000e+000	0.000000e+000	0.000000e+000	0.000000e+000
821620	1.746407e-001	6.342508e-001	-5.986762e-003	3.273687e-002	0.000000e+000	0.000000e+000	0.000000e+000	0.000000e+000
