!Agilent Technologies,E5071C,MY46109397,A.09.54
!Date: Mon Jan 01 02:07:42 2001
!Data & Calibration Information:
!Freq	S11:SOLT1(ON)	S21:RESPT(ON)	S12:NONE(--)	S22:NONE(--)
# Hz S RI R 50
9000	9.682365e-001	2.979670e-001	8.035583e-001	5.558503e-001	0.000000e+000	0.000000e+000	0.000000e+000	0.000000e+000
13955	9.621081e-001	4.136403e-001	-1.310566e-001	-1.220125e-002	0.000000e+000	0.000000e+000	0.000000e+000	0.000000e+000
18910	9.108774e-001	4.959998e-001	-3.797222e-001	6.377827e-002	0.000000e+000	0.000000e+000	0.000000e+000	0.000000e+000
23865	8.501699e-001	5.640983e-001	-8.003336e-001	3.458517e-001	0.000000e+000	0.000000e+000	0.000000e+000	0.000000e+000
28820	8.283143e-001	5.175334e-001	-1.314404e+000	1.529773e+000	0.000000e+000	0.000000e+000	0.000000e+000	0.000000e+000
33775	2.259517e-001	-4.352883e-002	2.808763e-001	3.270564e+000	0.000000e+000	0.000000e+000	0.000000e+000	0.000000e+000
38730	1.069317e-001	1.025750e+000	2.192035e+000	1.902282e+000	0.000000e+000	0.000000e+000	0.000000e+000	0.000000e+000
43685	1.932683e-001	9.914153e-001	1.824658e+000	9.161793e-001	0.000000e+000	0.000000e+000	0.000000e+000	0.000000e+000
48640	1.457575e-001	1.011698e+000	1.624713e+000	5.861984e-001	0.000000e+000	0.000000e+000	0.000000e+000	0.000000e+000
53595	8.813794e-002	1.026395e+000	1.471897e+000	4.053595e-001	0.000000e+000	0.000000e+000	0.000000e+000	0.000000e+000
58550	2.433020e-002	1.033727e+000	1.363907e+000	3.049181e-001	0.000000e+000	0.000000e+000	0.000000e+000	0.000000e+000
63505	-4.033153e-002	1.035727e+000	1.286975e+000	2.431782e-001	0.000000e+000	0.000000e+000	0.000000e+000	0.000000e+000
68460	-1.030065e-001	1.033873e+000	1.232061e+000	2.017858e-001	0.000000e+000	0.000000e+000	0.000000e+000	0.000000e+000
73415	-1.615043e-001	1.027075e+000	1.189890e+000	1.719156e-001	0.000000e+000	0.000000e+000	0.000000e+000	0.000000e+000
78370	-2.162976e-001	1.018174e+000	1.158043e+000	1.496973e-001	0.000000e+000	0.000000e+000	0.000000e+000	0.000000e+000
83325	-2.668275e-001	1.007244e+000	1.132621e+000	1.315366e-001	0.000000e+000	0.000000e+000	0.000000e+000	0.000000e+000
88280	-3.132065e-001	9.946069e-001	1.112292e+000	1.167595e-001	0.000000e+000	0.000000e+000	0.000000e+000	0.000000e+000
93235	-3.554047e-001	9.807870e-001	1.095496e+000	1.040221e-001	0.000000e+000	0.000000e+000	0.000000e+000	0.000000e+000
98190	-3.942553e-001	9.664078e-001	1.081332e+000	9.346763e-002	0.000000e+000	0.000000e+000	0.000000e+000	0.000000e+000
103145	-4.298462e-001	9.513587e-001	1.069625e+000	8.441917e-002	0.000000e+000	0.000000e+000	0.000000e+000	0.000000e+000
108100	-4.621906e-001	9.360542e-001	1.059815e+000	7.645177e-002	0.000000e+000	0.000000e+000	0.000000e+000	0.000000e+000
113055	-4.917715e-001	9.207531e-001	1.050772e+000	6.939680e-002	0.000000e+000	0.000000e+000	0.000000e+000	0.000000e+000
118010	-5.187852e-001	9.054406e-001	1.043737e+000	6.342586e-002	0.000000e+000	0.000000e+000	0.000000e+000	0.000000e+000
122965	-5.432459e-001	8.907560e-001	1.037305e+000	5.740387e-002	0.000000e+000	0.000000e+000	0.000000e+000	0.000000e+000
127920	-5.656801e-001	8.760687e-001	1.031844e+000	5.230320e-002	0.000000e+000	0.000000e+000	0.000000e+000	0.000000e+000
132875	-5.863311e-001	8.618986e-001	1.026733e+000	4.690694e-002	0.000000e+000	0.000000e+000	0.000000e+000	0.000000e+000
137830	-6.052469e-001	8.480760e-001	1.022848e+000	4.263304e-002	0.000000e+000	0.000000e+000	0.000000e+000	0.000000e+000
142785	-6.223186e-001	8.347059e-001	1.018671e+000	3.848804e-002	0.000000e+000	0.000000e+000	0.000000e+000	0.000000e+000
147740	-6.381962e-001	8.218514e-001	1.015380e+000	3.448647e-002	0.000000e+000	0.000000e+000	0.000000e+000	0.000000e+000
152695	-6.526998e-001	8.094329e-001	1.012319e+000	3.050381e-002	0.000000e+000	0.000000e+000	0.000000e+000	0.000000e+000
157650	-6.660103e-001	7.974785e-001	1.009592e+000	2.698926e-002	0.000000e+000	0.000000e+000	0.000000e+000	0.000000e+000
162605	-6.782343e-001	7.859848e-001	1.007058e+000	2.328390e-002	0.000000e+000	0.000000e+000	0.000000e+000	0.000000e+000
167560	-6.894678e-001	7.750046e-001	1.004854e+000	2.003765e-002	0.000000e+000	0.000000e+000	0.000000e+000	0.000000e+000
172515	-6.998226e-001	7.645476e-001	1.002887e+000	1.667868e-002	0.000000e+000	0.000000e+000	0.000000e+000	0.000000e+000
177470	-7.094095e-001	7.544674e-001	1.000558e+000	1.363073e-002	0.000000e+000	0.000000e+000	0.000000e+000	0.000000e+000
182425	-7.182082e-001	7.447956e-001	9.988951e-001	1.074970e-002	0.000000e+000	0.000000e+000	0.000000e+000	0.000000e+000
187380	-7.261011e-001	7.354634e-001	9.973373e-001	8.138041e-003	0.000000e+000	0.000000e+000	0.000000e+000	0.000000e+000
192335	-7.335731e-001	7.266944e-001	9.957645e-001	5.426119e-003	0.000000e+000	0.000000e+000	0.000000e+000	0.000000e+000
197290	-7.404935e-001	7.182809e-001	9.944455e-001	2.429796e-003	0.000000e+000	0.000000e+000	0.000000e+000	0.000000e+000
202245	-7.467791e-001	7.101979e-001	9.931713e-001	-1.121550e-004	0.000000e+000	0.000000e+000	0.000000e+000	0.000000e+000
207200	-7.525806e-001	7.023632e-001	9.922976e-001	-2.840476e-003	0.000000e+000	0.000000e+000	0.000000e+000	0.000000e+000
212155	-7.580383e-001	6.951239e-001	9.908592e-001	-5.247594e-003	0.000000e+000	0.000000e+000	0.000000e+000	0.000000e+000
217110	-7.628732e-001	6.880535e-001	9.898904e-001	-7.601210e-003	0.000000e+000	0.000000e+000	0.000000e+000	0.000000e+000
222065	-7.675151e-001	6.812455e-001	9.887911e-001	-1.022391e-002	0.000000e+000	0.000000e+000	0.000000e+000	0.000000e+000
227020	-7.718451e-001	6.748960e-001	9.880089e-001	-1.265954e-002	0.000000e+000	0.000000e+000	0.000000e+000	0.000000e+000
231975	-7.756625e-001	6.686912e-001	9.870899e-001	-1.498071e-002	0.000000e+000	0.000000e+000	0.000000e+000	0.000000e+000
236930	-7.791619e-001	6.628929e-001	9.860726e-001	-1.727173e-002	0.000000e+000	0.000000e+000	0.000000e+000	0.000000e+000
241885	-7.824784e-001	6.572211e-001	9.854884e-001	-1.949971e-002	0.000000e+000	0.000000e+000	0.000000e+000	0.000000e+000
246840	-7.853872e-001	6.518451e-001	9.845014e-001	-2.181900e-002	0.000000e+000	0.000000e+000	0.000000e+000	0.000000e+000
251795	-7.881459e-001	6.466479e-001	9.835690e-001	-2.404429e-002	0.000000e+000	0.000000e+000	0.000000e+000	0.000000e+000
256750	-7.907235e-001	6.417412e-001	9.830471e-001	-2.637523e-002	0.000000e+000	0.000000e+000	0.000000e+000	0.000000e+000
261705	-7.930109e-001	6.370105e-001	9.821760e-001	-2.842128e-002	0.000000e+000	0.000000e+000	0.000000e+000	0.000000e+000
266660	-7.952310e-001	6.324602e-001	9.816691e-001	-3.076138e-002	0.000000e+000	0.000000e+000	0.000000e+000	0.000000e+000
271615	-7.971461e-001	6.281408e-001	9.809220e-001	-3.289752e-002	0.000000e+000	0.000000e+000	0.000000e+000	0.000000e+000
276570	-7.989044e-001	6.239915e-001	9.801953e-001	-3.489416e-002	0.000000e+000	0.000000e+000	0.000000e+000	0.000000e+000
281525	-8.004897e-001	6.199007e-001	9.795482e-001	-3.701066e-002	0.000000e+000	0.000000e+000	0.000000e+000	0.000000e+000
286480	-8.018191e-001	6.161323e-001	9.788313e-001	-3.926032e-002	0.000000e+000	0.000000e+000	0.000000e+000	0.000000e+000
291435	-8.031125e-001	6.124566e-001	9.781483e-001	-4.132871e-002	0.000000e+000	0.000000e+000	0.000000e+000	0.000000e+000
296390	-8.043201e-001	6.089511e-001	9.774434e-001	-4.332745e-002	0.000000e+000	0.000000e+000	0.000000e+000	0.000000e+000
301345	-8.053165e-001	6.055063e-001	9.767999e-001	-4.537690e-002	0.000000e+000	0.000000e+000	0.000000e+000	0.000000e+000
306300	-8.062553e-001	6.023414e-001	9.761844e-001	-4.754107e-002	0.000000e+000	0.000000e+000	0.000000e+000	0.000000e+000
311255	-8.070714e-001	5.991346e-001	9.754450e-001	-4.932321e-002	0.000000e+000	0.000000e+000	0.000000e+000	0.000000e+000
316210	-8.077150e-001	5.961504e-001	9.747898e-001	-5.141107e-002	0.000000e+000	0.000000e+000	0.000000e+000	0.000000e+000
321165	-8.084016e-001	5.932604e-001	9.740729e-001	-5.327700e-002	0.000000e+000	0.000000e+000	0.000000e+000	0.000000e+000
326120	-8.088862e-001	5.904767e-001	9.734374e-001	-5.531027e-002	0.000000e+000	0.000000e+000	0.000000e+000	0.000000e+000
331075	-8.093068e-001	5.877591e-001	9.727277e-001	-5.714042e-002	0.000000e+000	0.000000e+000	0.000000e+000	0.000000e+000
336030	-8.096384e-001	5.851710e-001	9.718001e-001	-5.921923e-002	0.000000e+000	0.000000e+000	0.000000e+000	0.000000e+000
340985	-8.099791e-001	5.826441e-001	9.712406e-001	-6.127752e-002	0.000000e+000	0.000000e+000	0.000000e+000	0.000000e+000
345940	-8.102647e-001	5.802908e-001	9.704345e-001	-6.307693e-002	0.000000e+000	0.000000e+000	0.000000e+000	0.000000e+000
350895	-8.104019e-001	5.780809e-001	9.694869e-001	-6.499422e-002	0.000000e+000	0.000000e+000	0.000000e+000	0.000000e+000
355850	-8.105476e-001	5.758481e-001	9.689485e-001	-6.681453e-002	0.000000e+000	0.000000e+000	0.000000e+000	0.000000e+000
360805	-8.106506e-001	5.737269e-001	9.679890e-001	-6.856800e-002	0.000000e+000	0.000000e+000	0.000000e+000	0.000000e+000
365760	-8.107202e-001	5.716194e-001	9.672485e-001	-7.045008e-002	0.000000e+000	0.000000e+000	0.000000e+000	0.000000e+000
370715	-8.106267e-001	5.696770e-001	9.665101e-001	-7.205292e-002	0.000000e+000	0.000000e+000	0.000000e+000	0.000000e+000
375670	-8.105134e-001	5.677341e-001	9.655480e-001	-7.403048e-002	0.000000e+000	0.000000e+000	0.000000e+000	0.000000e+000
380625	-8.103889e-001	5.659476e-001	9.646147e-001	-7.566681e-002	0.000000e+000	0.000000e+000	0.000000e+000	0.000000e+000
385580	-8.103105e-001	5.641525e-001	9.639464e-001	-7.746380e-002	0.000000e+000	0.000000e+000	0.000000e+000	0.000000e+000
390535	-8.101464e-001	5.624245e-001	9.631908e-001	-7.908636e-002	0.000000e+000	0.000000e+000	0.000000e+000	0.000000e+000
395490	-8.099898e-001	5.608072e-001	9.621835e-001	-8.079251e-002	0.000000e+000	0.000000e+000	0.000000e+000	0.000000e+000
400445	-8.097711e-001	5.591599e-001	9.613913e-001	-8.254842e-002	0.000000e+000	0.000000e+000	0.000000e+000	0.000000e+000
405400	-8.095088e-001	5.575759e-001	9.606792e-001	-8.408549e-002	0.000000e+000	0.000000e+000	0.000000e+000	0.000000e+000
410355	-8.092237e-001	5.562058e-001	9.596276e-001	-8.571592e-002	0.000000e+000	0.000000e+000	0.000000e+000	0.000000e+000
415310	-8.088978e-001	5.547714e-001	9.586456e-001	-8.732155e-002	0.000000e+000	0.000000e+000	0.000000e+000	0.000000e+000
420265	-8.086384e-001	5.533896e-001	9.578134e-001	-8.885052e-002	0.000000e+000	0.000000e+000	0.000000e+000	0.000000e+000
425220	-8.082564e-001	5.521189e-001	9.569124e-001	-9.030674e-002	0.000000e+000	0.000000e+000	0.000000e+000	0.000000e+000
430175	-8.078701e-001	5.508628e-001	9.562038e-001	-9.198060e-002	0.000000e+000	0.000000e+000	0.000000e+000	0.000000e+000
435130	-8.074992e-001	5.497395e-001	9.552376e-001	-9.348539e-002	0.000000e+000	0.000000e+000	0.000000e+000	0.000000e+000
440085	-8.071220e-001	5.484410e-001	9.543344e-001	-9.491069e-002	0.000000e+000	0.000000e+000	0.000000e+000	0.000000e+000
445040	-8.067288e-001	5.473484e-001	9.533490e-001	-9.634845e-002	0.000000e+000	0.000000e+000	0.000000e+000	0.000000e+000
449995	-8.063019e-001	5.462713e-001	9.524335e-001	-9.777701e-002	0.000000e+000	0.000000e+000	0.000000e+000	0.000000e+000
454950	-8.058879e-001	5.453532e-001	9.515197e-001	-9.921234e-002	0.000000e+000	0.000000e+000	0.000000e+000	0.000000e+000
459905	-8.054956e-001	5.442757e-001	9.506227e-001	-1.005718e-001	0.000000e+000	0.000000e+000	0.000000e+000	0.000000e+000
464860	-8.049519e-001	5.433585e-001	9.496565e-001	-1.019069e-001	0.000000e+000	0.000000e+000	0.000000e+000	0.000000e+000
469815	-8.045405e-001	5.424307e-001	9.487578e-001	-1.033669e-001	0.000000e+000	0.000000e+000	0.000000e+000	0.000000e+000
474770	-8.040563e-001	5.415809e-001	9.479084e-001	-1.046601e-001	0.000000e+000	0.000000e+000	0.000000e+000	0.000000e+000
479725	-8.035855e-001	5.406976e-001	9.468622e-001	-1.060273e-001	0.000000e+000	0.000000e+000	0.000000e+000	0.000000e+000
484680	-8.030966e-001	5.399437e-001	9.460008e-001	-1.072645e-001	0.000000e+000	0.000000e+000	0.000000e+000	0.000000e+000
489635	-8.026965e-001	5.390842e-001	9.449684e-001	-1.084811e-001	0.000000e+000	0.000000e+000	0.000000e+000	0.000000e+000
494590	-8.020295e-001	5.383080e-001	9.442093e-001	-1.098583e-001	0.000000e+000	0.000000e+000	0.000000e+000	0.000000e+000
499545	-8.015798e-001	5.377779e-001	9.432918e-001	-1.109424e-001	0.000000e+000	0.000000e+000	0.000000e+000	0.000000e+000
504500	-8.010676e-001	5.370458e-001	9.422730e-001	-1.122603e-001	0.000000e+000	0.000000e+000	0.000000e+000	0.000000e+000
509455	-8.006187e-001	5.363735e-001	9.413300e-001	-1.134881e-001	0.000000e+000	0.000000e+000	0.000000e+000	0.000000e+000
514410	-8.000255e-001	5.358118e-001	9.405729e-001	-1.145317e-001	0.000000e+000	0.000000e+000	0.000000e+000	0.000000e+000
519365	-7.995318e-001	5.352819e-001	9.395176e-001	-1.158437e-001	0.000000e+000	0.000000e+000	0.000000e+000	0.000000e+000
524320	-7.990311e-001	5.347547e-001	9.386452e-001	-1.169545e-001	0.000000e+000	0.000000e+000	0.000000e+000	0.000000e+000
529275	-7.984593e-001	5.342136e-001	9.377937e-001	-1.181094e-001	0.000000e+000	0.000000e+000	0.000000e+000	0.000000e+000
534230	-7.979417e-001	5.337457e-001	9.368311e-001	-1.192582e-001	0.000000e+000	0.000000e+000	0.000000e+000	0.000000e+000
539185	-7.974331e-001	5.333123e-001	9.358372e-001	-1.204289e-001	0.000000e+000	0.000000e+000	0.000000e+000	0.000000e+000
544140	-7.968459e-001	5.327500e-001	9.350592e-001	-1.216075e-001	0.000000e+000	0.000000e+000	0.000000e+000	0.000000e+000
549095	-7.963086e-001	5.323931e-001	9.341437e-001	-1.225804e-001	0.000000e+000	0.000000e+000	0.000000e+000	0.000000e+000
554050	-7.958139e-001	5.319812e-001	9.332562e-001	-1.237532e-001	0.000000e+000	0.000000e+000	0.000000e+000	0.000000e+000
559005	-7.951875e-001	5.316166e-001	9.323088e-001	-1.248452e-001	0.000000e+000	0.000000e+000	0.000000e+000	0.000000e+000
563960	-7.946778e-001	5.312882e-001	9.315078e-001	-1.258154e-001	0.000000e+000	0.000000e+000	0.000000e+000	0.000000e+000
568915	-7.941049e-001	5.309270e-001	9.305866e-001	-1.269029e-001	0.000000e+000	0.000000e+000	0.000000e+000	0.000000e+000
573870	-7.935601e-001	5.306724e-001	9.297211e-001	-1.279831e-001	0.000000e+000	0.000000e+000	0.000000e+000	0.000000e+000
578825	-7.929598e-001	5.303535e-001	9.289174e-001	-1.290945e-001	0.000000e+000	0.000000e+000	0.000000e+000	0.000000e+000
583780	-7.924054e-001	5.299760e-001	9.279412e-001	-1.301072e-001	0.000000e+000	0.000000e+000	0.000000e+000	0.000000e+000
588735	-7.918398e-001	5.296656e-001	9.270355e-001	-1.310714e-001	0.000000e+000	0.000000e+000	0.000000e+000	0.000000e+000
593690	-7.912548e-001	5.295647e-001	9.262333e-001	-1.320583e-001	0.000000e+000	0.000000e+000	0.000000e+000	0.000000e+000
598645	-7.907132e-001	5.292815e-001	9.252854e-001	-1.330755e-001	0.000000e+000	0.000000e+000	0.000000e+000	0.000000e+000
603600	-7.902270e-001	5.291061e-001	9.244811e-001	-1.339299e-001	0.000000e+000	0.000000e+000	0.000000e+000	0.000000e+000
608555	-7.896102e-001	5.289175e-001	9.236229e-001	-1.351296e-001	0.000000e+000	0.000000e+000	0.000000e+000	0.000000e+000
613510	-7.890147e-001	5.288410e-001	9.227462e-001	-1.360046e-001	0.000000e+000	0.000000e+000	0.000000e+000	0.000000e+000
618465	-7.884943e-001	5.285762e-001	9.219043e-001	-1.369969e-001	0.000000e+000	0.000000e+000	0.000000e+000	0.000000e+000
623420	-7.878654e-001	5.284897e-001	9.210652e-001	-1.380010e-001	0.000000e+000	0.000000e+000	0.000000e+000	0.000000e+000
628375	-7.873560e-001	5.283841e-001	9.203012e-001	-1.388487e-001	0.000000e+000	0.000000e+000	0.000000e+000	0.000000e+000
633330	-7.867233e-001	5.283081e-001	9.193334e-001	-1.398271e-001	0.000000e+000	0.000000e+000	0.000000e+000	0.000000e+000
638285	-7.861808e-001	5.281907e-001	9.184873e-001	-1.407153e-001	0.000000e+000	0.000000e+000	0.000000e+000	0.000000e+000
643240	-7.856332e-001	5.280281e-001	9.175216e-001	-1.417470e-001	0.000000e+000	0.000000e+000	0.000000e+000	0.000000e+000
648195	-7.850808e-001	5.279499e-001	9.167136e-001	-1.425750e-001	0.000000e+000	0.000000e+000	0.000000e+000	0.000000e+000
653150	-7.844821e-001	5.279064e-001	9.158683e-001	-1.435722e-001	0.000000e+000	0.000000e+000	0.000000e+000	0.000000e+000
658105	-7.839248e-001	5.278386e-001	9.149835e-001	-1.444254e-001	0.000000e+000	0.000000e+000	0.000000e+000	0.000000e+000
663060	-7.833394e-001	5.277643e-001	9.141444e-001	-1.453540e-001	0.000000e+000	0.000000e+000	0.000000e+000	0.000000e+000
668015	-7.827760e-001	5.277690e-001	9.132809e-001	-1.463017e-001	0.000000e+000	0.000000e+000	0.000000e+000	0.000000e+000
672970	-7.822447e-001	5.275918e-001	9.125497e-001	-1.471721e-001	0.000000e+000	0.000000e+000	0.000000e+000	0.000000e+000
677925	-7.816705e-001	5.276088e-001	9.116646e-001	-1.480247e-001	0.000000e+000	0.000000e+000	0.000000e+000	0.000000e+000
682880	-7.811883e-001	5.275610e-001	9.107886e-001	-1.488563e-001	0.000000e+000	0.000000e+000	0.000000e+000	0.000000e+000
687835	-7.805245e-001	5.275867e-001	9.098820e-001	-1.498058e-001	0.000000e+000	0.000000e+000	0.000000e+000	0.000000e+000
692790	-7.799894e-001	5.276702e-001	9.090533e-001	-1.506408e-001	0.000000e+000	0.000000e+000	0.000000e+000	0.000000e+000
697745	-7.794371e-001	5.276426e-001	9.081355e-001	-1.514757e-001	0.000000e+000	0.000000e+000	0.000000e+000	0.000000e+000
702700	-7.789336e-001	5.276284e-001	9.073050e-001	-1.523028e-001	0.000000e+000	0.000000e+000	0.000000e+000	0.000000e+000
707655	-7.783634e-001	5.276075e-001	9.065167e-001	-1.531172e-001	0.000000e+000	0.000000e+000	0.000000e+000	0.000000e+000
712610	-7.777817e-001	5.275653e-001	9.056310e-001	-1.539697e-001	0.000000e+000	0.000000e+000	0.000000e+000	0.000000e+000
717565	-7.773094e-001	5.277026e-001	9.048130e-001	-1.548651e-001	0.000000e+000	0.000000e+000	0.000000e+000	0.000000e+000
722520	-7.767079e-001	5.276778e-001	9.040085e-001	-1.558267e-001	0.000000e+000	0.000000e+000	0.000000e+000	0.000000e+000
727475	-7.762117e-001	5.277389e-001	9.029226e-001	-1.564633e-001	0.000000e+000	0.000000e+000	0.000000e+000	0.000000e+000
732430	-7.756889e-001	5.278130e-001	9.021893e-001	-1.573186e-001	0.000000e+000	0.000000e+000	0.000000e+000	0.000000e+000
737385	-7.750869e-001	5.277793e-001	9.014050e-001	-1.581038e-001	0.000000e+000	0.000000e+000	0.000000e+000	0.000000e+000
742340	-7.745622e-001	5.279000e-001	9.005730e-001	-1.589361e-001	0.000000e+000	0.000000e+000	0.000000e+000	0.000000e+000
747295	-7.741309e-001	5.279714e-001	8.998187e-001	-1.597861e-001	0.000000e+000	0.000000e+000	0.000000e+000	0.000000e+000
752250	-7.736059e-001	5.280321e-001	8.988062e-001	-1.606305e-001	0.000000e+000	0.000000e+000	0.000000e+000	0.000000e+000
757205	-7.731440e-001	5.280538e-001	8.979035e-001	-1.613224e-001	0.000000e+000	0.000000e+000	0.000000e+000	0.000000e+000
762160	-7.725106e-001	5.281742e-001	8.972277e-001	-1.621394e-001	0.000000e+000	0.000000e+000	0.000000e+000	0.000000e+000
767115	-7.720719e-001	5.281614e-001	8.962898e-001	-1.628991e-001	0.000000e+000	0.000000e+000	0.000000e+000	0.000000e+000
772070	-7.715303e-001	5.282175e-001	8.954366e-001	-1.636499e-001	0.000000e+000	0.000000e+000	0.000000e+000	0.000000e+000
777025	-7.709892e-001	5.283271e-001	8.945983e-001	-1.643815e-001	0.000000e+000	0.000000e+000	0.000000e+000	0.000000e+000
781980	-7.705634e-001	5.284966e-001	8.937345e-001	-1.651550e-001	0.000000e+000	0.000000e+000	0.000000e+000	0.000000e+000
786935	-7.700552e-001	5.285541e-001	8.929051e-001	-1.659314e-001	0.000000e+000	0.000000e+000	0.000000e+000	0.000000e+000
791890	-7.696008e-001	5.286396e-001	8.920059e-001	-1.666858e-001	0.000000e+000	0.000000e+000	0.000000e+000	0.000000e+000
796845	-7.690753e-001	5.286863e-001	8.911472e-001	-1.674280e-001	0.000000e+000	0.000000e+000	0.000000e+000	0.000000e+000
801800	-7.685719e-001	5.287560e-001	8.903673e-001	-1.681239e-001	0.000000e+000	0.000000e+000	0.000000e+000	0.000000e+000
806755	-7.681445e-001	5.288016e-001	8.894663e-001	-1.689117e-001	0.000000e+000	0.000000e+000	0.000000e+000	0.000000e+000
811710	-7.677111e-001	5.288831e-001	8.884180e-001	-1.696859e-001	0.000000e+000	0.000000e+000	0.000000e+000	0.000000e+000
816665	-7.672015e-001	5.290609e-001	8.876750e-001	-1.703440e-001	0.000000e+000	0.000000e+000	0.000000e+000	0.000000e+000
