!Agilent Technologies,E5071C,MY46109397,A.09.54
!Date: Mon Jan 01 02:17:34 2001
!Data & Calibration Information:
!Freq	S11:SOLT1(ON)	S21:RESPT(ON)	S12:NONE(--)	S22:NONE(--)
# Hz S RI R 50
9000	9.674570e-001	2.974305e-001	8.493745e-001	5.714872e-001	0.000000e+000	0.000000e+000	0.000000e+000	0.000000e+000
13955	9.610590e-001	4.122006e-001	-1.796318e-001	9.951467e-002	0.000000e+000	0.000000e+000	0.000000e+000	0.000000e+000
18910	9.118220e-001	4.942064e-001	-4.519618e-001	5.386465e-002	0.000000e+000	0.000000e+000	0.000000e+000	0.000000e+000
23865	8.499003e-001	5.489551e-001	-9.665073e-001	6.703374e-001	0.000000e+000	0.000000e+000	0.000000e+000	0.000000e+000
28820	7.642399e-001	4.897279e-001	-7.784594e-001	1.958843e+000	0.000000e+000	0.000000e+000	0.000000e+000	0.000000e+000
33775	3.357120e-001	4.021135e-001	6.679079e-001	2.662325e+000	0.000000e+000	0.000000e+000	0.000000e+000	0.000000e+000
38730	1.442843e-001	9.254341e-001	2.152514e+000	1.798590e+000	0.000000e+000	0.000000e+000	0.000000e+000	0.000000e+000
43685	2.706589e-001	9.529474e-001	1.779837e+000	6.536969e-001	0.000000e+000	0.000000e+000	0.000000e+000	0.000000e+000
48640	2.273270e-001	9.504095e-001	1.465165e+000	4.141130e-001	0.000000e+000	0.000000e+000	0.000000e+000	0.000000e+000
53595	1.309484e-001	9.192818e-001	1.307651e+000	4.570818e-001	0.000000e+000	0.000000e+000	0.000000e+000	0.000000e+000
58550	5.147286e-003	9.687310e-001	1.416651e+000	3.913014e-001	0.000000e+000	0.000000e+000	0.000000e+000	0.000000e+000
63505	-4.038023e-002	1.005072e+000	1.368536e+000	2.342350e-001	0.000000e+000	0.000000e+000	0.000000e+000	0.000000e+000
68460	-9.251077e-002	1.013973e+000	1.310184e+000	1.572406e-001	0.000000e+000	0.000000e+000	0.000000e+000	0.000000e+000
73415	-1.397036e-001	1.012859e+000	1.255514e+000	1.072792e-001	0.000000e+000	0.000000e+000	0.000000e+000	0.000000e+000
78370	-1.848045e-001	1.007497e+000	1.210655e+000	7.168334e-002	0.000000e+000	0.000000e+000	0.000000e+000	0.000000e+000
83325	-2.270568e-001	9.974725e-001	1.173202e+000	4.807690e-002	0.000000e+000	0.000000e+000	0.000000e+000	0.000000e+000
88280	-2.665269e-001	9.833339e-001	1.141832e+000	3.341924e-002	0.000000e+000	0.000000e+000	0.000000e+000	0.000000e+000
93235	-3.040391e-001	9.659193e-001	1.116828e+000	2.525841e-002	0.000000e+000	0.000000e+000	0.000000e+000	0.000000e+000
98190	-3.448131e-001	9.484790e-001	1.103799e+000	2.152294e-002	0.000000e+000	0.000000e+000	0.000000e+000	0.000000e+000
103145	-3.856084e-001	9.354444e-001	1.098557e+000	1.501528e-002	0.000000e+000	0.000000e+000	0.000000e+000	0.000000e+000
108100	-4.191532e-001	9.281243e-001	1.092395e+000	-7.985000e-005	0.000000e+000	0.000000e+000	0.000000e+000	0.000000e+000
113055	-4.471153e-001	9.200544e-001	1.083295e+000	-1.430628e-002	0.000000e+000	0.000000e+000	0.000000e+000	0.000000e+000
118010	-4.712084e-001	9.103941e-001	1.074127e+000	-2.490969e-002	0.000000e+000	0.000000e+000	0.000000e+000	0.000000e+000
122965	-4.918491e-001	9.017154e-001	1.064864e+000	-3.655934e-002	0.000000e+000	0.000000e+000	0.000000e+000	0.000000e+000
127920	-5.109911e-001	8.912747e-001	1.056261e+000	-4.528049e-002	0.000000e+000	0.000000e+000	0.000000e+000	0.000000e+000
132875	-5.280018e-001	8.812510e-001	1.047242e+000	-5.397377e-002	0.000000e+000	0.000000e+000	0.000000e+000	0.000000e+000
137830	-5.437831e-001	8.704027e-001	1.040081e+000	-6.020094e-002	0.000000e+000	0.000000e+000	0.000000e+000	0.000000e+000
142785	-5.578852e-001	8.603519e-001	1.032933e+000	-6.654077e-002	0.000000e+000	0.000000e+000	0.000000e+000	0.000000e+000
147740	-5.708598e-001	8.512925e-001	1.026570e+000	-7.272286e-002	0.000000e+000	0.000000e+000	0.000000e+000	0.000000e+000
152695	-5.823986e-001	8.421371e-001	1.020714e+000	-7.891335e-002	0.000000e+000	0.000000e+000	0.000000e+000	0.000000e+000
157650	-5.933441e-001	8.331906e-001	1.015295e+000	-8.432564e-002	0.000000e+000	0.000000e+000	0.000000e+000	0.000000e+000
162605	-6.026740e-001	8.248375e-001	1.009747e+000	-8.948342e-002	0.000000e+000	0.000000e+000	0.000000e+000	0.000000e+000
167560	-6.114710e-001	8.169665e-001	1.005329e+000	-9.383005e-002	0.000000e+000	0.000000e+000	0.000000e+000	0.000000e+000
172515	-6.191470e-001	8.094360e-001	1.000348e+000	-9.925178e-002	0.000000e+000	0.000000e+000	0.000000e+000	0.000000e+000
177470	-6.265720e-001	8.021703e-001	9.958459e-001	-1.041594e-001	0.000000e+000	0.000000e+000	0.000000e+000	0.000000e+000
182425	-6.330153e-001	7.955316e-001	9.918664e-001	-1.085718e-001	0.000000e+000	0.000000e+000	0.000000e+000	0.000000e+000
187380	-6.386961e-001	7.887935e-001	9.879840e-001	-1.125404e-001	0.000000e+000	0.000000e+000	0.000000e+000	0.000000e+000
192335	-6.439112e-001	7.828102e-001	9.842785e-001	-1.162076e-001	0.000000e+000	0.000000e+000	0.000000e+000	0.000000e+000
197290	-6.486191e-001	7.770565e-001	9.807838e-001	-1.204328e-001	0.000000e+000	0.000000e+000	0.000000e+000	0.000000e+000
202245	-6.527274e-001	7.716103e-001	9.771706e-001	-1.248567e-001	0.000000e+000	0.000000e+000	0.000000e+000	0.000000e+000
207200	-6.563987e-001	7.663246e-001	9.739314e-001	-1.288186e-001	0.000000e+000	0.000000e+000	0.000000e+000	0.000000e+000
212155	-6.597183e-001	7.617774e-001	9.706424e-001	-1.321572e-001	0.000000e+000	0.000000e+000	0.000000e+000	0.000000e+000
217110	-6.624439e-001	7.569749e-001	9.674517e-001	-1.359889e-001	0.000000e+000	0.000000e+000	0.000000e+000	0.000000e+000
222065	-6.649690e-001	7.524400e-001	9.642070e-001	-1.398099e-001	0.000000e+000	0.000000e+000	0.000000e+000	0.000000e+000
227020	-6.671134e-001	7.485106e-001	9.614142e-001	-1.437319e-001	0.000000e+000	0.000000e+000	0.000000e+000	0.000000e+000
231975	-6.689313e-001	7.446254e-001	9.584272e-001	-1.472042e-001	0.000000e+000	0.000000e+000	0.000000e+000	0.000000e+000
236930	-6.703227e-001	7.411500e-001	9.552338e-001	-1.509479e-001	0.000000e+000	0.000000e+000	0.000000e+000	0.000000e+000
241885	-6.716293e-001	7.378261e-001	9.526736e-001	-1.545018e-001	0.000000e+000	0.000000e+000	0.000000e+000	0.000000e+000
246840	-6.724564e-001	7.345880e-001	9.496240e-001	-1.582538e-001	0.000000e+000	0.000000e+000	0.000000e+000	0.000000e+000
251795	-6.731737e-001	7.315431e-001	9.465463e-001	-1.617553e-001	0.000000e+000	0.000000e+000	0.000000e+000	0.000000e+000
256750	-6.736860e-001	7.287579e-001	9.436862e-001	-1.654147e-001	0.000000e+000	0.000000e+000	0.000000e+000	0.000000e+000
261705	-6.738977e-001	7.260019e-001	9.406465e-001	-1.689187e-001	0.000000e+000	0.000000e+000	0.000000e+000	0.000000e+000
266660	-6.740893e-001	7.235612e-001	9.378599e-001	-1.726384e-001	0.000000e+000	0.000000e+000	0.000000e+000	0.000000e+000
271615	-6.739091e-001	7.212612e-001	9.348884e-001	-1.762237e-001	0.000000e+000	0.000000e+000	0.000000e+000	0.000000e+000
276570	-6.736480e-001	7.189867e-001	9.322295e-001	-1.793678e-001	0.000000e+000	0.000000e+000	0.000000e+000	0.000000e+000
281525	-6.731734e-001	7.167349e-001	9.291782e-001	-1.828757e-001	0.000000e+000	0.000000e+000	0.000000e+000	0.000000e+000
286480	-6.724085e-001	7.146999e-001	9.258880e-001	-1.866048e-001	0.000000e+000	0.000000e+000	0.000000e+000	0.000000e+000
291435	-6.715975e-001	7.127922e-001	9.230371e-001	-1.895043e-001	0.000000e+000	0.000000e+000	0.000000e+000	0.000000e+000
296390	-6.707633e-001	7.110690e-001	9.203040e-001	-1.928071e-001	0.000000e+000	0.000000e+000	0.000000e+000	0.000000e+000
301345	-6.697516e-001	7.092392e-001	9.170939e-001	-1.961231e-001	0.000000e+000	0.000000e+000	0.000000e+000	0.000000e+000
306300	-6.685683e-001	7.075747e-001	9.140883e-001	-1.994704e-001	0.000000e+000	0.000000e+000	0.000000e+000	0.000000e+000
311255	-6.673246e-001	7.058337e-001	9.109139e-001	-2.022554e-001	0.000000e+000	0.000000e+000	0.000000e+000	0.000000e+000
316210	-6.659690e-001	7.043298e-001	9.079174e-001	-2.051635e-001	0.000000e+000	0.000000e+000	0.000000e+000	0.000000e+000
321165	-6.646140e-001	7.029560e-001	9.048055e-001	-2.082503e-001	0.000000e+000	0.000000e+000	0.000000e+000	0.000000e+000
326120	-6.629867e-001	7.014722e-001	9.013773e-001	-2.113510e-001	0.000000e+000	0.000000e+000	0.000000e+000	0.000000e+000
331075	-6.613778e-001	6.998563e-001	8.982184e-001	-2.140045e-001	0.000000e+000	0.000000e+000	0.000000e+000	0.000000e+000
336030	-6.596269e-001	6.984321e-001	8.949827e-001	-2.168129e-001	0.000000e+000	0.000000e+000	0.000000e+000	0.000000e+000
340985	-6.578643e-001	6.968173e-001	8.915409e-001	-2.194873e-001	0.000000e+000	0.000000e+000	0.000000e+000	0.000000e+000
345940	-6.561478e-001	6.959824e-001	8.881972e-001	-2.223789e-001	0.000000e+000	0.000000e+000	0.000000e+000	0.000000e+000
350895	-6.541783e-001	6.949998e-001	8.847030e-001	-2.252768e-001	0.000000e+000	0.000000e+000	0.000000e+000	0.000000e+000
355850	-6.522936e-001	6.940763e-001	8.814934e-001	-2.278091e-001	0.000000e+000	0.000000e+000	0.000000e+000	0.000000e+000
360805	-6.504081e-001	6.933371e-001	8.779821e-001	-2.306415e-001	0.000000e+000	0.000000e+000	0.000000e+000	0.000000e+000
365760	-6.484695e-001	6.924744e-001	8.745150e-001	-2.336495e-001	0.000000e+000	0.000000e+000	0.000000e+000	0.000000e+000
370715	-6.463113e-001	6.913648e-001	8.709836e-001	-2.356478e-001	0.000000e+000	0.000000e+000	0.000000e+000	0.000000e+000
375670	-6.441588e-001	6.903598e-001	8.673413e-001	-2.380380e-001	0.000000e+000	0.000000e+000	0.000000e+000	0.000000e+000
380625	-6.419964e-001	6.898616e-001	8.635465e-001	-2.406075e-001	0.000000e+000	0.000000e+000	0.000000e+000	0.000000e+000
385580	-6.398306e-001	6.892976e-001	8.601175e-001	-2.431055e-001	0.000000e+000	0.000000e+000	0.000000e+000	0.000000e+000
390535	-6.376018e-001	6.888279e-001	8.565300e-001	-2.456590e-001	0.000000e+000	0.000000e+000	0.000000e+000	0.000000e+000
395490	-6.353944e-001	6.882345e-001	8.528161e-001	-2.478348e-001	0.000000e+000	0.000000e+000	0.000000e+000	0.000000e+000
400445	-6.331767e-001	6.875522e-001	8.493299e-001	-2.500874e-001	0.000000e+000	0.000000e+000	0.000000e+000	0.000000e+000
405400	-6.308387e-001	6.869835e-001	8.455608e-001	-2.523260e-001	0.000000e+000	0.000000e+000	0.000000e+000	0.000000e+000
410355	-6.284117e-001	6.867660e-001	8.415834e-001	-2.546848e-001	0.000000e+000	0.000000e+000	0.000000e+000	0.000000e+000
415310	-6.258941e-001	6.864043e-001	8.378093e-001	-2.567614e-001	0.000000e+000	0.000000e+000	0.000000e+000	0.000000e+000
420265	-6.233352e-001	6.859056e-001	8.339063e-001	-2.589152e-001	0.000000e+000	0.000000e+000	0.000000e+000	0.000000e+000
425220	-6.205724e-001	6.856018e-001	8.298617e-001	-2.608086e-001	0.000000e+000	0.000000e+000	0.000000e+000	0.000000e+000
430175	-6.178093e-001	6.851156e-001	8.257389e-001	-2.628779e-001	0.000000e+000	0.000000e+000	0.000000e+000	0.000000e+000
435130	-6.150329e-001	6.845759e-001	8.216725e-001	-2.643059e-001	0.000000e+000	0.000000e+000	0.000000e+000	0.000000e+000
440085	-6.122187e-001	6.840305e-001	8.175131e-001	-2.662103e-001	0.000000e+000	0.000000e+000	0.000000e+000	0.000000e+000
445040	-6.092770e-001	6.833855e-001	8.130527e-001	-2.676508e-001	0.000000e+000	0.000000e+000	0.000000e+000	0.000000e+000
449995	-6.064090e-001	6.825079e-001	8.089223e-001	-2.688462e-001	0.000000e+000	0.000000e+000	0.000000e+000	0.000000e+000
454950	-6.031935e-001	6.826799e-001	8.044521e-001	-2.708608e-001	0.000000e+000	0.000000e+000	0.000000e+000	0.000000e+000
459905	-5.999757e-001	6.830373e-001	8.000198e-001	-2.728768e-001	0.000000e+000	0.000000e+000	0.000000e+000	0.000000e+000
464860	-5.966139e-001	6.822019e-001	7.953356e-001	-2.739105e-001	0.000000e+000	0.000000e+000	0.000000e+000	0.000000e+000
469815	-5.933877e-001	6.820795e-001	7.907730e-001	-2.755792e-001	0.000000e+000	0.000000e+000	0.000000e+000	0.000000e+000
474770	-5.899077e-001	6.817225e-001	7.860843e-001	-2.768135e-001	0.000000e+000	0.000000e+000	0.000000e+000	0.000000e+000
479725	-5.864613e-001	6.807654e-001	7.811721e-001	-2.774804e-001	0.000000e+000	0.000000e+000	0.000000e+000	0.000000e+000
484680	-5.824444e-001	6.812693e-001	7.760180e-001	-2.792665e-001	0.000000e+000	0.000000e+000	0.000000e+000	0.000000e+000
489635	-5.786382e-001	6.811437e-001	7.707671e-001	-2.805702e-001	0.000000e+000	0.000000e+000	0.000000e+000	0.000000e+000
494590	-5.744135e-001	6.807316e-001	7.655905e-001	-2.817591e-001	0.000000e+000	0.000000e+000	0.000000e+000	0.000000e+000
499545	-5.700788e-001	6.805369e-001	7.599809e-001	-2.824733e-001	0.000000e+000	0.000000e+000	0.000000e+000	0.000000e+000
504500	-5.653712e-001	6.803052e-001	7.540974e-001	-2.833450e-001	0.000000e+000	0.000000e+000	0.000000e+000	0.000000e+000
509455	-5.610243e-001	6.793234e-001	7.484118e-001	-2.837655e-001	0.000000e+000	0.000000e+000	0.000000e+000	0.000000e+000
514410	-5.561693e-001	6.785672e-001	7.425016e-001	-2.841200e-001	0.000000e+000	0.000000e+000	0.000000e+000	0.000000e+000
519365	-5.508833e-001	6.780554e-001	7.359423e-001	-2.843887e-001	0.000000e+000	0.000000e+000	0.000000e+000	0.000000e+000
524320	-5.448608e-001	6.784435e-001	7.288158e-001	-2.856213e-001	0.000000e+000	0.000000e+000	0.000000e+000	0.000000e+000
529275	-5.389013e-001	6.773414e-001	7.218103e-001	-2.853090e-001	0.000000e+000	0.000000e+000	0.000000e+000	0.000000e+000
534230	-5.328146e-001	6.758381e-001	7.145330e-001	-2.845496e-001	0.000000e+000	0.000000e+000	0.000000e+000	0.000000e+000
539185	-5.266640e-001	6.735852e-001	7.073621e-001	-2.831451e-001	0.000000e+000	0.000000e+000	0.000000e+000	0.000000e+000
544140	-5.197493e-001	6.713946e-001	6.993280e-001	-2.819110e-001	0.000000e+000	0.000000e+000	0.000000e+000	0.000000e+000
549095	-5.123206e-001	6.689460e-001	6.911595e-001	-2.795743e-001	0.000000e+000	0.000000e+000	0.000000e+000	0.000000e+000
554050	-5.046563e-001	6.658356e-001	6.825664e-001	-2.768472e-001	0.000000e+000	0.000000e+000	0.000000e+000	0.000000e+000
559005	-4.962630e-001	6.619964e-001	6.734365e-001	-2.735990e-001	0.000000e+000	0.000000e+000	0.000000e+000	0.000000e+000
563960	-4.890750e-001	6.559318e-001	6.655090e-001	-2.679214e-001	0.000000e+000	0.000000e+000	0.000000e+000	0.000000e+000
568915	-4.830574e-001	6.483820e-001	6.588962e-001	-2.607466e-001	0.000000e+000	0.000000e+000	0.000000e+000	0.000000e+000
573870	-4.712160e-001	6.429931e-001	6.468657e-001	-2.552591e-001	0.000000e+000	0.000000e+000	0.000000e+000	0.000000e+000
578825	-4.595873e-001	6.361073e-001	6.351677e-001	-2.482937e-001	0.000000e+000	0.000000e+000	0.000000e+000	0.000000e+000
583780	-4.490650e-001	6.265243e-001	6.247623e-001	-2.387576e-001	0.000000e+000	0.000000e+000	0.000000e+000	0.000000e+000
588735	-4.387362e-001	6.142252e-001	6.148539e-001	-2.264656e-001	0.000000e+000	0.000000e+000	0.000000e+000	0.000000e+000
593690	-4.301597e-001	5.989364e-001	6.074253e-001	-2.112896e-001	0.000000e+000	0.000000e+000	0.000000e+000	0.000000e+000
598645	-4.188923e-001	5.820613e-001	5.977204e-001	-1.946175e-001	0.000000e+000	0.000000e+000	0.000000e+000	0.000000e+000
603600	-4.135581e-001	5.610567e-001	5.942037e-001	-1.746298e-001	0.000000e+000	0.000000e+000	0.000000e+000	0.000000e+000
608555	-4.105389e-001	5.374496e-001	5.933613e-001	-1.530834e-001	0.000000e+000	0.000000e+000	0.000000e+000	0.000000e+000
613510	-4.089836e-001	5.104125e-001	5.946148e-001	-1.286249e-001	0.000000e+000	0.000000e+000	0.000000e+000	0.000000e+000
618465	-4.138865e-001	4.813608e-001	6.015373e-001	-1.038530e-001	0.000000e+000	0.000000e+000	0.000000e+000	0.000000e+000
623420	-4.269489e-001	4.534968e-001	6.156518e-001	-8.125771e-002	0.000000e+000	0.000000e+000	0.000000e+000	0.000000e+000
628375	-4.468009e-001	4.280007e-001	6.350378e-001	-6.162548e-002	0.000000e+000	0.000000e+000	0.000000e+000	0.000000e+000
633330	-4.725860e-001	4.073309e-001	6.585725e-001	-4.739206e-002	0.000000e+000	0.000000e+000	0.000000e+000	0.000000e+000
638285	-5.020812e-001	3.929771e-001	6.838528e-001	-3.854928e-002	0.000000e+000	0.000000e+000	0.000000e+000	0.000000e+000
643240	-5.335912e-001	3.874530e-001	7.100903e-001	-3.696684e-002	0.000000e+000	0.000000e+000	0.000000e+000	0.000000e+000
648195	-5.635621e-001	3.886797e-001	7.343011e-001	-4.058942e-002	0.000000e+000	0.000000e+000	0.000000e+000	0.000000e+000
653150	-5.904288e-001	3.965286e-001	7.555508e-001	-4.944979e-002	0.000000e+000	0.000000e+000	0.000000e+000	0.000000e+000
658105	-6.134530e-001	4.065926e-001	7.735838e-001	-5.951135e-002	0.000000e+000	0.000000e+000	0.000000e+000	0.000000e+000
663060	-6.325814e-001	4.188958e-001	7.885597e-001	-7.129350e-002	0.000000e+000	0.000000e+000	0.000000e+000	0.000000e+000
668015	-6.475510e-001	4.336071e-001	7.999282e-001	-8.484988e-002	0.000000e+000	0.000000e+000	0.000000e+000	0.000000e+000
672970	-6.580791e-001	4.491352e-001	8.076144e-001	-9.908485e-002	0.000000e+000	0.000000e+000	0.000000e+000	0.000000e+000
677925	-6.662200e-001	4.633803e-001	8.134395e-001	-1.120966e-001	0.000000e+000	0.000000e+000	0.000000e+000	0.000000e+000
682880	-6.714924e-001	4.775838e-001	8.167200e-001	-1.249930e-001	0.000000e+000	0.000000e+000	0.000000e+000	0.000000e+000
687835	-6.760927e-001	4.896815e-001	8.196767e-001	-1.361715e-001	0.000000e+000	0.000000e+000	0.000000e+000	0.000000e+000
692790	-6.806409e-001	5.001652e-001	8.227769e-001	-1.459292e-001	0.000000e+000	0.000000e+000	0.000000e+000	0.000000e+000
697745	-6.824943e-001	5.107144e-001	8.232404e-001	-1.558027e-001	0.000000e+000	0.000000e+000	0.000000e+000	0.000000e+000
702700	-6.835641e-001	5.204222e-001	8.230554e-001	-1.650692e-001	0.000000e+000	0.000000e+000	0.000000e+000	0.000000e+000
707655	-6.834012e-001	5.294206e-001	8.219534e-001	-1.735659e-001	0.000000e+000	0.000000e+000	0.000000e+000	0.000000e+000
712610	-6.824746e-001	5.377336e-001	8.200159e-001	-1.814110e-001	0.000000e+000	0.000000e+000	0.000000e+000	0.000000e+000
717565	-6.815478e-001	5.451885e-001	8.181265e-001	-1.885267e-001	0.000000e+000	0.000000e+000	0.000000e+000	0.000000e+000
722520	-6.804579e-001	5.518331e-001	8.162670e-001	-1.951344e-001	0.000000e+000	0.000000e+000	0.000000e+000	0.000000e+000
727475	-6.793054e-001	5.581244e-001	8.137943e-001	-2.009775e-001	0.000000e+000	0.000000e+000	0.000000e+000	0.000000e+000
732430	-6.778900e-001	5.638334e-001	8.114723e-001	-2.065158e-001	0.000000e+000	0.000000e+000	0.000000e+000	0.000000e+000
737385	-6.761735e-001	5.689160e-001	8.089932e-001	-2.116149e-001	0.000000e+000	0.000000e+000	0.000000e+000	0.000000e+000
742340	-6.743837e-001	5.737590e-001	8.063525e-001	-2.163588e-001	0.000000e+000	0.000000e+000	0.000000e+000	0.000000e+000
747295	-6.726761e-001	5.783084e-001	8.034244e-001	-2.208721e-001	0.000000e+000	0.000000e+000	0.000000e+000	0.000000e+000
752250	-6.709112e-001	5.823810e-001	8.007756e-001	-2.248552e-001	0.000000e+000	0.000000e+000	0.000000e+000	0.000000e+000
757205	-6.690973e-001	5.861194e-001	7.978532e-001	-2.285874e-001	0.000000e+000	0.000000e+000	0.000000e+000	0.000000e+000
762160	-6.671267e-001	5.895372e-001	7.952945e-001	-2.320877e-001	0.000000e+000	0.000000e+000	0.000000e+000	0.000000e+000
767115	-6.653814e-001	5.928428e-001	7.923928e-001	-2.355007e-001	0.000000e+000	0.000000e+000	0.000000e+000	0.000000e+000
772070	-6.635647e-001	5.958657e-001	7.895716e-001	-2.386097e-001	0.000000e+000	0.000000e+000	0.000000e+000	0.000000e+000
777025	-6.617696e-001	5.986681e-001	7.867616e-001	-2.414923e-001	0.000000e+000	0.000000e+000	0.000000e+000	0.000000e+000
781980	-6.601351e-001	6.013587e-001	7.840283e-001	-2.442814e-001	0.000000e+000	0.000000e+000	0.000000e+000	0.000000e+000
786935	-6.584750e-001	6.038238e-001	7.813175e-001	-2.468495e-001	0.000000e+000	0.000000e+000	0.000000e+000	0.000000e+000
791890	-6.568649e-001	6.061840e-001	7.786586e-001	-2.491621e-001	0.000000e+000	0.000000e+000	0.000000e+000	0.000000e+000
796845	-6.552751e-001	6.083558e-001	7.760992e-001	-2.514123e-001	0.000000e+000	0.000000e+000	0.000000e+000	0.000000e+000
801800	-6.536533e-001	6.103279e-001	7.734236e-001	-2.536681e-001	0.000000e+000	0.000000e+000	0.000000e+000	0.000000e+000
806755	-6.522537e-001	6.121844e-001	7.708658e-001	-2.557027e-001	0.000000e+000	0.000000e+000	0.000000e+000	0.000000e+000
811710	-6.508155e-001	6.140641e-001	7.681545e-001	-2.576527e-001	0.000000e+000	0.000000e+000	0.000000e+000	0.000000e+000
816665	-6.493326e-001	6.159512e-001	7.656307e-001	-2.595485e-001	0.000000e+000	0.000000e+000	0.000000e+000	0.000000e+000
