!Agilent Technologies,E5071C,MY46109397,A.09.54
!Date: Mon Jan 01 02:09:39 2001
!Data & Calibration Information:
!Freq	S11:SOLT1(ON)	S21:RESPT(ON)	S12:NONE(--)	S22:NONE(--)
# Hz S RI R 50
9000	9.674904e-001	2.982311e-001	8.630873e-001	5.341957e-001	0.000000e+000	0.000000e+000	0.000000e+000	0.000000e+000
13955	9.614965e-001	4.148254e-001	3.475543e-004	-3.295512e-003	0.000000e+000	0.000000e+000	0.000000e+000	0.000000e+000
18910	9.072505e-001	5.034377e-001	-6.340073e-004	-1.906709e-004	0.000000e+000	0.000000e+000	0.000000e+000	0.000000e+000
23865	8.330759e-001	5.973546e-001	-8.027358e-004	-2.043149e-004	0.000000e+000	0.000000e+000	0.000000e+000	0.000000e+000
28820	7.697911e-001	6.760690e-001	-7.308106e-004	1.657707e-005	0.000000e+000	0.000000e+000	0.000000e+000	0.000000e+000
33775	7.081705e-001	7.366649e-001	-2.344161e-004	5.018504e-004	0.000000e+000	0.000000e+000	0.000000e+000	0.000000e+000
38730	6.521127e-001	7.862844e-001	-7.101585e-004	3.069678e-004	0.000000e+000	0.000000e+000	0.000000e+000	0.000000e+000
43685	6.023035e-001	8.240659e-001	-7.202856e-004	6.218593e-004	0.000000e+000	0.000000e+000	0.000000e+000	0.000000e+000
48640	5.580787e-001	8.524870e-001	-6.408535e-004	1.260366e-004	0.000000e+000	0.000000e+000	0.000000e+000	0.000000e+000
53595	5.214231e-001	8.735501e-001	-1.187375e-003	7.826952e-004	0.000000e+000	0.000000e+000	0.000000e+000	0.000000e+000
58550	4.905638e-001	8.887138e-001	-8.385795e-004	6.954679e-004	0.000000e+000	0.000000e+000	0.000000e+000	0.000000e+000
63505	4.656566e-001	8.990178e-001	-1.424215e-003	8.808511e-004	0.000000e+000	0.000000e+000	0.000000e+000	0.000000e+000
68460	4.462718e-001	9.054073e-001	-1.356002e-003	1.090413e-003	0.000000e+000	0.000000e+000	0.000000e+000	0.000000e+000
73415	4.315288e-001	9.083328e-001	-1.503376e-003	1.077385e-003	0.000000e+000	0.000000e+000	0.000000e+000	0.000000e+000
78370	4.207325e-001	9.086832e-001	-2.066110e-003	1.432596e-003	0.000000e+000	0.000000e+000	0.000000e+000	0.000000e+000
83325	4.135410e-001	9.067481e-001	-2.058910e-003	1.827887e-003	0.000000e+000	0.000000e+000	0.000000e+000	0.000000e+000
88280	4.089984e-001	9.031235e-001	-2.358142e-003	1.787540e-003	0.000000e+000	0.000000e+000	0.000000e+000	0.000000e+000
93235	4.073433e-001	8.978140e-001	-2.185917e-003	2.231007e-003	0.000000e+000	0.000000e+000	0.000000e+000	0.000000e+000
98190	4.073909e-001	8.914436e-001	-2.351286e-003	2.557545e-003	0.000000e+000	0.000000e+000	0.000000e+000	0.000000e+000
103145	4.090276e-001	8.839450e-001	-2.684745e-003	2.630168e-003	0.000000e+000	0.000000e+000	0.000000e+000	0.000000e+000
108100	4.120124e-001	8.753591e-001	-2.572792e-003	2.829250e-003	0.000000e+000	0.000000e+000	0.000000e+000	0.000000e+000
113055	4.159753e-001	8.661139e-001	-2.674285e-003	3.142776e-003	0.000000e+000	0.000000e+000	0.000000e+000	0.000000e+000
118010	4.205407e-001	8.561573e-001	-2.796246e-003	3.382308e-003	0.000000e+000	0.000000e+000	0.000000e+000	0.000000e+000
122965	4.260314e-001	8.456874e-001	-2.842166e-003	3.637524e-003	0.000000e+000	0.000000e+000	0.000000e+000	0.000000e+000
127920	4.314253e-001	8.347502e-001	-2.885579e-003	3.790408e-003	0.000000e+000	0.000000e+000	0.000000e+000	0.000000e+000
132875	4.373181e-001	8.237252e-001	-3.012171e-003	4.299887e-003	0.000000e+000	0.000000e+000	0.000000e+000	0.000000e+000
137830	4.432070e-001	8.122568e-001	-3.118169e-003	4.374881e-003	0.000000e+000	0.000000e+000	0.000000e+000	0.000000e+000
142785	4.491540e-001	8.005338e-001	-3.121426e-003	4.766599e-003	0.000000e+000	0.000000e+000	0.000000e+000	0.000000e+000
147740	4.549133e-001	7.887730e-001	-3.108213e-003	5.105704e-003	0.000000e+000	0.000000e+000	0.000000e+000	0.000000e+000
152695	4.605347e-001	7.770694e-001	-3.242766e-003	5.562090e-003	0.000000e+000	0.000000e+000	0.000000e+000	0.000000e+000
157650	4.661072e-001	7.651753e-001	-3.158738e-003	5.616670e-003	0.000000e+000	0.000000e+000	0.000000e+000	0.000000e+000
162605	4.712757e-001	7.533494e-001	-3.331059e-003	5.934523e-003	0.000000e+000	0.000000e+000	0.000000e+000	0.000000e+000
167560	4.762497e-001	7.415594e-001	-3.249551e-003	6.242554e-003	0.000000e+000	0.000000e+000	0.000000e+000	0.000000e+000
172515	4.810331e-001	7.298521e-001	-3.393229e-003	6.354152e-003	0.000000e+000	0.000000e+000	0.000000e+000	0.000000e+000
177470	4.854776e-001	7.183076e-001	-3.305781e-003	6.668732e-003	0.000000e+000	0.000000e+000	0.000000e+000	0.000000e+000
182425	4.894727e-001	7.068064e-001	-3.323884e-003	6.999180e-003	0.000000e+000	0.000000e+000	0.000000e+000	0.000000e+000
187380	4.931078e-001	6.952858e-001	-3.376487e-003	7.165302e-003	0.000000e+000	0.000000e+000	0.000000e+000	0.000000e+000
192335	4.965470e-001	6.841129e-001	-3.373443e-003	7.404003e-003	0.000000e+000	0.000000e+000	0.000000e+000	0.000000e+000
197290	4.995825e-001	6.731210e-001	-3.326859e-003	7.722967e-003	0.000000e+000	0.000000e+000	0.000000e+000	0.000000e+000
202245	5.022507e-001	6.621493e-001	-3.394243e-003	8.154874e-003	0.000000e+000	0.000000e+000	0.000000e+000	0.000000e+000
207200	5.045283e-001	6.514168e-001	-3.182641e-003	8.409865e-003	0.000000e+000	0.000000e+000	0.000000e+000	0.000000e+000
212155	5.065895e-001	6.409694e-001	-3.296864e-003	8.430243e-003	0.000000e+000	0.000000e+000	0.000000e+000	0.000000e+000
217110	5.080975e-001	6.305323e-001	-3.253724e-003	8.890180e-003	0.000000e+000	0.000000e+000	0.000000e+000	0.000000e+000
222065	5.092613e-001	6.205854e-001	-3.200677e-003	9.138474e-003	0.000000e+000	0.000000e+000	0.000000e+000	0.000000e+000
227020	5.101436e-001	6.108452e-001	-3.180908e-003	9.294446e-003	0.000000e+000	0.000000e+000	0.000000e+000	0.000000e+000
231975	5.106482e-001	6.010460e-001	-2.993193e-003	9.704866e-003	0.000000e+000	0.000000e+000	0.000000e+000	0.000000e+000
236930	5.108943e-001	5.915929e-001	-3.145130e-003	9.776066e-003	0.000000e+000	0.000000e+000	0.000000e+000	0.000000e+000
241885	5.105645e-001	5.825295e-001	-3.130320e-003	1.002452e-002	0.000000e+000	0.000000e+000	0.000000e+000	0.000000e+000
246840	5.099911e-001	5.736050e-001	-3.104992e-003	1.027224e-002	0.000000e+000	0.000000e+000	0.000000e+000	0.000000e+000
251795	5.089706e-001	5.649403e-001	-3.000187e-003	1.045262e-002	0.000000e+000	0.000000e+000	0.000000e+000	0.000000e+000
256750	5.077060e-001	5.566443e-001	-3.054230e-003	1.069305e-002	0.000000e+000	0.000000e+000	0.000000e+000	0.000000e+000
261705	5.061782e-001	5.486427e-001	-2.957651e-003	1.090906e-002	0.000000e+000	0.000000e+000	0.000000e+000	0.000000e+000
266660	5.040726e-001	5.409743e-001	-2.961243e-003	1.112779e-002	0.000000e+000	0.000000e+000	0.000000e+000	0.000000e+000
271615	5.019227e-001	5.336113e-001	-2.928284e-003	1.131828e-002	0.000000e+000	0.000000e+000	0.000000e+000	0.000000e+000
276570	4.993390e-001	5.265453e-001	-2.939535e-003	1.143305e-002	0.000000e+000	0.000000e+000	0.000000e+000	0.000000e+000
281525	4.965152e-001	5.199019e-001	-2.858717e-003	1.171219e-002	0.000000e+000	0.000000e+000	0.000000e+000	0.000000e+000
286480	4.934228e-001	5.133060e-001	-2.901924e-003	1.190385e-002	0.000000e+000	0.000000e+000	0.000000e+000	0.000000e+000
291435	4.901307e-001	5.072103e-001	-2.829340e-003	1.211538e-002	0.000000e+000	0.000000e+000	0.000000e+000	0.000000e+000
296390	4.865203e-001	5.016010e-001	-2.812280e-003	1.233572e-002	0.000000e+000	0.000000e+000	0.000000e+000	0.000000e+000
301345	4.826815e-001	4.963209e-001	-2.763090e-003	1.248769e-002	0.000000e+000	0.000000e+000	0.000000e+000	0.000000e+000
306300	4.787708e-001	4.913477e-001	-2.754875e-003	1.260805e-002	0.000000e+000	0.000000e+000	0.000000e+000	0.000000e+000
311255	4.745933e-001	4.868038e-001	-2.667557e-003	1.285358e-002	0.000000e+000	0.000000e+000	0.000000e+000	0.000000e+000
316210	4.703063e-001	4.825936e-001	-2.762996e-003	1.307891e-002	0.000000e+000	0.000000e+000	0.000000e+000	0.000000e+000
321165	4.658652e-001	4.788802e-001	-2.698690e-003	1.315836e-002	0.000000e+000	0.000000e+000	0.000000e+000	0.000000e+000
326120	4.613349e-001	4.753409e-001	-2.666335e-003	1.343774e-002	0.000000e+000	0.000000e+000	0.000000e+000	0.000000e+000
331075	4.566205e-001	4.722339e-001	-2.676255e-003	1.363152e-002	0.000000e+000	0.000000e+000	0.000000e+000	0.000000e+000
336030	4.520269e-001	4.694642e-001	-2.610243e-003	1.378928e-002	0.000000e+000	0.000000e+000	0.000000e+000	0.000000e+000
340985	4.472900e-001	4.670618e-001	-2.645255e-003	1.391431e-002	0.000000e+000	0.000000e+000	0.000000e+000	0.000000e+000
345940	4.426445e-001	4.650459e-001	-2.703164e-003	1.410014e-002	0.000000e+000	0.000000e+000	0.000000e+000	0.000000e+000
350895	4.379440e-001	4.632516e-001	-2.588462e-003	1.430704e-002	0.000000e+000	0.000000e+000	0.000000e+000	0.000000e+000
355850	4.332664e-001	4.618682e-001	-2.672249e-003	1.443340e-002	0.000000e+000	0.000000e+000	0.000000e+000	0.000000e+000
360805	4.285930e-001	4.607539e-001	-2.614274e-003	1.467215e-002	0.000000e+000	0.000000e+000	0.000000e+000	0.000000e+000
365760	4.238138e-001	4.597993e-001	-2.726991e-003	1.480313e-002	0.000000e+000	0.000000e+000	0.000000e+000	0.000000e+000
370715	4.192827e-001	4.590603e-001	-2.725659e-003	1.500264e-002	0.000000e+000	0.000000e+000	0.000000e+000	0.000000e+000
375670	4.146719e-001	4.586706e-001	-2.755951e-003	1.517483e-002	0.000000e+000	0.000000e+000	0.000000e+000	0.000000e+000
380625	4.102439e-001	4.584631e-001	-2.745374e-003	1.537221e-002	0.000000e+000	0.000000e+000	0.000000e+000	0.000000e+000
385580	4.058018e-001	4.584834e-001	-2.844380e-003	1.550503e-002	0.000000e+000	0.000000e+000	0.000000e+000	0.000000e+000
390535	4.014167e-001	4.587779e-001	-2.815361e-003	1.556869e-002	0.000000e+000	0.000000e+000	0.000000e+000	0.000000e+000
395490	3.971871e-001	4.591669e-001	-2.886512e-003	1.583109e-002	0.000000e+000	0.000000e+000	0.000000e+000	0.000000e+000
400445	3.929130e-001	4.597397e-001	-2.818386e-003	1.592474e-002	0.000000e+000	0.000000e+000	0.000000e+000	0.000000e+000
405400	3.888427e-001	4.604243e-001	-2.867131e-003	1.627075e-002	0.000000e+000	0.000000e+000	0.000000e+000	0.000000e+000
410355	3.846507e-001	4.613757e-001	-2.892531e-003	1.635763e-002	0.000000e+000	0.000000e+000	0.000000e+000	0.000000e+000
415310	3.807070e-001	4.624457e-001	-2.874912e-003	1.655088e-002	0.000000e+000	0.000000e+000	0.000000e+000	0.000000e+000
420265	3.767980e-001	4.636695e-001	-2.927348e-003	1.672684e-002	0.000000e+000	0.000000e+000	0.000000e+000	0.000000e+000
425220	3.729372e-001	4.648916e-001	-2.955850e-003	1.687826e-002	0.000000e+000	0.000000e+000	0.000000e+000	0.000000e+000
430175	3.691100e-001	4.663120e-001	-3.015636e-003	1.710940e-002	0.000000e+000	0.000000e+000	0.000000e+000	0.000000e+000
435130	3.655179e-001	4.678772e-001	-2.973543e-003	1.733988e-002	0.000000e+000	0.000000e+000	0.000000e+000	0.000000e+000
440085	3.617797e-001	4.694201e-001	-3.076675e-003	1.749021e-002	0.000000e+000	0.000000e+000	0.000000e+000	0.000000e+000
445040	3.582079e-001	4.711884e-001	-3.026408e-003	1.761789e-002	0.000000e+000	0.000000e+000	0.000000e+000	0.000000e+000
449995	3.547463e-001	4.730158e-001	-3.164639e-003	1.782869e-002	0.000000e+000	0.000000e+000	0.000000e+000	0.000000e+000
454950	3.513444e-001	4.748710e-001	-3.187791e-003	1.798795e-002	0.000000e+000	0.000000e+000	0.000000e+000	0.000000e+000
459905	3.479474e-001	4.768496e-001	-3.205846e-003	1.827160e-002	0.000000e+000	0.000000e+000	0.000000e+000	0.000000e+000
464860	3.446769e-001	4.787566e-001	-3.288982e-003	1.841460e-002	0.000000e+000	0.000000e+000	0.000000e+000	0.000000e+000
469815	3.414379e-001	4.809182e-001	-3.276609e-003	1.858029e-002	0.000000e+000	0.000000e+000	0.000000e+000	0.000000e+000
474770	3.382842e-001	4.830727e-001	-3.322555e-003	1.884522e-002	0.000000e+000	0.000000e+000	0.000000e+000	0.000000e+000
479725	3.351791e-001	4.853293e-001	-3.342866e-003	1.893203e-002	0.000000e+000	0.000000e+000	0.000000e+000	0.000000e+000
484680	3.321638e-001	4.875517e-001	-3.377244e-003	1.917450e-002	0.000000e+000	0.000000e+000	0.000000e+000	0.000000e+000
489635	3.291394e-001	4.897604e-001	-3.440547e-003	1.933338e-002	0.000000e+000	0.000000e+000	0.000000e+000	0.000000e+000
494590	3.262664e-001	4.919032e-001	-3.540687e-003	1.954406e-002	0.000000e+000	0.000000e+000	0.000000e+000	0.000000e+000
499545	3.234445e-001	4.942115e-001	-3.487075e-003	1.967238e-002	0.000000e+000	0.000000e+000	0.000000e+000	0.000000e+000
504500	3.206801e-001	4.966427e-001	-3.519063e-003	1.993795e-002	0.000000e+000	0.000000e+000	0.000000e+000	0.000000e+000
509455	3.178769e-001	4.990098e-001	-3.580229e-003	2.010224e-002	0.000000e+000	0.000000e+000	0.000000e+000	0.000000e+000
514410	3.152305e-001	5.014317e-001	-3.588888e-003	2.036599e-002	0.000000e+000	0.000000e+000	0.000000e+000	0.000000e+000
519365	3.126245e-001	5.038643e-001	-3.666789e-003	2.054708e-002	0.000000e+000	0.000000e+000	0.000000e+000	0.000000e+000
524320	3.099816e-001	5.064608e-001	-3.729339e-003	2.071253e-002	0.000000e+000	0.000000e+000	0.000000e+000	0.000000e+000
529275	3.073689e-001	5.087260e-001	-3.715224e-003	2.091454e-002	0.000000e+000	0.000000e+000	0.000000e+000	0.000000e+000
534230	3.048714e-001	5.112449e-001	-3.817110e-003	2.109424e-002	0.000000e+000	0.000000e+000	0.000000e+000	0.000000e+000
539185	3.023258e-001	5.136890e-001	-3.857990e-003	2.132916e-002	0.000000e+000	0.000000e+000	0.000000e+000	0.000000e+000
544140	2.998076e-001	5.161063e-001	-3.847440e-003	2.148891e-002	0.000000e+000	0.000000e+000	0.000000e+000	0.000000e+000
549095	2.974962e-001	5.185017e-001	-3.893564e-003	2.169543e-002	0.000000e+000	0.000000e+000	0.000000e+000	0.000000e+000
554050	2.950743e-001	5.210167e-001	-3.951389e-003	2.197196e-002	0.000000e+000	0.000000e+000	0.000000e+000	0.000000e+000
559005	2.927111e-001	5.234082e-001	-4.037518e-003	2.207873e-002	0.000000e+000	0.000000e+000	0.000000e+000	0.000000e+000
563960	2.903481e-001	5.258819e-001	-4.025084e-003	2.238411e-002	0.000000e+000	0.000000e+000	0.000000e+000	0.000000e+000
568915	2.880190e-001	5.282821e-001	-4.092885e-003	2.257155e-002	0.000000e+000	0.000000e+000	0.000000e+000	0.000000e+000
573870	2.857551e-001	5.307851e-001	-4.100371e-003	2.277255e-002	0.000000e+000	0.000000e+000	0.000000e+000	0.000000e+000
578825	2.834535e-001	5.331473e-001	-4.130859e-003	2.290299e-002	0.000000e+000	0.000000e+000	0.000000e+000	0.000000e+000
583780	2.811744e-001	5.355792e-001	-4.181948e-003	2.315093e-002	0.000000e+000	0.000000e+000	0.000000e+000	0.000000e+000
588735	2.788588e-001	5.379278e-001	-4.224235e-003	2.333635e-002	0.000000e+000	0.000000e+000	0.000000e+000	0.000000e+000
593690	2.768163e-001	5.402962e-001	-4.270089e-003	2.355434e-002	0.000000e+000	0.000000e+000	0.000000e+000	0.000000e+000
598645	2.745508e-001	5.427236e-001	-4.282673e-003	2.376813e-002	0.000000e+000	0.000000e+000	0.000000e+000	0.000000e+000
603600	2.723394e-001	5.451845e-001	-4.275826e-003	2.392975e-002	0.000000e+000	0.000000e+000	0.000000e+000	0.000000e+000
608555	2.701895e-001	5.474507e-001	-4.372430e-003	2.415867e-002	0.000000e+000	0.000000e+000	0.000000e+000	0.000000e+000
613510	2.681383e-001	5.497374e-001	-4.373955e-003	2.431537e-002	0.000000e+000	0.000000e+000	0.000000e+000	0.000000e+000
618465	2.658536e-001	5.520812e-001	-4.462243e-003	2.452259e-002	0.000000e+000	0.000000e+000	0.000000e+000	0.000000e+000
623420	2.637443e-001	5.543684e-001	-4.498971e-003	2.477270e-002	0.000000e+000	0.000000e+000	0.000000e+000	0.000000e+000
628375	2.614968e-001	5.568120e-001	-4.491512e-003	2.489749e-002	0.000000e+000	0.000000e+000	0.000000e+000	0.000000e+000
633330	2.594644e-001	5.589602e-001	-4.530538e-003	2.516706e-002	0.000000e+000	0.000000e+000	0.000000e+000	0.000000e+000
638285	2.573482e-001	5.612467e-001	-4.538153e-003	2.539401e-002	0.000000e+000	0.000000e+000	0.000000e+000	0.000000e+000
643240	2.551145e-001	5.634715e-001	-4.604336e-003	2.556397e-002	0.000000e+000	0.000000e+000	0.000000e+000	0.000000e+000
648195	2.529438e-001	5.658044e-001	-4.603131e-003	2.577089e-002	0.000000e+000	0.000000e+000	0.000000e+000	0.000000e+000
653150	2.508244e-001	5.679520e-001	-4.681289e-003	2.593711e-002	0.000000e+000	0.000000e+000	0.000000e+000	0.000000e+000
658105	2.487118e-001	5.702312e-001	-4.699331e-003	2.611028e-002	0.000000e+000	0.000000e+000	0.000000e+000	0.000000e+000
663060	2.465995e-001	5.723906e-001	-4.793246e-003	2.630851e-002	0.000000e+000	0.000000e+000	0.000000e+000	0.000000e+000
668015	2.445009e-001	5.745525e-001	-4.768383e-003	2.659746e-002	0.000000e+000	0.000000e+000	0.000000e+000	0.000000e+000
672970	2.422119e-001	5.767682e-001	-4.818380e-003	2.682030e-002	0.000000e+000	0.000000e+000	0.000000e+000	0.000000e+000
677925	2.400972e-001	5.788546e-001	-4.800745e-003	2.696372e-002	0.000000e+000	0.000000e+000	0.000000e+000	0.000000e+000
682880	2.379415e-001	5.810433e-001	-4.897602e-003	2.714227e-002	0.000000e+000	0.000000e+000	0.000000e+000	0.000000e+000
687835	2.358579e-001	5.830992e-001	-4.906062e-003	2.737656e-002	0.000000e+000	0.000000e+000	0.000000e+000	0.000000e+000
692790	2.336133e-001	5.851805e-001	-4.958702e-003	2.755907e-002	0.000000e+000	0.000000e+000	0.000000e+000	0.000000e+000
697745	2.314720e-001	5.872258e-001	-4.951740e-003	2.775021e-002	0.000000e+000	0.000000e+000	0.000000e+000	0.000000e+000
702700	2.293497e-001	5.892768e-001	-4.984457e-003	2.794003e-002	0.000000e+000	0.000000e+000	0.000000e+000	0.000000e+000
707655	2.271057e-001	5.913232e-001	-5.014003e-003	2.815021e-002	0.000000e+000	0.000000e+000	0.000000e+000	0.000000e+000
712610	2.248780e-001	5.933016e-001	-5.043920e-003	2.829341e-002	0.000000e+000	0.000000e+000	0.000000e+000	0.000000e+000
717565	2.227973e-001	5.954288e-001	-5.090048e-003	2.853423e-002	0.000000e+000	0.000000e+000	0.000000e+000	0.000000e+000
722520	2.205075e-001	5.970431e-001	-5.094361e-003	2.894506e-002	0.000000e+000	0.000000e+000	0.000000e+000	0.000000e+000
727475	2.183503e-001	5.993849e-001	-5.152399e-003	2.887316e-002	0.000000e+000	0.000000e+000	0.000000e+000	0.000000e+000
732430	2.161479e-001	6.012931e-001	-5.251248e-003	2.916829e-002	0.000000e+000	0.000000e+000	0.000000e+000	0.000000e+000
737385	2.138611e-001	6.032121e-001	-5.229216e-003	2.926825e-002	0.000000e+000	0.000000e+000	0.000000e+000	0.000000e+000
742340	2.116801e-001	6.051681e-001	-5.299200e-003	2.947806e-002	0.000000e+000	0.000000e+000	0.000000e+000	0.000000e+000
747295	2.094427e-001	6.071987e-001	-5.320712e-003	2.975095e-002	0.000000e+000	0.000000e+000	0.000000e+000	0.000000e+000
752250	2.070167e-001	6.091908e-001	-5.333885e-003	2.989318e-002	0.000000e+000	0.000000e+000	0.000000e+000	0.000000e+000
757205	2.047586e-001	6.110756e-001	-5.415157e-003	3.006676e-002	0.000000e+000	0.000000e+000	0.000000e+000	0.000000e+000
762160	2.025804e-001	6.128169e-001	-5.471180e-003	3.022123e-002	0.000000e+000	0.000000e+000	0.000000e+000	0.000000e+000
767115	2.002031e-001	6.147667e-001	-5.494514e-003	3.041929e-002	0.000000e+000	0.000000e+000	0.000000e+000	0.000000e+000
772070	1.978431e-001	6.165825e-001	-5.515836e-003	3.061250e-002	0.000000e+000	0.000000e+000	0.000000e+000	0.000000e+000
777025	1.956210e-001	6.184059e-001	-5.544527e-003	3.088410e-002	0.000000e+000	0.000000e+000	0.000000e+000	0.000000e+000
781980	1.931991e-001	6.205086e-001	-5.582273e-003	3.098970e-002	0.000000e+000	0.000000e+000	0.000000e+000	0.000000e+000
786935	1.908925e-001	6.222147e-001	-5.650146e-003	3.113326e-002	0.000000e+000	0.000000e+000	0.000000e+000	0.000000e+000
791890	1.886110e-001	6.240355e-001	-5.719716e-003	3.131237e-002	0.000000e+000	0.000000e+000	0.000000e+000	0.000000e+000
796845	1.862184e-001	6.258487e-001	-5.693810e-003	3.150692e-002	0.000000e+000	0.000000e+000	0.000000e+000	0.000000e+000
801800	1.838393e-001	6.275183e-001	-5.793182e-003	3.173053e-002	0.000000e+000	0.000000e+000	0.000000e+000	0.000000e+000
806755	1.813724e-001	6.293469e-001	-5.795710e-003	3.192344e-002	0.000000e+000	0.000000e+000	0.000000e+000	0.000000e+000
811710	1.789808e-001	6.311620e-001	-5.810236e-003	3.214648e-002	0.000000e+000	0.000000e+000	0.000000e+000	0.000000e+000
816665	1.766769e-001	6.329214e-001	-5.869026e-003	3.226837e-002	0.000000e+000	0.000000e+000	0.000000e+000	0.000000e+000
821620	1.742860e-001	6.346802e-001	-5.973418e-003	3.246720e-002	0.000000e+000	0.000000e+000	0.000000e+000	0.000000e+000
