!Agilent Technologies,E5071C,MY46109397,A.09.54
!Date: Mon Jan 01 02:01:41 2001
!Data & Calibration Information:
!Freq	S11:SOLT1(ON)	S21:RESPT(ON)	S12:NONE(--)	S22:NONE(--)
# Hz S RI R 50
9000	9.674947e-001	2.982546e-001	8.579980e-001	5.392698e-001	0.000000e+000	0.000000e+000	0.000000e+000	0.000000e+000
13955	9.614898e-001	4.148561e-001	-1.809723e-003	-2.248541e-003	0.000000e+000	0.000000e+000	0.000000e+000	0.000000e+000
18910	9.072260e-001	5.034972e-001	-7.156860e-005	-7.666087e-004	0.000000e+000	0.000000e+000	0.000000e+000	0.000000e+000
23865	8.330089e-001	5.974748e-001	7.104298e-004	-4.059076e-004	0.000000e+000	0.000000e+000	0.000000e+000	0.000000e+000
28820	7.696623e-001	6.762483e-001	-1.062826e-004	-8.895116e-004	0.000000e+000	0.000000e+000	0.000000e+000	0.000000e+000
33775	7.079556e-001	7.369205e-001	3.673104e-004	3.042364e-004	0.000000e+000	0.000000e+000	0.000000e+000	0.000000e+000
38730	6.517853e-001	7.866308e-001	-1.916653e-004	2.796059e-004	0.000000e+000	0.000000e+000	0.000000e+000	0.000000e+000
43685	6.018498e-001	8.245095e-001	-4.359814e-004	-4.854467e-005	0.000000e+000	0.000000e+000	0.000000e+000	0.000000e+000
48640	5.574652e-001	8.530211e-001	1.037159e-005	-9.909810e-005	0.000000e+000	0.000000e+000	0.000000e+000	0.000000e+000
53595	5.206365e-001	8.741970e-001	1.346725e-004	1.554992e-004	0.000000e+000	0.000000e+000	0.000000e+000	0.000000e+000
58550	4.895784e-001	8.894819e-001	-4.135679e-005	-1.343319e-005	0.000000e+000	0.000000e+000	0.000000e+000	0.000000e+000
63505	4.644682e-001	8.999359e-001	-2.515886e-004	-1.774915e-004	0.000000e+000	0.000000e+000	0.000000e+000	0.000000e+000
68460	4.448456e-001	9.064567e-001	-1.093117e-004	1.432249e-004	0.000000e+000	0.000000e+000	0.000000e+000	0.000000e+000
73415	4.298577e-001	9.095523e-001	-2.860611e-004	1.548252e-004	0.000000e+000	0.000000e+000	0.000000e+000	0.000000e+000
78370	4.188318e-001	9.100823e-001	-7.612063e-005	4.717219e-005	0.000000e+000	0.000000e+000	0.000000e+000	0.000000e+000
83325	4.113827e-001	9.083403e-001	-1.731952e-004	3.554057e-005	0.000000e+000	0.000000e+000	0.000000e+000	0.000000e+000
88280	4.065986e-001	9.049422e-001	-2.053513e-004	1.873929e-004	0.000000e+000	0.000000e+000	0.000000e+000	0.000000e+000
93235	4.047139e-001	8.998597e-001	-4.596997e-005	1.879427e-004	0.000000e+000	0.000000e+000	0.000000e+000	0.000000e+000
98190	4.044771e-001	8.937170e-001	-1.297207e-004	1.861930e-004	0.000000e+000	0.000000e+000	0.000000e+000	0.000000e+000
103145	4.058715e-001	8.864796e-001	-1.592979e-004	2.699903e-005	0.000000e+000	0.000000e+000	0.000000e+000	0.000000e+000
108100	4.086094e-001	8.781741e-001	-9.712249e-005	1.608276e-004	0.000000e+000	0.000000e+000	0.000000e+000	0.000000e+000
113055	4.123707e-001	8.691830e-001	-8.293969e-005	2.098496e-004	0.000000e+000	0.000000e+000	0.000000e+000	0.000000e+000
118010	4.166800e-001	8.595288e-001	-3.367696e-006	6.058848e-005	0.000000e+000	0.000000e+000	0.000000e+000	0.000000e+000
122965	4.219127e-001	8.493569e-001	-6.603613e-005	3.040701e-004	0.000000e+000	0.000000e+000	0.000000e+000	0.000000e+000
127920	4.271139e-001	8.387396e-001	-1.090590e-004	2.339241e-004	0.000000e+000	0.000000e+000	0.000000e+000	0.000000e+000
132875	4.327946e-001	8.280560e-001	-1.926903e-004	3.030889e-004	0.000000e+000	0.000000e+000	0.000000e+000	0.000000e+000
137830	4.384962e-001	8.169206e-001	-3.432185e-004	3.192335e-004	0.000000e+000	0.000000e+000	0.000000e+000	0.000000e+000
142785	4.442808e-001	8.055630e-001	-4.929342e-005	1.964245e-004	0.000000e+000	0.000000e+000	0.000000e+000	0.000000e+000
147740	4.498323e-001	7.941539e-001	-3.645260e-004	6.692101e-005	0.000000e+000	0.000000e+000	0.000000e+000	0.000000e+000
152695	4.552807e-001	7.827836e-001	-1.781428e-006	2.375044e-004	0.000000e+000	0.000000e+000	0.000000e+000	0.000000e+000
157650	4.606862e-001	7.712396e-001	-9.960015e-005	3.153641e-004	0.000000e+000	0.000000e+000	0.000000e+000	0.000000e+000
162605	4.657202e-001	7.597337e-001	-2.508714e-004	2.395550e-004	0.000000e+000	0.000000e+000	0.000000e+000	0.000000e+000
167560	4.705684e-001	7.483078e-001	-3.011010e-004	1.732429e-004	0.000000e+000	0.000000e+000	0.000000e+000	0.000000e+000
172515	4.751589e-001	7.369957e-001	-1.976695e-004	2.732955e-004	0.000000e+000	0.000000e+000	0.000000e+000	0.000000e+000
177470	4.794954e-001	7.258173e-001	-7.080901e-005	3.892413e-004	0.000000e+000	0.000000e+000	0.000000e+000	0.000000e+000
182425	4.833654e-001	7.146769e-001	-1.226638e-004	1.725516e-004	0.000000e+000	0.000000e+000	0.000000e+000	0.000000e+000
187380	4.869047e-001	7.035546e-001	-1.181154e-004	3.565264e-004	0.000000e+000	0.000000e+000	0.000000e+000	0.000000e+000
192335	4.902366e-001	6.927260e-001	-2.316309e-004	3.184774e-004	0.000000e+000	0.000000e+000	0.000000e+000	0.000000e+000
197290	4.932060e-001	6.820873e-001	-1.059604e-004	3.474767e-004	0.000000e+000	0.000000e+000	0.000000e+000	0.000000e+000
202245	4.957931e-001	6.714681e-001	-8.345065e-005	3.881408e-004	0.000000e+000	0.000000e+000	0.000000e+000	0.000000e+000
207200	4.980295e-001	6.611090e-001	-8.560997e-005	4.200997e-004	0.000000e+000	0.000000e+000	0.000000e+000	0.000000e+000
212155	5.000270e-001	6.510208e-001	-1.525575e-004	3.735688e-004	0.000000e+000	0.000000e+000	0.000000e+000	0.000000e+000
217110	5.014809e-001	6.409149e-001	-1.675181e-004	3.511884e-004	0.000000e+000	0.000000e+000	0.000000e+000	0.000000e+000
222065	5.025935e-001	6.313005e-001	-9.272868e-005	4.190584e-004	0.000000e+000	0.000000e+000	0.000000e+000	0.000000e+000
227020	5.034761e-001	6.218560e-001	-1.854589e-004	4.416563e-004	0.000000e+000	0.000000e+000	0.000000e+000	0.000000e+000
231975	5.038960e-001	6.124049e-001	-9.629629e-005	4.057594e-004	0.000000e+000	0.000000e+000	0.000000e+000	0.000000e+000
236930	5.040881e-001	6.032589e-001	-1.652349e-004	5.108800e-004	0.000000e+000	0.000000e+000	0.000000e+000	0.000000e+000
241885	5.037187e-001	5.945514e-001	-1.905141e-004	4.195814e-004	0.000000e+000	0.000000e+000	0.000000e+000	0.000000e+000
246840	5.031592e-001	5.859317e-001	-2.324533e-004	4.441385e-004	0.000000e+000	0.000000e+000	0.000000e+000	0.000000e+000
251795	5.021615e-001	5.775362e-001	-1.595749e-004	4.804739e-004	0.000000e+000	0.000000e+000	0.000000e+000	0.000000e+000
256750	5.008686e-001	5.695361e-001	-2.324600e-004	4.621705e-004	0.000000e+000	0.000000e+000	0.000000e+000	0.000000e+000
261705	4.993204e-001	5.618317e-001	-2.065683e-004	4.997759e-004	0.000000e+000	0.000000e+000	0.000000e+000	0.000000e+000
266660	4.972236e-001	5.544132e-001	-2.190046e-004	5.813495e-004	0.000000e+000	0.000000e+000	0.000000e+000	0.000000e+000
271615	4.950460e-001	5.473177e-001	-5.912812e-005	4.668992e-004	0.000000e+000	0.000000e+000	0.000000e+000	0.000000e+000
276570	4.925320e-001	5.404852e-001	-1.344586e-004	5.294754e-004	0.000000e+000	0.000000e+000	0.000000e+000	0.000000e+000
281525	4.896368e-001	5.340633e-001	-2.075103e-004	4.884054e-004	0.000000e+000	0.000000e+000	0.000000e+000	0.000000e+000
286480	4.865834e-001	5.277671e-001	-2.462504e-004	5.223492e-004	0.000000e+000	0.000000e+000	0.000000e+000	0.000000e+000
291435	4.832799e-001	5.218688e-001	-5.666458e-005	7.234168e-004	0.000000e+000	0.000000e+000	0.000000e+000	0.000000e+000
296390	4.796885e-001	5.164668e-001	-2.085840e-004	5.674401e-004	0.000000e+000	0.000000e+000	0.000000e+000	0.000000e+000
301345	4.758330e-001	5.113885e-001	-2.169763e-004	6.203695e-004	0.000000e+000	0.000000e+000	0.000000e+000	0.000000e+000
306300	4.718990e-001	5.065929e-001	-1.898595e-004	5.544649e-004	0.000000e+000	0.000000e+000	0.000000e+000	0.000000e+000
311255	4.677001e-001	5.022245e-001	-1.345701e-004	5.325334e-004	0.000000e+000	0.000000e+000	0.000000e+000	0.000000e+000
316210	4.634388e-001	4.981813e-001	-1.873836e-004	6.005852e-004	0.000000e+000	0.000000e+000	0.000000e+000	0.000000e+000
321165	4.589759e-001	4.946057e-001	-1.149136e-004	5.594598e-004	0.000000e+000	0.000000e+000	0.000000e+000	0.000000e+000
326120	4.543988e-001	4.912440e-001	-1.552106e-004	6.184820e-004	0.000000e+000	0.000000e+000	0.000000e+000	0.000000e+000
331075	4.496431e-001	4.882798e-001	-2.251531e-004	7.261744e-004	0.000000e+000	0.000000e+000	0.000000e+000	0.000000e+000
336030	4.450371e-001	4.856902e-001	-1.310914e-004	5.577529e-004	0.000000e+000	0.000000e+000	0.000000e+000	0.000000e+000
340985	4.402701e-001	4.834302e-001	-1.807214e-004	6.902376e-004	0.000000e+000	0.000000e+000	0.000000e+000	0.000000e+000
345940	4.354984e-001	4.815075e-001	-1.949657e-004	6.212138e-004	0.000000e+000	0.000000e+000	0.000000e+000	0.000000e+000
350895	4.308073e-001	4.798744e-001	-2.049797e-004	6.327464e-004	0.000000e+000	0.000000e+000	0.000000e+000	0.000000e+000
355850	4.260210e-001	4.786001e-001	-2.260609e-004	6.449990e-004	0.000000e+000	0.000000e+000	0.000000e+000	0.000000e+000
360805	4.213103e-001	4.775800e-001	-1.330597e-004	6.750251e-004	0.000000e+000	0.000000e+000	0.000000e+000	0.000000e+000
365760	4.164573e-001	4.767618e-001	-2.496191e-004	6.702094e-004	0.000000e+000	0.000000e+000	0.000000e+000	0.000000e+000
370715	4.118277e-001	4.761556e-001	-1.721414e-004	7.527091e-004	0.000000e+000	0.000000e+000	0.000000e+000	0.000000e+000
375670	4.071943e-001	4.758724e-001	-2.159464e-004	6.756922e-004	0.000000e+000	0.000000e+000	0.000000e+000	0.000000e+000
380625	4.026403e-001	4.757313e-001	-2.065781e-004	7.415584e-004	0.000000e+000	0.000000e+000	0.000000e+000	0.000000e+000
385580	3.980898e-001	4.758917e-001	-1.606264e-004	7.266979e-004	0.000000e+000	0.000000e+000	0.000000e+000	0.000000e+000
390535	3.936251e-001	4.762517e-001	-2.025411e-004	7.687931e-004	0.000000e+000	0.000000e+000	0.000000e+000	0.000000e+000
395490	3.892578e-001	4.767431e-001	-1.586585e-004	7.733560e-004	0.000000e+000	0.000000e+000	0.000000e+000	0.000000e+000
400445	3.848706e-001	4.774335e-001	-2.343118e-004	7.354468e-004	0.000000e+000	0.000000e+000	0.000000e+000	0.000000e+000
405400	3.806902e-001	4.782279e-001	-2.140787e-004	7.654322e-004	0.000000e+000	0.000000e+000	0.000000e+000	0.000000e+000
410355	3.764163e-001	4.792848e-001	-1.552863e-004	7.830907e-004	0.000000e+000	0.000000e+000	0.000000e+000	0.000000e+000
415310	3.723266e-001	4.804319e-001	-1.388117e-004	7.769866e-004	0.000000e+000	0.000000e+000	0.000000e+000	0.000000e+000
420265	3.682497e-001	4.817072e-001	-2.681197e-004	8.178034e-004	0.000000e+000	0.000000e+000	0.000000e+000	0.000000e+000
425220	3.642814e-001	4.831002e-001	-1.774710e-004	8.230942e-004	0.000000e+000	0.000000e+000	0.000000e+000	0.000000e+000
430175	3.603319e-001	4.845637e-001	-1.812799e-004	8.174768e-004	0.000000e+000	0.000000e+000	0.000000e+000	0.000000e+000
435130	3.566272e-001	4.862414e-001	-2.220419e-004	7.887122e-004	0.000000e+000	0.000000e+000	0.000000e+000	0.000000e+000
440085	3.527474e-001	4.878562e-001	-2.283477e-004	8.367979e-004	0.000000e+000	0.000000e+000	0.000000e+000	0.000000e+000
445040	3.489852e-001	4.897348e-001	-2.467626e-004	8.149960e-004	0.000000e+000	0.000000e+000	0.000000e+000	0.000000e+000
449995	3.453870e-001	4.916519e-001	-2.499959e-004	8.718121e-004	0.000000e+000	0.000000e+000	0.000000e+000	0.000000e+000
454950	3.418801e-001	4.935708e-001	-2.978719e-004	8.165166e-004	0.000000e+000	0.000000e+000	0.000000e+000	0.000000e+000
459905	3.382683e-001	4.956590e-001	-2.206481e-004	7.906267e-004	0.000000e+000	0.000000e+000	0.000000e+000	0.000000e+000
464860	3.348671e-001	4.976500e-001	-1.824375e-004	8.195163e-004	0.000000e+000	0.000000e+000	0.000000e+000	0.000000e+000
469815	3.314730e-001	4.998999e-001	-2.252094e-004	8.393159e-004	0.000000e+000	0.000000e+000	0.000000e+000	0.000000e+000
474770	3.281430e-001	5.021366e-001	-2.664084e-004	8.610778e-004	0.000000e+000	0.000000e+000	0.000000e+000	0.000000e+000
479725	3.249078e-001	5.044535e-001	-2.475423e-004	9.417196e-004	0.000000e+000	0.000000e+000	0.000000e+000	0.000000e+000
484680	3.216677e-001	5.067776e-001	-2.238740e-004	9.207464e-004	0.000000e+000	0.000000e+000	0.000000e+000	0.000000e+000
489635	3.184867e-001	5.090463e-001	-2.153192e-004	8.812708e-004	0.000000e+000	0.000000e+000	0.000000e+000	0.000000e+000
494590	3.154473e-001	5.113080e-001	-2.024002e-004	9.236357e-004	0.000000e+000	0.000000e+000	0.000000e+000	0.000000e+000
499545	3.124781e-001	5.137023e-001	-2.905002e-004	9.148023e-004	0.000000e+000	0.000000e+000	0.000000e+000	0.000000e+000
504500	3.094891e-001	5.161492e-001	-2.243978e-004	8.849393e-004	0.000000e+000	0.000000e+000	0.000000e+000	0.000000e+000
509455	3.065243e-001	5.186513e-001	-2.697436e-004	8.691662e-004	0.000000e+000	0.000000e+000	0.000000e+000	0.000000e+000
514410	3.037668e-001	5.211152e-001	-2.629287e-004	9.046973e-004	0.000000e+000	0.000000e+000	0.000000e+000	0.000000e+000
519365	3.009487e-001	5.236333e-001	-2.470681e-004	8.964604e-004	0.000000e+000	0.000000e+000	0.000000e+000	0.000000e+000
524320	2.981094e-001	5.262729e-001	-3.079602e-004	9.585281e-004	0.000000e+000	0.000000e+000	0.000000e+000	0.000000e+000
529275	2.953120e-001	5.286376e-001	-2.928309e-004	9.657587e-004	0.000000e+000	0.000000e+000	0.000000e+000	0.000000e+000
534230	2.925908e-001	5.312533e-001	-2.166718e-004	9.827286e-004	0.000000e+000	0.000000e+000	0.000000e+000	0.000000e+000
539185	2.899172e-001	5.337946e-001	-3.251327e-004	1.024007e-003	0.000000e+000	0.000000e+000	0.000000e+000	0.000000e+000
544140	2.871718e-001	5.362547e-001	-3.496894e-004	9.950533e-004	0.000000e+000	0.000000e+000	0.000000e+000	0.000000e+000
549095	2.846876e-001	5.387500e-001	-2.259890e-004	1.027068e-003	0.000000e+000	0.000000e+000	0.000000e+000	0.000000e+000
554050	2.820869e-001	5.413501e-001	-3.155844e-004	1.029769e-003	0.000000e+000	0.000000e+000	0.000000e+000	0.000000e+000
559005	2.795375e-001	5.437824e-001	-2.675501e-004	1.037502e-003	0.000000e+000	0.000000e+000	0.000000e+000	0.000000e+000
563960	2.770415e-001	5.463587e-001	-3.189062e-004	1.034157e-003	0.000000e+000	0.000000e+000	0.000000e+000	0.000000e+000
568915	2.744481e-001	5.487803e-001	-3.276512e-004	9.995701e-004	0.000000e+000	0.000000e+000	0.000000e+000	0.000000e+000
573870	2.720304e-001	5.513888e-001	-2.852641e-004	1.028639e-003	0.000000e+000	0.000000e+000	0.000000e+000	0.000000e+000
578825	2.695340e-001	5.538119e-001	-2.813306e-004	1.003349e-003	0.000000e+000	0.000000e+000	0.000000e+000	0.000000e+000
583780	2.670242e-001	5.562813e-001	-3.500591e-004	1.107390e-003	0.000000e+000	0.000000e+000	0.000000e+000	0.000000e+000
588735	2.645165e-001	5.587172e-001	-3.566034e-004	1.069348e-003	0.000000e+000	0.000000e+000	0.000000e+000	0.000000e+000
593690	2.623200e-001	5.611446e-001	-3.108134e-004	1.082259e-003	0.000000e+000	0.000000e+000	0.000000e+000	0.000000e+000
598645	2.598445e-001	5.636366e-001	-3.563975e-004	1.054644e-003	0.000000e+000	0.000000e+000	0.000000e+000	0.000000e+000
603600	2.574602e-001	5.661672e-001	-3.170371e-004	1.099154e-003	0.000000e+000	0.000000e+000	0.000000e+000	0.000000e+000
608555	2.551442e-001	5.685074e-001	-3.934337e-004	1.145874e-003	0.000000e+000	0.000000e+000	0.000000e+000	0.000000e+000
613510	2.528767e-001	5.708424e-001	-3.182917e-004	1.124348e-003	0.000000e+000	0.000000e+000	0.000000e+000	0.000000e+000
618465	2.503927e-001	5.732674e-001	-3.730984e-004	1.092644e-003	0.000000e+000	0.000000e+000	0.000000e+000	0.000000e+000
623420	2.481277e-001	5.756255e-001	-4.029071e-004	1.074864e-003	0.000000e+000	0.000000e+000	0.000000e+000	0.000000e+000
628375	2.456902e-001	5.781074e-001	-4.170111e-004	1.081301e-003	0.000000e+000	0.000000e+000	0.000000e+000	0.000000e+000
633330	2.434329e-001	5.802642e-001	-2.922138e-004	1.156623e-003	0.000000e+000	0.000000e+000	0.000000e+000	0.000000e+000
638285	2.411383e-001	5.826405e-001	-4.329083e-004	1.171274e-003	0.000000e+000	0.000000e+000	0.000000e+000	0.000000e+000
643240	2.387350e-001	5.849208e-001	-4.198522e-004	1.175582e-003	0.000000e+000	0.000000e+000	0.000000e+000	0.000000e+000
648195	2.363452e-001	5.872717e-001	-3.997446e-004	1.198271e-003	0.000000e+000	0.000000e+000	0.000000e+000	0.000000e+000
653150	2.340221e-001	5.895167e-001	-3.565643e-004	1.230950e-003	0.000000e+000	0.000000e+000	0.000000e+000	0.000000e+000
658105	2.317559e-001	5.918353e-001	-3.556502e-004	1.193678e-003	0.000000e+000	0.000000e+000	0.000000e+000	0.000000e+000
663060	2.294410e-001	5.940282e-001	-4.112224e-004	1.271838e-003	0.000000e+000	0.000000e+000	0.000000e+000	0.000000e+000
668015	2.271388e-001	5.962572e-001	-3.411032e-004	1.228397e-003	0.000000e+000	0.000000e+000	0.000000e+000	0.000000e+000
672970	2.247017e-001	5.984788e-001	-4.294106e-004	1.247716e-003	0.000000e+000	0.000000e+000	0.000000e+000	0.000000e+000
677925	2.223943e-001	6.006297e-001	-4.495342e-004	1.259319e-003	0.000000e+000	0.000000e+000	0.000000e+000	0.000000e+000
682880	2.200322e-001	6.028532e-001	-3.373864e-004	1.269556e-003	0.000000e+000	0.000000e+000	0.000000e+000	0.000000e+000
687835	2.177457e-001	6.049022e-001	-3.730078e-004	1.344708e-003	0.000000e+000	0.000000e+000	0.000000e+000	0.000000e+000
692790	2.153461e-001	6.070587e-001	-3.687971e-004	1.313451e-003	0.000000e+000	0.000000e+000	0.000000e+000	0.000000e+000
697745	2.129967e-001	6.090859e-001	-3.870862e-004	1.286668e-003	0.000000e+000	0.000000e+000	0.000000e+000	0.000000e+000
702700	2.106857e-001	6.112100e-001	-4.182726e-004	1.303815e-003	0.000000e+000	0.000000e+000	0.000000e+000	0.000000e+000
707655	2.082427e-001	6.132982e-001	-4.079902e-004	1.296282e-003	0.000000e+000	0.000000e+000	0.000000e+000	0.000000e+000
712610	2.058465e-001	6.152847e-001	-4.548473e-004	1.291214e-003	0.000000e+000	0.000000e+000	0.000000e+000	0.000000e+000
717565	2.035878e-001	6.174526e-001	-3.978551e-004	1.397219e-003	0.000000e+000	0.000000e+000	0.000000e+000	0.000000e+000
722520	2.010326e-001	6.190560e-001	-4.822220e-004	1.389900e-003	0.000000e+000	0.000000e+000	0.000000e+000	0.000000e+000
727475	1.987803e-001	6.213851e-001	-4.637736e-004	1.295337e-003	0.000000e+000	0.000000e+000	0.000000e+000	0.000000e+000
732430	1.963550e-001	6.233618e-001	-4.501293e-004	1.347757e-003	0.000000e+000	0.000000e+000	0.000000e+000	0.000000e+000
737385	1.939542e-001	6.252772e-001	-4.575353e-004	1.410269e-003	0.000000e+000	0.000000e+000	0.000000e+000	0.000000e+000
742340	1.915741e-001	6.272558e-001	-4.280187e-004	1.387948e-003	0.000000e+000	0.000000e+000	0.000000e+000	0.000000e+000
747295	1.891454e-001	6.292796e-001	-4.639744e-004	1.407324e-003	0.000000e+000	0.000000e+000	0.000000e+000	0.000000e+000
752250	1.865474e-001	6.313055e-001	-4.850324e-004	1.402521e-003	0.000000e+000	0.000000e+000	0.000000e+000	0.000000e+000
757205	1.840872e-001	6.331965e-001	-5.129677e-004	1.499041e-003	0.000000e+000	0.000000e+000	0.000000e+000	0.000000e+000
762160	1.817351e-001	6.349085e-001	-4.707966e-004	1.412557e-003	0.000000e+000	0.000000e+000	0.000000e+000	0.000000e+000
767115	1.791443e-001	6.369117e-001	-4.551633e-004	1.406157e-003	0.000000e+000	0.000000e+000	0.000000e+000	0.000000e+000
772070	1.766566e-001	6.387104e-001	-4.444829e-004	1.446190e-003	0.000000e+000	0.000000e+000	0.000000e+000	0.000000e+000
777025	1.742621e-001	6.405166e-001	-4.659630e-004	1.446655e-003	0.000000e+000	0.000000e+000	0.000000e+000	0.000000e+000
781980	1.716512e-001	6.425970e-001	-5.043473e-004	1.460423e-003	0.000000e+000	0.000000e+000	0.000000e+000	0.000000e+000
786935	1.691704e-001	6.443129e-001	-4.850591e-004	1.464835e-003	0.000000e+000	0.000000e+000	0.000000e+000	0.000000e+000
791890	1.666973e-001	6.461265e-001	-5.543939e-004	1.512627e-003	0.000000e+000	0.000000e+000	0.000000e+000	0.000000e+000
796845	1.641405e-001	6.479606e-001	-5.111530e-004	1.505350e-003	0.000000e+000	0.000000e+000	0.000000e+000	0.000000e+000
801800	1.615847e-001	6.496134e-001	-4.896693e-004	1.524014e-003	0.000000e+000	0.000000e+000	0.000000e+000	0.000000e+000
806755	1.589134e-001	6.513997e-001	-4.656645e-004	1.528507e-003	0.000000e+000	0.000000e+000	0.000000e+000	0.000000e+000
811710	1.563772e-001	6.531863e-001	-4.533899e-004	1.509444e-003	0.000000e+000	0.000000e+000	0.000000e+000	0.000000e+000
816665	1.538827e-001	6.549537e-001	-4.818125e-004	1.581455e-003	0.000000e+000	0.000000e+000	0.000000e+000	0.000000e+000
821620	1.512977e-001	6.566807e-001	-4.891787e-004	1.551057e-003	0.000000e+000	0.000000e+000	0.000000e+000	0.000000e+000
