!Agilent Technologies,E5071C,MY46109397,A.09.54
!Date: Mon Jan 01 02:20:39 2001
!Data & Calibration Information:
!Freq	S11:SOLT1(ON)	S21:RESPT(ON)	S12:NONE(--)	S22:NONE(--)
# Hz S RI R 50
9000	9.670239e-001	2.983335e-001	1.755088e+000	5.593503e-001	0.000000e+000	0.000000e+000	0.000000e+000	0.000000e+000
13955	9.615891e-001	4.145159e-001	-3.749007e-003	-1.432309e-003	0.000000e+000	0.000000e+000	0.000000e+000	0.000000e+000
18910	9.074012e-001	5.028295e-001	1.084433e-003	1.267512e-003	0.000000e+000	0.000000e+000	0.000000e+000	0.000000e+000
23865	8.336813e-001	5.961271e-001	8.216549e-004	5.276081e-004	0.000000e+000	0.000000e+000	0.000000e+000	0.000000e+000
28820	7.709623e-001	6.742374e-001	1.145426e-003	-6.865205e-006	0.000000e+000	0.000000e+000	0.000000e+000	0.000000e+000
33775	7.101208e-001	7.342327e-001	-7.629287e-004	3.733641e-005	0.000000e+000	0.000000e+000	0.000000e+000	0.000000e+000
38730	6.549281e-001	7.831051e-001	-2.200294e-004	9.193753e-004	0.000000e+000	0.000000e+000	0.000000e+000	0.000000e+000
43685	6.061253e-001	8.201399e-001	6.285457e-004	3.211095e-004	0.000000e+000	0.000000e+000	0.000000e+000	0.000000e+000
48640	5.629806e-001	8.478450e-001	7.840740e-005	-2.041310e-004	0.000000e+000	0.000000e+000	0.000000e+000	0.000000e+000
53595	5.274300e-001	8.681609e-001	-7.452128e-004	-3.096028e-004	0.000000e+000	0.000000e+000	0.000000e+000	0.000000e+000
58550	4.976754e-001	8.825652e-001	-2.594454e-004	2.632898e-005	0.000000e+000	0.000000e+000	0.000000e+000	0.000000e+000
63505	4.738024e-001	8.921197e-001	-8.493165e-005	-4.098208e-004	0.000000e+000	0.000000e+000	0.000000e+000	0.000000e+000
68460	4.553745e-001	8.977139e-001	4.050170e-004	9.889877e-005	0.000000e+000	0.000000e+000	0.000000e+000	0.000000e+000
73415	4.413994e-001	8.997675e-001	4.003250e-004	-3.008137e-004	0.000000e+000	0.000000e+000	0.000000e+000	0.000000e+000
78370	4.313076e-001	8.992715e-001	-1.607671e-004	2.380413e-005	0.000000e+000	0.000000e+000	0.000000e+000	0.000000e+000
83325	4.245506e-001	8.964962e-001	5.736886e-005	1.193495e-004	0.000000e+000	0.000000e+000	0.000000e+000	0.000000e+000
88280	4.203606e-001	8.920157e-001	-7.425913e-005	1.152051e-004	0.000000e+000	0.000000e+000	0.000000e+000	0.000000e+000
93235	4.188453e-001	8.859593e-001	5.566315e-005	2.087623e-004	0.000000e+000	0.000000e+000	0.000000e+000	0.000000e+000
98190	4.188044e-001	8.787249e-001	2.544485e-004	3.220291e-005	0.000000e+000	0.000000e+000	0.000000e+000	0.000000e+000
103145	4.201497e-001	8.705471e-001	1.240593e-004	5.069014e-004	0.000000e+000	0.000000e+000	0.000000e+000	0.000000e+000
108100	4.227698e-001	8.613598e-001	4.023507e-004	4.795240e-005	0.000000e+000	0.000000e+000	0.000000e+000	0.000000e+000
113055	4.262514e-001	8.516050e-001	-4.601220e-005	1.688094e-004	0.000000e+000	0.000000e+000	0.000000e+000	0.000000e+000
118010	4.302515e-001	8.412480e-001	-2.237869e-004	3.854068e-004	0.000000e+000	0.000000e+000	0.000000e+000	0.000000e+000
122965	4.350331e-001	8.304563e-001	-6.721032e-005	1.550349e-004	0.000000e+000	0.000000e+000	0.000000e+000	0.000000e+000
127920	4.397298e-001	8.193910e-001	-4.118031e-004	3.741887e-005	0.000000e+000	0.000000e+000	0.000000e+000	0.000000e+000
132875	4.448968e-001	8.082102e-001	-4.145930e-004	6.326031e-004	0.000000e+000	0.000000e+000	0.000000e+000	0.000000e+000
137830	4.499800e-001	7.967529e-001	-1.026560e-004	5.215743e-005	0.000000e+000	0.000000e+000	0.000000e+000	0.000000e+000
142785	4.551421e-001	7.851334e-001	-2.237060e-004	5.069991e-004	0.000000e+000	0.000000e+000	0.000000e+000	0.000000e+000
147740	4.601139e-001	7.735994e-001	-9.774185e-005	4.126935e-004	0.000000e+000	0.000000e+000	0.000000e+000	0.000000e+000
152695	4.649581e-001	7.620706e-001	1.171963e-004	4.055249e-004	0.000000e+000	0.000000e+000	0.000000e+000	0.000000e+000
157650	4.697633e-001	7.505082e-001	-1.488081e-004	6.070487e-004	0.000000e+000	0.000000e+000	0.000000e+000	0.000000e+000
162605	4.741811e-001	7.389779e-001	-1.715821e-004	4.424075e-004	0.000000e+000	0.000000e+000	0.000000e+000	0.000000e+000
167560	4.784240e-001	7.276039e-001	-3.088014e-004	4.849657e-004	0.000000e+000	0.000000e+000	0.000000e+000	0.000000e+000
172515	4.824641e-001	7.163713e-001	-4.511287e-004	4.806826e-004	0.000000e+000	0.000000e+000	0.000000e+000	0.000000e+000
177470	4.861903e-001	7.052749e-001	4.835315e-005	3.903851e-004	0.000000e+000	0.000000e+000	0.000000e+000	0.000000e+000
182425	4.895051e-001	6.942715e-001	-2.886344e-004	3.443002e-004	0.000000e+000	0.000000e+000	0.000000e+000	0.000000e+000
187380	4.925623e-001	6.833011e-001	-4.044491e-004	3.956008e-004	0.000000e+000	0.000000e+000	0.000000e+000	0.000000e+000
192335	4.952338e-001	6.726030e-001	-5.731723e-004	4.170514e-004	0.000000e+000	0.000000e+000	0.000000e+000	0.000000e+000
197290	4.976838e-001	6.622384e-001	-3.403984e-004	4.955232e-004	0.000000e+000	0.000000e+000	0.000000e+000	0.000000e+000
202245	4.996576e-001	6.518812e-001	-3.824022e-004	8.418762e-004	0.000000e+000	0.000000e+000	0.000000e+000	0.000000e+000
207200	5.013944e-001	6.417277e-001	-2.005376e-004	6.834826e-004	0.000000e+000	0.000000e+000	0.000000e+000	0.000000e+000
212155	5.028730e-001	6.318699e-001	-9.057686e-005	4.978717e-004	0.000000e+000	0.000000e+000	0.000000e+000	0.000000e+000
217110	5.037699e-001	6.221456e-001	-2.488370e-004	5.028536e-004	0.000000e+000	0.000000e+000	0.000000e+000	0.000000e+000
222065	5.043450e-001	6.127644e-001	-1.157482e-004	2.736455e-004	0.000000e+000	0.000000e+000	0.000000e+000	0.000000e+000
227020	5.046986e-001	6.036807e-001	-1.825292e-004	4.839788e-004	0.000000e+000	0.000000e+000	0.000000e+000	0.000000e+000
231975	5.046566e-001	5.946050e-001	-8.267428e-005	3.027268e-004	0.000000e+000	0.000000e+000	0.000000e+000	0.000000e+000
236930	5.043604e-001	5.858389e-001	-1.032222e-004	5.659655e-004	0.000000e+000	0.000000e+000	0.000000e+000	0.000000e+000
241885	5.035198e-001	5.775517e-001	-1.663443e-004	4.826224e-004	0.000000e+000	0.000000e+000	0.000000e+000	0.000000e+000
246840	5.024101e-001	5.693732e-001	-2.703509e-004	7.782968e-004	0.000000e+000	0.000000e+000	0.000000e+000	0.000000e+000
251795	5.010273e-001	5.613848e-001	-2.656233e-004	8.745895e-004	0.000000e+000	0.000000e+000	0.000000e+000	0.000000e+000
256750	4.993415e-001	5.539346e-001	-3.912967e-004	5.544100e-004	0.000000e+000	0.000000e+000	0.000000e+000	0.000000e+000
261705	4.974203e-001	5.467275e-001	-2.495399e-004	5.681998e-004	0.000000e+000	0.000000e+000	0.000000e+000	0.000000e+000
266660	4.949621e-001	5.396867e-001	-1.780855e-004	5.772120e-004	0.000000e+000	0.000000e+000	0.000000e+000	0.000000e+000
271615	4.923471e-001	5.332200e-001	-1.439595e-004	6.502651e-004	0.000000e+000	0.000000e+000	0.000000e+000	0.000000e+000
276570	4.895227e-001	5.270515e-001	-5.033606e-005	6.203399e-004	0.000000e+000	0.000000e+000	0.000000e+000	0.000000e+000
281525	4.864236e-001	5.211631e-001	-3.070276e-004	8.783574e-004	0.000000e+000	0.000000e+000	0.000000e+000	0.000000e+000
286480	4.830473e-001	5.154588e-001	-2.230352e-004	6.738331e-004	0.000000e+000	0.000000e+000	0.000000e+000	0.000000e+000
291435	4.795365e-001	5.101276e-001	-2.327161e-004	6.737804e-004	0.000000e+000	0.000000e+000	0.000000e+000	0.000000e+000
296390	4.758498e-001	5.053814e-001	-2.976397e-004	6.854840e-004	0.000000e+000	0.000000e+000	0.000000e+000	0.000000e+000
301345	4.717978e-001	5.009264e-001	1.059244e-004	9.307261e-004	0.000000e+000	0.000000e+000	0.000000e+000	0.000000e+000
306300	4.678604e-001	4.967050e-001	-2.886188e-004	7.401543e-004	0.000000e+000	0.000000e+000	0.000000e+000	0.000000e+000
311255	4.636304e-001	4.929004e-001	-1.507628e-004	8.611855e-004	0.000000e+000	0.000000e+000	0.000000e+000	0.000000e+000
316210	4.593525e-001	4.894835e-001	-1.399621e-004	9.124183e-004	0.000000e+000	0.000000e+000	0.000000e+000	0.000000e+000
321165	4.549080e-001	4.864787e-001	-1.639708e-004	8.613472e-004	0.000000e+000	0.000000e+000	0.000000e+000	0.000000e+000
326120	4.503729e-001	4.836177e-001	-1.592410e-004	8.479820e-004	0.000000e+000	0.000000e+000	0.000000e+000	0.000000e+000
331075	4.458525e-001	4.812281e-001	-2.620990e-004	8.190740e-004	0.000000e+000	0.000000e+000	0.000000e+000	0.000000e+000
336030	4.413239e-001	4.790782e-001	-2.132218e-004	7.991467e-004	0.000000e+000	0.000000e+000	0.000000e+000	0.000000e+000
340985	4.367073e-001	4.772636e-001	-3.080832e-004	8.502950e-004	0.000000e+000	0.000000e+000	0.000000e+000	0.000000e+000
345940	4.321395e-001	4.758259e-001	-3.252051e-004	7.831024e-004	0.000000e+000	0.000000e+000	0.000000e+000	0.000000e+000
350895	4.276784e-001	4.745498e-001	-2.206572e-004	9.619204e-004	0.000000e+000	0.000000e+000	0.000000e+000	0.000000e+000
355850	4.231002e-001	4.736503e-001	-3.081108e-004	8.461043e-004	0.000000e+000	0.000000e+000	0.000000e+000	0.000000e+000
360805	4.185641e-001	4.729502e-001	-2.466994e-004	7.118029e-004	0.000000e+000	0.000000e+000	0.000000e+000	0.000000e+000
365760	4.139372e-001	4.723543e-001	-1.422211e-004	1.041977e-003	0.000000e+000	0.000000e+000	0.000000e+000	0.000000e+000
370715	4.096130e-001	4.720536e-001	-1.707061e-004	9.539115e-004	0.000000e+000	0.000000e+000	0.000000e+000	0.000000e+000
375670	4.052082e-001	4.721452e-001	-4.197537e-004	1.101515e-003	0.000000e+000	0.000000e+000	0.000000e+000	0.000000e+000
380625	4.008782e-001	4.721905e-001	-1.293878e-004	8.964732e-004	0.000000e+000	0.000000e+000	0.000000e+000	0.000000e+000
385580	3.966108e-001	4.725243e-001	-2.843985e-004	8.482458e-004	0.000000e+000	0.000000e+000	0.000000e+000	0.000000e+000
390535	3.924043e-001	4.730813e-001	-1.901401e-004	9.321071e-004	0.000000e+000	0.000000e+000	0.000000e+000	0.000000e+000
395490	3.882819e-001	4.737706e-001	-2.323719e-004	1.039608e-003	0.000000e+000	0.000000e+000	0.000000e+000	0.000000e+000
400445	3.841138e-001	4.746136e-001	-2.364446e-004	1.033178e-003	0.000000e+000	0.000000e+000	0.000000e+000	0.000000e+000
405400	3.801630e-001	4.754696e-001	-2.074664e-004	1.146806e-003	0.000000e+000	0.000000e+000	0.000000e+000	0.000000e+000
410355	3.760584e-001	4.766490e-001	-1.488994e-004	8.697639e-004	0.000000e+000	0.000000e+000	0.000000e+000	0.000000e+000
415310	3.723116e-001	4.778686e-001	-2.161328e-004	1.081482e-003	0.000000e+000	0.000000e+000	0.000000e+000	0.000000e+000
420265	3.683339e-001	4.792921e-001	-3.010046e-004	1.016755e-003	0.000000e+000	0.000000e+000	0.000000e+000	0.000000e+000
425220	3.645096e-001	4.807131e-001	-1.430578e-004	9.031096e-004	0.000000e+000	0.000000e+000	0.000000e+000	0.000000e+000
430175	3.608180e-001	4.822001e-001	-3.064389e-004	1.010030e-003	0.000000e+000	0.000000e+000	0.000000e+000	0.000000e+000
435130	3.572182e-001	4.839666e-001	-4.527273e-004	1.084155e-003	0.000000e+000	0.000000e+000	0.000000e+000	0.000000e+000
440085	3.535313e-001	4.856033e-001	-3.236488e-004	1.111137e-003	0.000000e+000	0.000000e+000	0.000000e+000	0.000000e+000
445040	3.499534e-001	4.874126e-001	-1.976210e-004	1.105390e-003	0.000000e+000	0.000000e+000	0.000000e+000	0.000000e+000
449995	3.464709e-001	4.892573e-001	-2.074847e-004	1.088535e-003	0.000000e+000	0.000000e+000	0.000000e+000	0.000000e+000
454950	3.432184e-001	4.913286e-001	-3.308594e-004	1.059310e-003	0.000000e+000	0.000000e+000	0.000000e+000	0.000000e+000
459905	3.397708e-001	4.933927e-001	-2.602150e-004	1.031342e-003	0.000000e+000	0.000000e+000	0.000000e+000	0.000000e+000
464860	3.364045e-001	4.954459e-001	-2.778243e-004	1.082442e-003	0.000000e+000	0.000000e+000	0.000000e+000	0.000000e+000
469815	3.332068e-001	4.976123e-001	-2.958239e-004	1.069978e-003	0.000000e+000	0.000000e+000	0.000000e+000	0.000000e+000
474770	3.299802e-001	4.998079e-001	-3.082632e-004	1.186725e-003	0.000000e+000	0.000000e+000	0.000000e+000	0.000000e+000
479725	3.269310e-001	5.021071e-001	-3.245866e-004	1.175359e-003	0.000000e+000	0.000000e+000	0.000000e+000	0.000000e+000
484680	3.236916e-001	5.043396e-001	-2.824720e-004	1.253905e-003	0.000000e+000	0.000000e+000	0.000000e+000	0.000000e+000
489635	3.206917e-001	5.067112e-001	-1.778490e-004	1.304571e-003	0.000000e+000	0.000000e+000	0.000000e+000	0.000000e+000
494590	3.177006e-001	5.089223e-001	-3.750658e-004	1.161068e-003	0.000000e+000	0.000000e+000	0.000000e+000	0.000000e+000
499545	3.148195e-001	5.112252e-001	-4.208748e-004	1.277076e-003	0.000000e+000	0.000000e+000	0.000000e+000	0.000000e+000
504500	3.120165e-001	5.136011e-001	-2.626271e-004	1.210184e-003	0.000000e+000	0.000000e+000	0.000000e+000	0.000000e+000
509455	3.090852e-001	5.160845e-001	-4.074126e-004	1.215462e-003	0.000000e+000	0.000000e+000	0.000000e+000	0.000000e+000
514410	3.063766e-001	5.185507e-001	-3.963124e-004	1.158147e-003	0.000000e+000	0.000000e+000	0.000000e+000	0.000000e+000
519365	3.036064e-001	5.209916e-001	-2.671008e-004	1.282705e-003	0.000000e+000	0.000000e+000	0.000000e+000	0.000000e+000
524320	3.007758e-001	5.233472e-001	-2.714335e-004	1.286292e-003	0.000000e+000	0.000000e+000	0.000000e+000	0.000000e+000
529275	2.980897e-001	5.258931e-001	-2.179576e-004	1.365293e-003	0.000000e+000	0.000000e+000	0.000000e+000	0.000000e+000
534230	2.953562e-001	5.283167e-001	-3.174620e-004	1.343753e-003	0.000000e+000	0.000000e+000	0.000000e+000	0.000000e+000
539185	2.927955e-001	5.308688e-001	-2.875778e-004	1.262552e-003	0.000000e+000	0.000000e+000	0.000000e+000	0.000000e+000
544140	2.900947e-001	5.333143e-001	-4.621714e-004	1.378093e-003	0.000000e+000	0.000000e+000	0.000000e+000	0.000000e+000
549095	2.876526e-001	5.357550e-001	-2.468059e-004	1.423789e-003	0.000000e+000	0.000000e+000	0.000000e+000	0.000000e+000
554050	2.850245e-001	5.382704e-001	-3.395570e-004	1.390981e-003	0.000000e+000	0.000000e+000	0.000000e+000	0.000000e+000
559005	2.824983e-001	5.406479e-001	-3.901959e-004	1.294852e-003	0.000000e+000	0.000000e+000	0.000000e+000	0.000000e+000
563960	2.799754e-001	5.431998e-001	-3.130003e-004	1.459883e-003	0.000000e+000	0.000000e+000	0.000000e+000	0.000000e+000
568915	2.774587e-001	5.455648e-001	-4.960687e-004	1.391818e-003	0.000000e+000	0.000000e+000	0.000000e+000	0.000000e+000
573870	2.748318e-001	5.479470e-001	-2.351227e-004	1.372862e-003	0.000000e+000	0.000000e+000	0.000000e+000	0.000000e+000
578825	2.724872e-001	5.504899e-001	-4.050721e-004	1.324930e-003	0.000000e+000	0.000000e+000	0.000000e+000	0.000000e+000
583780	2.699270e-001	5.529278e-001	-4.144746e-004	1.326914e-003	0.000000e+000	0.000000e+000	0.000000e+000	0.000000e+000
588735	2.674455e-001	5.553514e-001	-3.753318e-004	1.495365e-003	0.000000e+000	0.000000e+000	0.000000e+000	0.000000e+000
593690	2.651669e-001	5.577403e-001	-3.709550e-004	1.449068e-003	0.000000e+000	0.000000e+000	0.000000e+000	0.000000e+000
598645	2.627052e-001	5.601677e-001	-4.775745e-004	1.408886e-003	0.000000e+000	0.000000e+000	0.000000e+000	0.000000e+000
603600	2.602551e-001	5.627003e-001	-4.025766e-004	1.577761e-003	0.000000e+000	0.000000e+000	0.000000e+000	0.000000e+000
608555	2.579210e-001	5.649353e-001	-2.951445e-004	1.413517e-003	0.000000e+000	0.000000e+000	0.000000e+000	0.000000e+000
613510	2.556062e-001	5.673139e-001	-3.790110e-004	1.459570e-003	0.000000e+000	0.000000e+000	0.000000e+000	0.000000e+000
618465	2.531655e-001	5.696453e-001	-4.483850e-004	1.514482e-003	0.000000e+000	0.000000e+000	0.000000e+000	0.000000e+000
623420	2.507966e-001	5.719261e-001	-3.415295e-004	1.599809e-003	0.000000e+000	0.000000e+000	0.000000e+000	0.000000e+000
628375	2.482253e-001	5.742112e-001	-4.031836e-004	1.734330e-003	0.000000e+000	0.000000e+000	0.000000e+000	0.000000e+000
633330	2.460545e-001	5.765275e-001	-3.520896e-004	1.671132e-003	0.000000e+000	0.000000e+000	0.000000e+000	0.000000e+000
638285	2.437195e-001	5.789266e-001	-4.422184e-004	1.664452e-003	0.000000e+000	0.000000e+000	0.000000e+000	0.000000e+000
643240	2.412242e-001	5.811262e-001	-4.553382e-004	1.590047e-003	0.000000e+000	0.000000e+000	0.000000e+000	0.000000e+000
648195	2.388640e-001	5.835143e-001	-5.309046e-004	1.671034e-003	0.000000e+000	0.000000e+000	0.000000e+000	0.000000e+000
653150	2.365178e-001	5.857553e-001	-4.462091e-004	1.710587e-003	0.000000e+000	0.000000e+000	0.000000e+000	0.000000e+000
658105	2.341683e-001	5.880254e-001	-3.078689e-004	1.722398e-003	0.000000e+000	0.000000e+000	0.000000e+000	0.000000e+000
663060	2.318244e-001	5.901711e-001	-5.283833e-004	1.626733e-003	0.000000e+000	0.000000e+000	0.000000e+000	0.000000e+000
668015	2.294862e-001	5.924051e-001	-3.904221e-004	1.647103e-003	0.000000e+000	0.000000e+000	0.000000e+000	0.000000e+000
672970	2.269521e-001	5.946663e-001	-5.102095e-004	1.652158e-003	0.000000e+000	0.000000e+000	0.000000e+000	0.000000e+000
677925	2.246034e-001	5.967615e-001	-4.930861e-004	1.618919e-003	0.000000e+000	0.000000e+000	0.000000e+000	0.000000e+000
682880	2.221945e-001	5.989554e-001	-4.597881e-004	1.732327e-003	0.000000e+000	0.000000e+000	0.000000e+000	0.000000e+000
687835	2.198866e-001	6.010077e-001	-5.685363e-004	1.708468e-003	0.000000e+000	0.000000e+000	0.000000e+000	0.000000e+000
692790	2.173218e-001	6.030331e-001	-5.416497e-004	1.734826e-003	0.000000e+000	0.000000e+000	0.000000e+000	0.000000e+000
697745	2.150558e-001	6.051333e-001	-5.522392e-004	1.748700e-003	0.000000e+000	0.000000e+000	0.000000e+000	0.000000e+000
702700	2.126762e-001	6.073698e-001	-4.446329e-004	1.697069e-003	0.000000e+000	0.000000e+000	0.000000e+000	0.000000e+000
707655	2.101793e-001	6.094345e-001	-5.603691e-004	1.752922e-003	0.000000e+000	0.000000e+000	0.000000e+000	0.000000e+000
712610	2.076803e-001	6.114685e-001	-5.474625e-004	1.774941e-003	0.000000e+000	0.000000e+000	0.000000e+000	0.000000e+000
717565	2.053851e-001	6.135785e-001	-4.237546e-004	1.769401e-003	0.000000e+000	0.000000e+000	0.000000e+000	0.000000e+000
722520	2.028013e-001	6.151703e-001	-6.366254e-004	1.795169e-003	0.000000e+000	0.000000e+000	0.000000e+000	0.000000e+000
727475	2.005226e-001	6.175704e-001	-4.418930e-004	1.786341e-003	0.000000e+000	0.000000e+000	0.000000e+000	0.000000e+000
732430	1.980788e-001	6.194774e-001	-5.314240e-004	1.861450e-003	0.000000e+000	0.000000e+000	0.000000e+000	0.000000e+000
737385	1.956471e-001	6.214333e-001	-4.152844e-004	1.751080e-003	0.000000e+000	0.000000e+000	0.000000e+000	0.000000e+000
742340	1.931812e-001	6.234331e-001	-5.813854e-004	1.804765e-003	0.000000e+000	0.000000e+000	0.000000e+000	0.000000e+000
747295	1.906679e-001	6.254793e-001	-4.888981e-004	1.828297e-003	0.000000e+000	0.000000e+000	0.000000e+000	0.000000e+000
752250	1.879676e-001	6.273468e-001	-4.908584e-004	1.749716e-003	0.000000e+000	0.000000e+000	0.000000e+000	0.000000e+000
757205	1.856430e-001	6.294062e-001	-6.149177e-004	1.850264e-003	0.000000e+000	0.000000e+000	0.000000e+000	0.000000e+000
762160	1.830996e-001	6.311839e-001	-5.441713e-004	1.892367e-003	0.000000e+000	0.000000e+000	0.000000e+000	0.000000e+000
767115	1.804922e-001	6.331873e-001	-4.639190e-004	1.914962e-003	0.000000e+000	0.000000e+000	0.000000e+000	0.000000e+000
772070	1.779616e-001	6.349134e-001	-5.509845e-004	1.856309e-003	0.000000e+000	0.000000e+000	0.000000e+000	0.000000e+000
777025	1.755052e-001	6.367757e-001	-5.834305e-004	1.950115e-003	0.000000e+000	0.000000e+000	0.000000e+000	0.000000e+000
781980	1.728846e-001	6.387432e-001	-6.653947e-004	1.936485e-003	0.000000e+000	0.000000e+000	0.000000e+000	0.000000e+000
786935	1.704177e-001	6.405979e-001	-6.652896e-004	1.953950e-003	0.000000e+000	0.000000e+000	0.000000e+000	0.000000e+000
791890	1.679099e-001	6.424358e-001	-5.536112e-004	1.942461e-003	0.000000e+000	0.000000e+000	0.000000e+000	0.000000e+000
796845	1.652396e-001	6.443054e-001	-6.732383e-004	1.890570e-003	0.000000e+000	0.000000e+000	0.000000e+000	0.000000e+000
801800	1.625984e-001	6.459548e-001	-6.180920e-004	1.952701e-003	0.000000e+000	0.000000e+000	0.000000e+000	0.000000e+000
806755	1.599564e-001	6.477947e-001	-5.787658e-004	2.082814e-003	0.000000e+000	0.000000e+000	0.000000e+000	0.000000e+000
811710	1.572906e-001	6.495965e-001	-6.663884e-004	2.029798e-003	0.000000e+000	0.000000e+000	0.000000e+000	0.000000e+000
816665	1.548186e-001	6.513888e-001	-6.404339e-004	2.029549e-003	0.000000e+000	0.000000e+000	0.000000e+000	0.000000e+000
821620	1.522222e-001	6.531485e-001	-5.286648e-004	2.106871e-003	0.000000e+000	0.000000e+000	0.000000e+000	0.000000e+000
