!Agilent Technologies,E5071C,MY46109397,A.09.54
!Date: Mon Jan 01 02:00:13 2001
!Data & Calibration Information:
!Freq	S11:SOLT1(ON)	S21:RESPT(ON)	S12:NONE(--)	S22:NONE(--)
# Hz S RI R 50
9000	9.671944e-001	3.038692e-001	9.952891e-001	-1.083064e-002	0.000000e+000	0.000000e+000	0.000000e+000	0.000000e+000
13955	9.594547e-001	4.239504e-001	1.001234e+000	-1.048974e-002	0.000000e+000	0.000000e+000	0.000000e+000	0.000000e+000
18910	8.990023e-001	5.218059e-001	1.000993e+000	-6.548611e-003	0.000000e+000	0.000000e+000	0.000000e+000	0.000000e+000
23865	8.115554e-001	6.303656e-001	9.984902e-001	-4.155648e-003	0.000000e+000	0.000000e+000	0.000000e+000	0.000000e+000
28820	7.289167e-001	7.257585e-001	9.989850e-001	-4.179638e-003	0.000000e+000	0.000000e+000	0.000000e+000	0.000000e+000
33775	6.401223e-001	8.037656e-001	9.980231e-001	-3.794871e-003	0.000000e+000	0.000000e+000	0.000000e+000	0.000000e+000
38730	5.501254e-001	8.706851e-001	9.997025e-001	-3.592454e-003	0.000000e+000	0.000000e+000	0.000000e+000	0.000000e+000
43685	4.599244e-001	9.241621e-001	1.000776e+000	-2.986961e-003	0.000000e+000	0.000000e+000	0.000000e+000	0.000000e+000
48640	3.699964e-001	9.654369e-001	9.997968e-001	-2.158828e-003	0.000000e+000	0.000000e+000	0.000000e+000	0.000000e+000
53595	2.838180e-001	9.969654e-001	1.000458e+000	-2.219401e-003	0.000000e+000	0.000000e+000	0.000000e+000	0.000000e+000
58550	2.006723e-001	1.019197e+000	1.000668e+000	-1.936355e-003	0.000000e+000	0.000000e+000	0.000000e+000	0.000000e+000
63505	1.216959e-001	1.033727e+000	1.000579e+000	-1.823308e-003	0.000000e+000	0.000000e+000	0.000000e+000	0.000000e+000
68460	4.758934e-002	1.041761e+000	1.000324e+000	-1.129921e-003	0.000000e+000	0.000000e+000	0.000000e+000	0.000000e+000
73415	-2.164255e-002	1.044329e+000	1.000727e+000	-1.588199e-003	0.000000e+000	0.000000e+000	0.000000e+000	0.000000e+000
78370	-8.618512e-002	1.042346e+000	1.000543e+000	-1.317876e-003	0.000000e+000	0.000000e+000	0.000000e+000	0.000000e+000
83325	-1.461035e-001	1.036740e+000	1.000497e+000	-7.754392e-004	0.000000e+000	0.000000e+000	0.000000e+000	0.000000e+000
88280	-2.016489e-001	1.028420e+000	1.000964e+000	-6.230465e-004	0.000000e+000	0.000000e+000	0.000000e+000	0.000000e+000
93235	-2.523998e-001	1.017870e+000	1.000567e+000	-1.149640e-003	0.000000e+000	0.000000e+000	0.000000e+000	0.000000e+000
98190	-2.997467e-001	1.005775e+000	1.001075e+000	-8.131490e-004	0.000000e+000	0.000000e+000	0.000000e+000	0.000000e+000
103145	-3.433620e-001	9.922673e-001	1.000772e+000	-7.892417e-004	0.000000e+000	0.000000e+000	0.000000e+000	0.000000e+000
108100	-3.832912e-001	9.777981e-001	1.001025e+000	-1.003675e-003	0.000000e+000	0.000000e+000	0.000000e+000	0.000000e+000
113055	-4.201016e-001	9.627747e-001	1.000593e+000	-6.871267e-004	0.000000e+000	0.000000e+000	0.000000e+000	0.000000e+000
118010	-4.539821e-001	9.471842e-001	1.000717e+000	-6.887754e-004	0.000000e+000	0.000000e+000	0.000000e+000	0.000000e+000
122965	-4.849649e-001	9.317465e-001	1.000676e+000	-8.092608e-004	0.000000e+000	0.000000e+000	0.000000e+000	0.000000e+000
127920	-5.136437e-001	9.159279e-001	1.000900e+000	-4.128041e-004	0.000000e+000	0.000000e+000	0.000000e+000	0.000000e+000
132875	-5.401676e-001	9.003354e-001	1.000760e+000	-7.841769e-004	0.000000e+000	0.000000e+000	0.000000e+000	0.000000e+000
137830	-5.646250e-001	8.848208e-001	1.001066e+000	-4.168379e-004	0.000000e+000	0.000000e+000	0.000000e+000	0.000000e+000
142785	-5.870301e-001	8.695116e-001	1.000731e+000	-6.634694e-004	0.000000e+000	0.000000e+000	0.000000e+000	0.000000e+000
147740	-6.079149e-001	8.545597e-001	1.001012e+000	-1.987055e-004	0.000000e+000	0.000000e+000	0.000000e+000	0.000000e+000
152695	-6.271802e-001	8.398566e-001	1.001026e+000	-6.229532e-004	0.000000e+000	0.000000e+000	0.000000e+000	0.000000e+000
157650	-6.449786e-001	8.254770e-001	1.001215e+000	-4.499689e-004	0.000000e+000	0.000000e+000	0.000000e+000	0.000000e+000
162605	-6.614763e-001	8.114568e-001	1.001084e+000	-6.417991e-004	0.000000e+000	0.000000e+000	0.000000e+000	0.000000e+000
167560	-6.767790e-001	7.978897e-001	1.001441e+000	-6.385275e-004	0.000000e+000	0.000000e+000	0.000000e+000	0.000000e+000
172515	-6.910224e-001	7.847153e-001	1.001182e+000	-6.852486e-004	0.000000e+000	0.000000e+000	0.000000e+000	0.000000e+000
177470	-7.042982e-001	7.719029e-001	1.001035e+000	-7.324977e-004	0.000000e+000	0.000000e+000	0.000000e+000	0.000000e+000
182425	-7.165953e-001	7.594457e-001	1.001169e+000	-6.713960e-004	0.000000e+000	0.000000e+000	0.000000e+000	0.000000e+000
187380	-7.278443e-001	7.473198e-001	1.001115e+000	-3.698083e-004	0.000000e+000	0.000000e+000	0.000000e+000	0.000000e+000
192335	-7.384889e-001	7.356953e-001	1.001258e+000	-2.454467e-004	0.000000e+000	0.000000e+000	0.000000e+000	0.000000e+000
197290	-7.484700e-001	7.244359e-001	1.001216e+000	-5.081428e-004	0.000000e+000	0.000000e+000	0.000000e+000	0.000000e+000
202245	-7.576916e-001	7.134963e-001	1.001205e+000	-4.903383e-004	0.000000e+000	0.000000e+000	0.000000e+000	0.000000e+000
207200	-7.662990e-001	7.028034e-001	1.001397e+000	-7.161311e-004	0.000000e+000	0.000000e+000	0.000000e+000	0.000000e+000
212155	-7.744599e-001	6.927163e-001	1.001296e+000	-5.970977e-004	0.000000e+000	0.000000e+000	0.000000e+000	0.000000e+000
217110	-7.818932e-001	6.827931e-001	1.001345e+000	-5.621736e-004	0.000000e+000	0.000000e+000	0.000000e+000	0.000000e+000
222065	-7.890247e-001	6.731382e-001	1.001302e+000	-6.065776e-004	0.000000e+000	0.000000e+000	0.000000e+000	0.000000e+000
227020	-7.957405e-001	6.639625e-001	1.001388e+000	-6.526104e-004	0.000000e+000	0.000000e+000	0.000000e+000	0.000000e+000
231975	-8.018794e-001	6.549442e-001	1.001436e+000	-7.329174e-004	0.000000e+000	0.000000e+000	0.000000e+000	0.000000e+000
236930	-8.076486e-001	6.463560e-001	1.001254e+000	-7.227475e-004	0.000000e+000	0.000000e+000	0.000000e+000	0.000000e+000
241885	-8.131292e-001	6.379184e-001	1.001537e+000	-6.624672e-004	0.000000e+000	0.000000e+000	0.000000e+000	0.000000e+000
246840	-8.181479e-001	6.298226e-001	1.001369e+000	-7.784082e-004	0.000000e+000	0.000000e+000	0.000000e+000	0.000000e+000
251795	-8.229369e-001	6.219313e-001	1.001153e+000	-6.947030e-004	0.000000e+000	0.000000e+000	0.000000e+000	0.000000e+000
256750	-8.274829e-001	6.143473e-001	1.001331e+000	-7.693666e-004	0.000000e+000	0.000000e+000	0.000000e+000	0.000000e+000
261705	-8.317051e-001	6.069436e-001	1.001298e+000	-5.842446e-004	0.000000e+000	0.000000e+000	0.000000e+000	0.000000e+000
266660	-8.357701e-001	5.997684e-001	1.001474e+000	-7.637009e-004	0.000000e+000	0.000000e+000	0.000000e+000	0.000000e+000
271615	-8.395303e-001	5.928623e-001	1.001421e+000	-9.171700e-004	0.000000e+000	0.000000e+000	0.000000e+000	0.000000e+000
276570	-8.430251e-001	5.861443e-001	1.001537e+000	-8.808235e-004	0.000000e+000	0.000000e+000	0.000000e+000	0.000000e+000
281525	-8.463758e-001	5.795346e-001	1.001480e+000	-8.687689e-004	0.000000e+000	0.000000e+000	0.000000e+000	0.000000e+000
286480	-8.493941e-001	5.732906e-001	1.001537e+000	-1.022223e-003	0.000000e+000	0.000000e+000	0.000000e+000	0.000000e+000
291435	-8.523621e-001	5.671605e-001	1.001366e+000	-8.423918e-004	0.000000e+000	0.000000e+000	0.000000e+000	0.000000e+000
296390	-8.551693e-001	5.612176e-001	1.001418e+000	-9.553209e-004	0.000000e+000	0.000000e+000	0.000000e+000	0.000000e+000
301345	-8.577420e-001	5.553722e-001	1.001497e+000	-9.489405e-004	0.000000e+000	0.000000e+000	0.000000e+000	0.000000e+000
306300	-8.602247e-001	5.498406e-001	1.001475e+000	-1.087821e-003	0.000000e+000	0.000000e+000	0.000000e+000	0.000000e+000
311255	-8.625699e-001	5.443042e-001	1.001491e+000	-9.612751e-004	0.000000e+000	0.000000e+000	0.000000e+000	0.000000e+000
316210	-8.646933e-001	5.390435e-001	1.001593e+000	-9.788518e-004	0.000000e+000	0.000000e+000	0.000000e+000	0.000000e+000
321165	-8.668501e-001	5.338871e-001	1.001346e+000	-9.904922e-004	0.000000e+000	0.000000e+000	0.000000e+000	0.000000e+000
326120	-8.687579e-001	5.288808e-001	1.001554e+000	-1.142320e-003	0.000000e+000	0.000000e+000	0.000000e+000	0.000000e+000
331075	-8.705627e-001	5.239537e-001	1.001503e+000	-8.678479e-004	0.000000e+000	0.000000e+000	0.000000e+000	0.000000e+000
336030	-8.722891e-001	5.192268e-001	1.001413e+000	-1.075490e-003	0.000000e+000	0.000000e+000	0.000000e+000	0.000000e+000
340985	-8.739628e-001	5.146183e-001	1.001502e+000	-1.136424e-003	0.000000e+000	0.000000e+000	0.000000e+000	0.000000e+000
345940	-8.755732e-001	5.101303e-001	1.001596e+000	-1.117132e-003	0.000000e+000	0.000000e+000	0.000000e+000	0.000000e+000
350895	-8.770074e-001	5.058572e-001	1.001454e+000	-1.138550e-003	0.000000e+000	0.000000e+000	0.000000e+000	0.000000e+000
355850	-8.784515e-001	5.016036e-001	1.001498e+000	-1.080574e-003	0.000000e+000	0.000000e+000	0.000000e+000	0.000000e+000
360805	-8.797647e-001	4.974887e-001	1.001491e+000	-1.268426e-003	0.000000e+000	0.000000e+000	0.000000e+000	0.000000e+000
365760	-8.810470e-001	4.933725e-001	1.001409e+000	-1.422048e-003	0.000000e+000	0.000000e+000	0.000000e+000	0.000000e+000
370715	-8.821731e-001	4.894981e-001	1.001559e+000	-1.204790e-003	0.000000e+000	0.000000e+000	0.000000e+000	0.000000e+000
375670	-8.832477e-001	4.856471e-001	1.001403e+000	-1.395116e-003	0.000000e+000	0.000000e+000	0.000000e+000	0.000000e+000
380625	-8.842856e-001	4.819699e-001	1.001346e+000	-1.359111e-003	0.000000e+000	0.000000e+000	0.000000e+000	0.000000e+000
385580	-8.853103e-001	4.783094e-001	1.001450e+000	-1.317293e-003	0.000000e+000	0.000000e+000	0.000000e+000	0.000000e+000
390535	-8.862604e-001	4.747347e-001	1.001529e+000	-1.337712e-003	0.000000e+000	0.000000e+000	0.000000e+000	0.000000e+000
395490	-8.871555e-001	4.713028e-001	1.001413e+000	-1.370185e-003	0.000000e+000	0.000000e+000	0.000000e+000	0.000000e+000
400445	-8.880590e-001	4.678870e-001	1.001473e+000	-1.551094e-003	0.000000e+000	0.000000e+000	0.000000e+000	0.000000e+000
405400	-8.888475e-001	4.645871e-001	1.001472e+000	-1.365314e-003	0.000000e+000	0.000000e+000	0.000000e+000	0.000000e+000
410355	-8.895913e-001	4.614082e-001	1.001411e+000	-1.452489e-003	0.000000e+000	0.000000e+000	0.000000e+000	0.000000e+000
415310	-8.903020e-001	4.582935e-001	1.001449e+000	-1.489122e-003	0.000000e+000	0.000000e+000	0.000000e+000	0.000000e+000
420265	-8.910424e-001	4.552018e-001	1.001467e+000	-1.470862e-003	0.000000e+000	0.000000e+000	0.000000e+000	0.000000e+000
425220	-8.916219e-001	4.522644e-001	1.001442e+000	-1.443992e-003	0.000000e+000	0.000000e+000	0.000000e+000	0.000000e+000
430175	-8.922241e-001	4.493638e-001	1.001530e+000	-1.622300e-003	0.000000e+000	0.000000e+000	0.000000e+000	0.000000e+000
435130	-8.927708e-001	4.466047e-001	1.001564e+000	-1.678799e-003	0.000000e+000	0.000000e+000	0.000000e+000	0.000000e+000
440085	-8.933259e-001	4.436677e-001	1.001421e+000	-1.608078e-003	0.000000e+000	0.000000e+000	0.000000e+000	0.000000e+000
445040	-8.938809e-001	4.409941e-001	1.001489e+000	-1.671205e-003	0.000000e+000	0.000000e+000	0.000000e+000	0.000000e+000
449995	-8.943164e-001	4.383674e-001	1.001442e+000	-1.647309e-003	0.000000e+000	0.000000e+000	0.000000e+000	0.000000e+000
454950	-8.948400e-001	4.358568e-001	1.001456e+000	-1.775270e-003	0.000000e+000	0.000000e+000	0.000000e+000	0.000000e+000
459905	-8.952572e-001	4.332643e-001	1.001476e+000	-1.689672e-003	0.000000e+000	0.000000e+000	0.000000e+000	0.000000e+000
464860	-8.956271e-001	4.308343e-001	1.001365e+000	-1.718279e-003	0.000000e+000	0.000000e+000	0.000000e+000	0.000000e+000
469815	-8.960579e-001	4.284050e-001	1.001500e+000	-1.728462e-003	0.000000e+000	0.000000e+000	0.000000e+000	0.000000e+000
474770	-8.963724e-001	4.260471e-001	1.001532e+000	-1.770374e-003	0.000000e+000	0.000000e+000	0.000000e+000	0.000000e+000
479725	-8.967539e-001	4.237180e-001	1.001333e+000	-1.948440e-003	0.000000e+000	0.000000e+000	0.000000e+000	0.000000e+000
484680	-8.970268e-001	4.215451e-001	1.001425e+000	-1.776734e-003	0.000000e+000	0.000000e+000	0.000000e+000	0.000000e+000
489635	-8.974076e-001	4.192220e-001	1.001280e+000	-1.854282e-003	0.000000e+000	0.000000e+000	0.000000e+000	0.000000e+000
494590	-8.975509e-001	4.170660e-001	1.001439e+000	-1.892453e-003	0.000000e+000	0.000000e+000	0.000000e+000	0.000000e+000
499545	-8.978953e-001	4.150991e-001	1.001391e+000	-1.744737e-003	0.000000e+000	0.000000e+000	0.000000e+000	0.000000e+000
504500	-8.981178e-001	4.129847e-001	1.001358e+000	-1.818865e-003	0.000000e+000	0.000000e+000	0.000000e+000	0.000000e+000
509455	-8.983769e-001	4.109066e-001	1.001311e+000	-1.907537e-003	0.000000e+000	0.000000e+000	0.000000e+000	0.000000e+000
514410	-8.985893e-001	4.089924e-001	1.001399e+000	-1.835789e-003	0.000000e+000	0.000000e+000	0.000000e+000	0.000000e+000
519365	-8.988092e-001	4.070960e-001	1.001237e+000	-1.965552e-003	0.000000e+000	0.000000e+000	0.000000e+000	0.000000e+000
524320	-8.989793e-001	4.052142e-001	1.001336e+000	-1.910258e-003	0.000000e+000	0.000000e+000	0.000000e+000	0.000000e+000
529275	-8.991194e-001	4.033690e-001	1.001254e+000	-1.933574e-003	0.000000e+000	0.000000e+000	0.000000e+000	0.000000e+000
534230	-8.993196e-001	4.015782e-001	1.001218e+000	-2.001264e-003	0.000000e+000	0.000000e+000	0.000000e+000	0.000000e+000
539185	-8.994924e-001	3.998237e-001	1.001264e+000	-2.041199e-003	0.000000e+000	0.000000e+000	0.000000e+000	0.000000e+000
544140	-8.995704e-001	3.980188e-001	1.001266e+000	-2.018824e-003	0.000000e+000	0.000000e+000	0.000000e+000	0.000000e+000
549095	-8.997123e-001	3.963985e-001	1.001314e+000	-2.017790e-003	0.000000e+000	0.000000e+000	0.000000e+000	0.000000e+000
554050	-8.998608e-001	3.946861e-001	1.001260e+000	-1.983643e-003	0.000000e+000	0.000000e+000	0.000000e+000	0.000000e+000
559005	-8.998999e-001	3.931231e-001	1.001159e+000	-2.108608e-003	0.000000e+000	0.000000e+000	0.000000e+000	0.000000e+000
563960	-9.000171e-001	3.914955e-001	1.001251e+000	-2.036851e-003	0.000000e+000	0.000000e+000	0.000000e+000	0.000000e+000
568915	-9.000853e-001	3.899450e-001	1.001161e+000	-2.075699e-003	0.000000e+000	0.000000e+000	0.000000e+000	0.000000e+000
573870	-9.001535e-001	3.884489e-001	1.001211e+000	-2.199638e-003	0.000000e+000	0.000000e+000	0.000000e+000	0.000000e+000
578825	-9.001616e-001	3.869728e-001	1.001137e+000	-2.087290e-003	0.000000e+000	0.000000e+000	0.000000e+000	0.000000e+000
583780	-9.001886e-001	3.854084e-001	1.001208e+000	-2.255680e-003	0.000000e+000	0.000000e+000	0.000000e+000	0.000000e+000
588735	-9.002682e-001	3.839211e-001	1.001135e+000	-2.148912e-003	0.000000e+000	0.000000e+000	0.000000e+000	0.000000e+000
593690	-9.002977e-001	3.826350e-001	1.001264e+000	-2.185571e-003	0.000000e+000	0.000000e+000	0.000000e+000	0.000000e+000
598645	-9.003326e-001	3.812101e-001	1.001051e+000	-2.314923e-003	0.000000e+000	0.000000e+000	0.000000e+000	0.000000e+000
603600	-9.004182e-001	3.798750e-001	1.001191e+000	-2.208472e-003	0.000000e+000	0.000000e+000	0.000000e+000	0.000000e+000
608555	-9.003924e-001	3.785497e-001	1.001186e+000	-2.248482e-003	0.000000e+000	0.000000e+000	0.000000e+000	0.000000e+000
613510	-9.003618e-001	3.773422e-001	1.001108e+000	-2.255653e-003	0.000000e+000	0.000000e+000	0.000000e+000	0.000000e+000
618465	-9.003724e-001	3.759871e-001	1.001203e+000	-2.292241e-003	0.000000e+000	0.000000e+000	0.000000e+000	0.000000e+000
623420	-9.003477e-001	3.747941e-001	1.001074e+000	-2.351786e-003	0.000000e+000	0.000000e+000	0.000000e+000	0.000000e+000
628375	-9.003445e-001	3.735859e-001	1.001239e+000	-2.306498e-003	0.000000e+000	0.000000e+000	0.000000e+000	0.000000e+000
633330	-9.002854e-001	3.723951e-001	1.001175e+000	-2.417286e-003	0.000000e+000	0.000000e+000	0.000000e+000	0.000000e+000
638285	-9.002920e-001	3.712490e-001	1.001132e+000	-2.343918e-003	0.000000e+000	0.000000e+000	0.000000e+000	0.000000e+000
643240	-9.002472e-001	3.700324e-001	1.001113e+000	-2.421558e-003	0.000000e+000	0.000000e+000	0.000000e+000	0.000000e+000
648195	-9.002463e-001	3.688674e-001	1.001064e+000	-2.293213e-003	0.000000e+000	0.000000e+000	0.000000e+000	0.000000e+000
653150	-9.001879e-001	3.678185e-001	1.001133e+000	-2.429888e-003	0.000000e+000	0.000000e+000	0.000000e+000	0.000000e+000
658105	-9.001138e-001	3.667041e-001	1.001070e+000	-2.364175e-003	0.000000e+000	0.000000e+000	0.000000e+000	0.000000e+000
663060	-9.000326e-001	3.656479e-001	1.001120e+000	-2.436182e-003	0.000000e+000	0.000000e+000	0.000000e+000	0.000000e+000
668015	-9.000004e-001	3.646210e-001	1.001016e+000	-2.460381e-003	0.000000e+000	0.000000e+000	0.000000e+000	0.000000e+000
672970	-8.999325e-001	3.634830e-001	1.001196e+000	-2.530742e-003	0.000000e+000	0.000000e+000	0.000000e+000	0.000000e+000
677925	-8.998645e-001	3.624995e-001	1.001187e+000	-2.509443e-003	0.000000e+000	0.000000e+000	0.000000e+000	0.000000e+000
682880	-8.998417e-001	3.614549e-001	1.001103e+000	-2.440280e-003	0.000000e+000	0.000000e+000	0.000000e+000	0.000000e+000
687835	-8.996972e-001	3.605115e-001	1.001056e+000	-2.618815e-003	0.000000e+000	0.000000e+000	0.000000e+000	0.000000e+000
692790	-8.996238e-001	3.596360e-001	1.001087e+000	-2.464323e-003	0.000000e+000	0.000000e+000	0.000000e+000	0.000000e+000
697745	-8.995440e-001	3.586760e-001	1.001011e+000	-2.532948e-003	0.000000e+000	0.000000e+000	0.000000e+000	0.000000e+000
702700	-8.994921e-001	3.577006e-001	1.000967e+000	-2.566936e-003	0.000000e+000	0.000000e+000	0.000000e+000	0.000000e+000
707655	-8.993529e-001	3.567713e-001	1.000923e+000	-2.586130e-003	0.000000e+000	0.000000e+000	0.000000e+000	0.000000e+000
712610	-8.992622e-001	3.558465e-001	1.000977e+000	-2.545379e-003	0.000000e+000	0.000000e+000	0.000000e+000	0.000000e+000
717565	-8.992177e-001	3.550343e-001	1.001018e+000	-2.607173e-003	0.000000e+000	0.000000e+000	0.000000e+000	0.000000e+000
722520	-8.989483e-001	3.542952e-001	1.000966e+000	-2.633850e-003	0.000000e+000	0.000000e+000	0.000000e+000	0.000000e+000
727475	-8.990456e-001	3.533226e-001	1.000850e+000	-2.639814e-003	0.000000e+000	0.000000e+000	0.000000e+000	0.000000e+000
732430	-8.989391e-001	3.524565e-001	1.000898e+000	-2.735177e-003	0.000000e+000	0.000000e+000	0.000000e+000	0.000000e+000
737385	-8.987516e-001	3.516166e-001	1.000949e+000	-2.624325e-003	0.000000e+000	0.000000e+000	0.000000e+000	0.000000e+000
742340	-8.986684e-001	3.508661e-001	1.000983e+000	-2.622281e-003	0.000000e+000	0.000000e+000	0.000000e+000	0.000000e+000
747295	-8.986291e-001	3.500611e-001	1.001058e+000	-2.734736e-003	0.000000e+000	0.000000e+000	0.000000e+000	0.000000e+000
752250	-8.985203e-001	3.492686e-001	1.000872e+000	-2.722539e-003	0.000000e+000	0.000000e+000	0.000000e+000	0.000000e+000
757205	-8.984084e-001	3.484900e-001	1.000847e+000	-2.756305e-003	0.000000e+000	0.000000e+000	0.000000e+000	0.000000e+000
762160	-8.982498e-001	3.477909e-001	1.000975e+000	-2.684703e-003	0.000000e+000	0.000000e+000	0.000000e+000	0.000000e+000
767115	-8.981757e-001	3.469817e-001	1.001009e+000	-2.771692e-003	0.000000e+000	0.000000e+000	0.000000e+000	0.000000e+000
772070	-8.980342e-001	3.462218e-001	1.000965e+000	-2.783551e-003	0.000000e+000	0.000000e+000	0.000000e+000	0.000000e+000
777025	-8.978872e-001	3.455191e-001	1.000850e+000	-2.805442e-003	0.000000e+000	0.000000e+000	0.000000e+000	0.000000e+000
781980	-8.978174e-001	3.448740e-001	1.000786e+000	-2.745639e-003	0.000000e+000	0.000000e+000	0.000000e+000	0.000000e+000
786935	-8.976790e-001	3.442034e-001	1.000816e+000	-2.759987e-003	0.000000e+000	0.000000e+000	0.000000e+000	0.000000e+000
791890	-8.976039e-001	3.435245e-001	1.000799e+000	-2.823184e-003	0.000000e+000	0.000000e+000	0.000000e+000	0.000000e+000
796845	-8.974615e-001	3.428186e-001	1.000878e+000	-2.678784e-003	0.000000e+000	0.000000e+000	0.000000e+000	0.000000e+000
801800	-8.973024e-001	3.421131e-001	1.000907e+000	-2.830830e-003	0.000000e+000	0.000000e+000	0.000000e+000	0.000000e+000
806755	-8.972488e-001	3.414352e-001	1.000821e+000	-2.874383e-003	0.000000e+000	0.000000e+000	0.000000e+000	0.000000e+000
811710	-8.971204e-001	3.407954e-001	1.000701e+000	-2.904758e-003	0.000000e+000	0.000000e+000	0.000000e+000	0.000000e+000
816665	-8.969841e-001	3.402016e-001	1.000781e+000	-2.889760e-003	0.000000e+000	0.000000e+000	0.000000e+000	0.000000e+000
