!Agilent Technologies,E5071C,MY46109397,A.09.54
!Date: Mon Jan 01 02:18:57 2001
!Data & Calibration Information:
!Freq	S11:SOLT1(ON)	S21:RESPT(ON)	S12:NONE(--)	S22:NONE(--)
# Hz S RI R 50
9000	9.641007e-001	2.984799e-001	2.015326e+000	5.818889e-001	0.000000e+000	0.000000e+000	0.000000e+000	0.000000e+000
13955	9.622710e-001	4.083748e-001	-5.898980e-001	1.795818e-001	0.000000e+000	0.000000e+000	0.000000e+000	0.000000e+000
18910	9.081662e-001	4.994213e-001	-1.350351e-001	1.993806e-002	0.000000e+000	0.000000e+000	0.000000e+000	0.000000e+000
23865	8.366721e-001	5.732391e-001	-4.210527e-001	3.367329e-001	0.000000e+000	0.000000e+000	0.000000e+000	0.000000e+000
28820	7.734819e-001	6.209102e-001	-4.394894e-001	6.223080e-001	0.000000e+000	0.000000e+000	0.000000e+000	0.000000e+000
33775	7.045592e-001	6.241898e-001	-3.582779e-001	9.325718e-001	0.000000e+000	0.000000e+000	0.000000e+000	0.000000e+000
38730	6.101670e-001	5.428211e-001	-1.441970e-001	1.425694e+000	0.000000e+000	0.000000e+000	0.000000e+000	0.000000e+000
43685	3.388911e-001	4.661851e-001	5.333081e-001	1.638088e+000	0.000000e+000	0.000000e+000	0.000000e+000	0.000000e+000
48640	1.345009e-001	6.195742e-001	9.879024e-001	1.255012e+000	0.000000e+000	0.000000e+000	0.000000e+000	0.000000e+000
53595	7.915250e-002	6.426375e-001	9.822458e-001	1.045193e+000	0.000000e+000	0.000000e+000	0.000000e+000	0.000000e+000
58550	-1.230605e-001	6.440547e-001	1.180441e+000	1.022427e+000	0.000000e+000	0.000000e+000	0.000000e+000	0.000000e+000
63505	-2.217064e-001	7.637336e-001	1.311010e+000	7.824333e-001	0.000000e+000	0.000000e+000	0.000000e+000	0.000000e+000
68460	-2.677162e-001	8.142521e-001	1.315814e+000	6.128744e-001	0.000000e+000	0.000000e+000	0.000000e+000	0.000000e+000
73415	-2.995329e-001	8.517406e-001	1.298737e+000	4.686847e-001	0.000000e+000	0.000000e+000	0.000000e+000	0.000000e+000
78370	-3.334736e-001	8.618704e-001	1.264816e+000	3.773025e-001	0.000000e+000	0.000000e+000	0.000000e+000	0.000000e+000
83325	-3.576342e-001	8.656794e-001	1.223671e+000	3.036631e-001	0.000000e+000	0.000000e+000	0.000000e+000	0.000000e+000
88280	-3.893917e-001	8.593850e-001	1.194495e+000	2.570343e-001	0.000000e+000	0.000000e+000	0.000000e+000	0.000000e+000
93235	-4.161289e-001	8.491058e-001	1.164083e+000	2.195789e-001	0.000000e+000	0.000000e+000	0.000000e+000	0.000000e+000
98190	-4.492531e-001	8.309054e-001	1.143829e+000	2.036164e-001	0.000000e+000	0.000000e+000	0.000000e+000	0.000000e+000
103145	-4.865276e-001	8.198390e-001	1.137981e+000	1.801294e-001	0.000000e+000	0.000000e+000	0.000000e+000	0.000000e+000
108100	-5.163215e-001	8.156934e-001	1.129240e+000	1.540272e-001	0.000000e+000	0.000000e+000	0.000000e+000	0.000000e+000
113055	-5.405932e-001	8.118751e-001	1.118261e+000	1.319324e-001	0.000000e+000	0.000000e+000	0.000000e+000	0.000000e+000
118010	-5.612654e-001	8.056497e-001	1.109035e+000	1.100528e-001	0.000000e+000	0.000000e+000	0.000000e+000	0.000000e+000
122965	-5.780271e-001	7.991721e-001	1.096375e+000	9.157250e-002	0.000000e+000	0.000000e+000	0.000000e+000	0.000000e+000
127920	-5.936038e-001	7.938379e-001	1.087193e+000	7.448185e-002	0.000000e+000	0.000000e+000	0.000000e+000	0.000000e+000
132875	-6.087189e-001	7.843317e-001	1.078573e+000	5.929189e-002	0.000000e+000	0.000000e+000	0.000000e+000	0.000000e+000
137830	-6.212635e-001	7.773315e-001	1.069235e+000	4.639884e-002	0.000000e+000	0.000000e+000	0.000000e+000	0.000000e+000
142785	-6.322024e-001	7.691953e-001	1.060865e+000	3.598974e-002	0.000000e+000	0.000000e+000	0.000000e+000	0.000000e+000
147740	-6.430502e-001	7.617889e-001	1.053268e+000	2.558689e-002	0.000000e+000	0.000000e+000	0.000000e+000	0.000000e+000
152695	-6.519037e-001	7.545466e-001	1.045927e+000	1.575111e-002	0.000000e+000	0.000000e+000	0.000000e+000	0.000000e+000
157650	-6.607590e-001	7.468384e-001	1.039400e+000	7.720179e-003	0.000000e+000	0.000000e+000	0.000000e+000	0.000000e+000
162605	-6.688465e-001	7.402658e-001	1.033579e+000	-1.900884e-003	0.000000e+000	0.000000e+000	0.000000e+000	0.000000e+000
167560	-6.762267e-001	7.341121e-001	1.028821e+000	-7.830769e-003	0.000000e+000	0.000000e+000	0.000000e+000	0.000000e+000
172515	-6.822951e-001	7.277030e-001	1.023072e+000	-1.575401e-002	0.000000e+000	0.000000e+000	0.000000e+000	0.000000e+000
177470	-6.882665e-001	7.221769e-001	1.017719e+000	-2.278982e-002	0.000000e+000	0.000000e+000	0.000000e+000	0.000000e+000
182425	-6.935931e-001	7.163689e-001	1.013454e+000	-2.905838e-002	0.000000e+000	0.000000e+000	0.000000e+000	0.000000e+000
187380	-6.978294e-001	7.115269e-001	1.009320e+000	-3.563468e-002	0.000000e+000	0.000000e+000	0.000000e+000	0.000000e+000
192335	-7.021219e-001	7.063432e-001	1.005052e+000	-3.915534e-002	0.000000e+000	0.000000e+000	0.000000e+000	0.000000e+000
197290	-7.057177e-001	7.019002e-001	1.001169e+000	-4.587872e-002	0.000000e+000	0.000000e+000	0.000000e+000	0.000000e+000
202245	-7.089794e-001	6.976473e-001	9.970327e-001	-5.378004e-002	0.000000e+000	0.000000e+000	0.000000e+000	0.000000e+000
207200	-7.119284e-001	6.936511e-001	9.942973e-001	-5.830461e-002	0.000000e+000	0.000000e+000	0.000000e+000	0.000000e+000
212155	-7.143792e-001	6.903741e-001	9.909133e-001	-6.376472e-002	0.000000e+000	0.000000e+000	0.000000e+000	0.000000e+000
217110	-7.164061e-001	6.861571e-001	9.870992e-001	-6.810479e-002	0.000000e+000	0.000000e+000	0.000000e+000	0.000000e+000
222065	-7.184619e-001	6.828676e-001	9.840543e-001	-7.313540e-002	0.000000e+000	0.000000e+000	0.000000e+000	0.000000e+000
227020	-7.201086e-001	6.799438e-001	9.809896e-001	-7.745832e-002	0.000000e+000	0.000000e+000	0.000000e+000	0.000000e+000
231975	-7.211592e-001	6.769425e-001	9.776756e-001	-8.360593e-002	0.000000e+000	0.000000e+000	0.000000e+000	0.000000e+000
236930	-7.221711e-001	6.743845e-001	9.749441e-001	-8.697041e-002	0.000000e+000	0.000000e+000	0.000000e+000	0.000000e+000
241885	-7.230147e-001	6.717726e-001	9.718619e-001	-9.149018e-002	0.000000e+000	0.000000e+000	0.000000e+000	0.000000e+000
246840	-7.234514e-001	6.690583e-001	9.688018e-001	-9.623561e-002	0.000000e+000	0.000000e+000	0.000000e+000	0.000000e+000
251795	-7.237125e-001	6.672943e-001	9.659240e-001	-9.970707e-002	0.000000e+000	0.000000e+000	0.000000e+000	0.000000e+000
256750	-7.239650e-001	6.651922e-001	9.633568e-001	-1.050000e-001	0.000000e+000	0.000000e+000	0.000000e+000	0.000000e+000
261705	-7.236094e-001	6.634234e-001	9.600120e-001	-1.092769e-001	0.000000e+000	0.000000e+000	0.000000e+000	0.000000e+000
266660	-7.237271e-001	6.616569e-001	9.578789e-001	-1.130275e-001	0.000000e+000	0.000000e+000	0.000000e+000	0.000000e+000
271615	-7.232127e-001	6.601089e-001	9.550036e-001	-1.176454e-001	0.000000e+000	0.000000e+000	0.000000e+000	0.000000e+000
276570	-7.227164e-001	6.585068e-001	9.524603e-001	-1.216609e-001	0.000000e+000	0.000000e+000	0.000000e+000	0.000000e+000
281525	-7.219620e-001	6.571601e-001	9.500870e-001	-1.257124e-001	0.000000e+000	0.000000e+000	0.000000e+000	0.000000e+000
286480	-7.210572e-001	6.560474e-001	9.472397e-001	-1.296682e-001	0.000000e+000	0.000000e+000	0.000000e+000	0.000000e+000
291435	-7.200352e-001	6.547164e-001	9.444662e-001	-1.331650e-001	0.000000e+000	0.000000e+000	0.000000e+000	0.000000e+000
296390	-7.189529e-001	6.534616e-001	9.415484e-001	-1.373362e-001	0.000000e+000	0.000000e+000	0.000000e+000	0.000000e+000
301345	-7.176638e-001	6.524256e-001	9.389882e-001	-1.407357e-001	0.000000e+000	0.000000e+000	0.000000e+000	0.000000e+000
306300	-7.164277e-001	6.516777e-001	9.366432e-001	-1.439140e-001	0.000000e+000	0.000000e+000	0.000000e+000	0.000000e+000
311255	-7.151568e-001	6.509193e-001	9.333320e-001	-1.479884e-001	0.000000e+000	0.000000e+000	0.000000e+000	0.000000e+000
316210	-7.135246e-001	6.501166e-001	9.303834e-001	-1.524374e-001	0.000000e+000	0.000000e+000	0.000000e+000	0.000000e+000
321165	-7.119582e-001	6.490266e-001	9.275033e-001	-1.554383e-001	0.000000e+000	0.000000e+000	0.000000e+000	0.000000e+000
326120	-7.102074e-001	6.485942e-001	9.246537e-001	-1.591796e-001	0.000000e+000	0.000000e+000	0.000000e+000	0.000000e+000
331075	-7.084019e-001	6.476633e-001	9.217732e-001	-1.624310e-001	0.000000e+000	0.000000e+000	0.000000e+000	0.000000e+000
336030	-7.065529e-001	6.473776e-001	9.184675e-001	-1.662347e-001	0.000000e+000	0.000000e+000	0.000000e+000	0.000000e+000
340985	-7.047967e-001	6.471203e-001	9.162132e-001	-1.694314e-001	0.000000e+000	0.000000e+000	0.000000e+000	0.000000e+000
345940	-7.027799e-001	6.466486e-001	9.126280e-001	-1.733531e-001	0.000000e+000	0.000000e+000	0.000000e+000	0.000000e+000
350895	-7.007105e-001	6.465870e-001	9.096818e-001	-1.763837e-001	0.000000e+000	0.000000e+000	0.000000e+000	0.000000e+000
355850	-6.986654e-001	6.455403e-001	9.065836e-001	-1.793956e-001	0.000000e+000	0.000000e+000	0.000000e+000	0.000000e+000
360805	-6.965378e-001	6.450494e-001	9.034626e-001	-1.822540e-001	0.000000e+000	0.000000e+000	0.000000e+000	0.000000e+000
365760	-6.944483e-001	6.446974e-001	9.003054e-001	-1.848573e-001	0.000000e+000	0.000000e+000	0.000000e+000	0.000000e+000
370715	-6.921428e-001	6.447274e-001	8.975691e-001	-1.879093e-001	0.000000e+000	0.000000e+000	0.000000e+000	0.000000e+000
375670	-6.897770e-001	6.443864e-001	8.934901e-001	-1.912136e-001	0.000000e+000	0.000000e+000	0.000000e+000	0.000000e+000
380625	-6.874293e-001	6.440295e-001	8.905233e-001	-1.933692e-001	0.000000e+000	0.000000e+000	0.000000e+000	0.000000e+000
385580	-6.851068e-001	6.439953e-001	8.874067e-001	-1.966397e-001	0.000000e+000	0.000000e+000	0.000000e+000	0.000000e+000
390535	-6.828596e-001	6.440661e-001	8.840985e-001	-1.992757e-001	0.000000e+000	0.000000e+000	0.000000e+000	0.000000e+000
395490	-6.803405e-001	6.441443e-001	8.806356e-001	-2.023469e-001	0.000000e+000	0.000000e+000	0.000000e+000	0.000000e+000
400445	-6.780045e-001	6.442973e-001	8.772171e-001	-2.056159e-001	0.000000e+000	0.000000e+000	0.000000e+000	0.000000e+000
405400	-6.754538e-001	6.445414e-001	8.737745e-001	-2.084873e-001	0.000000e+000	0.000000e+000	0.000000e+000	0.000000e+000
410355	-6.729223e-001	6.445636e-001	8.702512e-001	-2.115308e-001	0.000000e+000	0.000000e+000	0.000000e+000	0.000000e+000
415310	-6.701808e-001	6.447939e-001	8.666408e-001	-2.138355e-001	0.000000e+000	0.000000e+000	0.000000e+000	0.000000e+000
420265	-6.674403e-001	6.447957e-001	8.629669e-001	-2.165845e-001	0.000000e+000	0.000000e+000	0.000000e+000	0.000000e+000
425220	-6.645920e-001	6.448259e-001	8.592702e-001	-2.188064e-001	0.000000e+000	0.000000e+000	0.000000e+000	0.000000e+000
430175	-6.615111e-001	6.452341e-001	8.552105e-001	-2.216871e-001	0.000000e+000	0.000000e+000	0.000000e+000	0.000000e+000
435130	-6.584848e-001	6.455744e-001	8.510616e-001	-2.247157e-001	0.000000e+000	0.000000e+000	0.000000e+000	0.000000e+000
440085	-6.554489e-001	6.448207e-001	8.473674e-001	-2.257121e-001	0.000000e+000	0.000000e+000	0.000000e+000	0.000000e+000
445040	-6.522956e-001	6.447582e-001	8.432437e-001	-2.280488e-001	0.000000e+000	0.000000e+000	0.000000e+000	0.000000e+000
449995	-6.489342e-001	6.452018e-001	8.390629e-001	-2.306153e-001	0.000000e+000	0.000000e+000	0.000000e+000	0.000000e+000
454950	-6.454900e-001	6.463033e-001	8.349169e-001	-2.331200e-001	0.000000e+000	0.000000e+000	0.000000e+000	0.000000e+000
459905	-6.420569e-001	6.463308e-001	8.301189e-001	-2.355145e-001	0.000000e+000	0.000000e+000	0.000000e+000	0.000000e+000
464860	-6.385839e-001	6.461843e-001	8.261285e-001	-2.369613e-001	0.000000e+000	0.000000e+000	0.000000e+000	0.000000e+000
469815	-6.349635e-001	6.465680e-001	8.216089e-001	-2.388519e-001	0.000000e+000	0.000000e+000	0.000000e+000	0.000000e+000
474770	-6.312155e-001	6.465104e-001	8.168404e-001	-2.409964e-001	0.000000e+000	0.000000e+000	0.000000e+000	0.000000e+000
479725	-6.271137e-001	6.470021e-001	8.118620e-001	-2.426893e-001	0.000000e+000	0.000000e+000	0.000000e+000	0.000000e+000
484680	-6.230666e-001	6.474605e-001	8.067456e-001	-2.452271e-001	0.000000e+000	0.000000e+000	0.000000e+000	0.000000e+000
489635	-6.189836e-001	6.476023e-001	8.015821e-001	-2.472828e-001	0.000000e+000	0.000000e+000	0.000000e+000	0.000000e+000
494590	-6.144357e-001	6.476088e-001	7.967114e-001	-2.481373e-001	0.000000e+000	0.000000e+000	0.000000e+000	0.000000e+000
499545	-6.098650e-001	6.478048e-001	7.911061e-001	-2.498563e-001	0.000000e+000	0.000000e+000	0.000000e+000	0.000000e+000
504500	-6.047105e-001	6.483816e-001	7.849145e-001	-2.520513e-001	0.000000e+000	0.000000e+000	0.000000e+000	0.000000e+000
509455	-5.995278e-001	6.489419e-001	7.791429e-001	-2.536881e-001	0.000000e+000	0.000000e+000	0.000000e+000	0.000000e+000
514410	-5.942251e-001	6.480132e-001	7.728983e-001	-2.541320e-001	0.000000e+000	0.000000e+000	0.000000e+000	0.000000e+000
519365	-5.889276e-001	6.470348e-001	7.667468e-001	-2.543227e-001	0.000000e+000	0.000000e+000	0.000000e+000	0.000000e+000
524320	-5.834104e-001	6.454357e-001	7.600303e-001	-2.541561e-001	0.000000e+000	0.000000e+000	0.000000e+000	0.000000e+000
529275	-5.764553e-001	6.462104e-001	7.523544e-001	-2.560623e-001	0.000000e+000	0.000000e+000	0.000000e+000	0.000000e+000
534230	-5.698121e-001	6.455188e-001	7.450139e-001	-2.558187e-001	0.000000e+000	0.000000e+000	0.000000e+000	0.000000e+000
539185	-5.627255e-001	6.439800e-001	7.372628e-001	-2.555146e-001	0.000000e+000	0.000000e+000	0.000000e+000	0.000000e+000
544140	-5.557023e-001	6.418524e-001	7.293479e-001	-2.543621e-001	0.000000e+000	0.000000e+000	0.000000e+000	0.000000e+000
549095	-5.468637e-001	6.406152e-001	7.199140e-001	-2.538144e-001	0.000000e+000	0.000000e+000	0.000000e+000	0.000000e+000
554050	-5.380291e-001	6.389456e-001	7.105407e-001	-2.528839e-001	0.000000e+000	0.000000e+000	0.000000e+000	0.000000e+000
559005	-5.290905e-001	6.351921e-001	7.009942e-001	-2.495182e-001	0.000000e+000	0.000000e+000	0.000000e+000	0.000000e+000
563960	-5.192737e-001	6.311291e-001	6.909972e-001	-2.458099e-001	0.000000e+000	0.000000e+000	0.000000e+000	0.000000e+000
568915	-5.092201e-001	6.261325e-001	6.803768e-001	-2.413111e-001	0.000000e+000	0.000000e+000	0.000000e+000	0.000000e+000
573870	-4.964877e-001	6.211986e-001	6.676138e-001	-2.363474e-001	0.000000e+000	0.000000e+000	0.000000e+000	0.000000e+000
578825	-4.844752e-001	6.132870e-001	6.558694e-001	-2.287731e-001	0.000000e+000	0.000000e+000	0.000000e+000	0.000000e+000
583780	-4.762872e-001	6.011032e-001	6.478248e-001	-2.174644e-001	0.000000e+000	0.000000e+000	0.000000e+000	0.000000e+000
588735	-4.649771e-001	5.890399e-001	6.373454e-001	-2.054399e-001	0.000000e+000	0.000000e+000	0.000000e+000	0.000000e+000
593690	-4.541798e-001	5.738871e-001	6.277802e-001	-1.909757e-001	0.000000e+000	0.000000e+000	0.000000e+000	0.000000e+000
598645	-4.428522e-001	5.560408e-001	6.179648e-001	-1.735654e-001	0.000000e+000	0.000000e+000	0.000000e+000	0.000000e+000
603600	-4.299736e-001	5.354377e-001	6.074671e-001	-1.538912e-001	0.000000e+000	0.000000e+000	0.000000e+000	0.000000e+000
608555	-4.257816e-001	5.100810e-001	6.057623e-001	-1.310061e-001	0.000000e+000	0.000000e+000	0.000000e+000	0.000000e+000
613510	-4.260732e-001	4.827382e-001	6.084509e-001	-1.068215e-001	0.000000e+000	0.000000e+000	0.000000e+000	0.000000e+000
618465	-4.308814e-001	4.530943e-001	6.153727e-001	-8.171437e-002	0.000000e+000	0.000000e+000	0.000000e+000	0.000000e+000
623420	-4.441419e-001	4.247175e-001	6.295075e-001	-5.908991e-002	0.000000e+000	0.000000e+000	0.000000e+000	0.000000e+000
628375	-4.606560e-001	3.959858e-001	6.459076e-001	-3.667282e-002	0.000000e+000	0.000000e+000	0.000000e+000	0.000000e+000
633330	-4.864415e-001	3.746335e-001	6.690902e-001	-2.197897e-002	0.000000e+000	0.000000e+000	0.000000e+000	0.000000e+000
638285	-5.153127e-001	3.590597e-001	6.938312e-001	-1.175802e-002	0.000000e+000	0.000000e+000	0.000000e+000	0.000000e+000
643240	-5.455017e-001	3.487009e-001	7.189298e-001	-6.310878e-003	0.000000e+000	0.000000e+000	0.000000e+000	0.000000e+000
648195	-5.759099e-001	3.466327e-001	7.434387e-001	-6.854088e-003	0.000000e+000	0.000000e+000	0.000000e+000	0.000000e+000
653150	-6.041166e-001	3.468590e-001	7.661009e-001	-9.115826e-003	0.000000e+000	0.000000e+000	0.000000e+000	0.000000e+000
658105	-6.294324e-001	3.553326e-001	7.858365e-001	-1.759322e-002	0.000000e+000	0.000000e+000	0.000000e+000	0.000000e+000
663060	-6.496408e-001	3.688730e-001	8.011299e-001	-3.063884e-002	0.000000e+000	0.000000e+000	0.000000e+000	0.000000e+000
668015	-6.670371e-001	3.813369e-001	8.147390e-001	-4.169386e-002	0.000000e+000	0.000000e+000	0.000000e+000	0.000000e+000
672970	-6.810574e-001	3.947519e-001	8.253139e-001	-5.423018e-002	0.000000e+000	0.000000e+000	0.000000e+000	0.000000e+000
677925	-6.923824e-001	4.083293e-001	8.340911e-001	-6.590781e-002	0.000000e+000	0.000000e+000	0.000000e+000	0.000000e+000
682880	-7.014054e-001	4.208024e-001	8.410540e-001	-7.701864e-002	0.000000e+000	0.000000e+000	0.000000e+000	0.000000e+000
687835	-7.073309e-001	4.339838e-001	8.449463e-001	-8.903358e-002	0.000000e+000	0.000000e+000	0.000000e+000	0.000000e+000
692790	-7.105298e-001	4.472499e-001	8.469333e-001	-1.006912e-001	0.000000e+000	0.000000e+000	0.000000e+000	0.000000e+000
697745	-7.133338e-001	4.584999e-001	8.487764e-001	-1.110221e-001	0.000000e+000	0.000000e+000	0.000000e+000	0.000000e+000
702700	-7.148092e-001	4.694271e-001	8.491115e-001	-1.205554e-001	0.000000e+000	0.000000e+000	0.000000e+000	0.000000e+000
707655	-7.157384e-001	4.789238e-001	8.494006e-001	-1.291932e-001	0.000000e+000	0.000000e+000	0.000000e+000	0.000000e+000
712610	-7.165272e-001	4.874928e-001	8.492754e-001	-1.373032e-001	0.000000e+000	0.000000e+000	0.000000e+000	0.000000e+000
717565	-7.165013e-001	4.957710e-001	8.484208e-001	-1.448961e-001	0.000000e+000	0.000000e+000	0.000000e+000	0.000000e+000
722520	-7.157394e-001	5.029930e-001	8.470530e-001	-1.521068e-001	0.000000e+000	0.000000e+000	0.000000e+000	0.000000e+000
727475	-7.151105e-001	5.099891e-001	8.452372e-001	-1.584559e-001	0.000000e+000	0.000000e+000	0.000000e+000	0.000000e+000
732430	-7.139579e-001	5.165376e-001	8.437256e-001	-1.643819e-001	0.000000e+000	0.000000e+000	0.000000e+000	0.000000e+000
737385	-7.126222e-001	5.220999e-001	8.419377e-001	-1.698884e-001	0.000000e+000	0.000000e+000	0.000000e+000	0.000000e+000
742340	-7.113108e-001	5.276411e-001	8.396899e-001	-1.752977e-001	0.000000e+000	0.000000e+000	0.000000e+000	0.000000e+000
747295	-7.099134e-001	5.327437e-001	8.376739e-001	-1.802366e-001	0.000000e+000	0.000000e+000	0.000000e+000	0.000000e+000
752250	-7.082886e-001	5.372425e-001	8.350849e-001	-1.850117e-001	0.000000e+000	0.000000e+000	0.000000e+000	0.000000e+000
757205	-7.066672e-001	5.417424e-001	8.329909e-001	-1.890437e-001	0.000000e+000	0.000000e+000	0.000000e+000	0.000000e+000
762160	-7.048846e-001	5.455367e-001	8.307667e-001	-1.932606e-001	0.000000e+000	0.000000e+000	0.000000e+000	0.000000e+000
767115	-7.033290e-001	5.493157e-001	8.281020e-001	-1.970529e-001	0.000000e+000	0.000000e+000	0.000000e+000	0.000000e+000
772070	-7.016013e-001	5.529588e-001	8.259214e-001	-2.004473e-001	0.000000e+000	0.000000e+000	0.000000e+000	0.000000e+000
777025	-6.999153e-001	5.561601e-001	8.231691e-001	-2.038872e-001	0.000000e+000	0.000000e+000	0.000000e+000	0.000000e+000
781980	-6.982822e-001	5.593297e-001	8.207917e-001	-2.070244e-001	0.000000e+000	0.000000e+000	0.000000e+000	0.000000e+000
786935	-6.967358e-001	5.621133e-001	8.184969e-001	-2.098460e-001	0.000000e+000	0.000000e+000	0.000000e+000	0.000000e+000
791890	-6.951476e-001	5.648711e-001	8.159361e-001	-2.128790e-001	0.000000e+000	0.000000e+000	0.000000e+000	0.000000e+000
796845	-6.935644e-001	5.675768e-001	8.138377e-001	-2.151977e-001	0.000000e+000	0.000000e+000	0.000000e+000	0.000000e+000
801800	-6.919647e-001	5.698398e-001	8.113268e-001	-2.179683e-001	0.000000e+000	0.000000e+000	0.000000e+000	0.000000e+000
806755	-6.905922e-001	5.720251e-001	8.089127e-001	-2.204263e-001	0.000000e+000	0.000000e+000	0.000000e+000	0.000000e+000
811710	-6.891169e-001	5.742465e-001	8.066017e-001	-2.225780e-001	0.000000e+000	0.000000e+000	0.000000e+000	0.000000e+000
816665	-6.876930e-001	5.763670e-001	8.042691e-001	-2.249015e-001	0.000000e+000	0.000000e+000	0.000000e+000	0.000000e+000
