!Agilent Technologies,E5071C,MY46109397,A.09.54
!Date: Mon Jan 01 02:14:59 2001
!Data & Calibration Information:
!Freq	S11:SOLT1(ON)	S21:RESPT(ON)	S12:NONE(--)	S22:NONE(--)
# Hz S RI R 50
9000	9.674772e-001	2.981664e-001	8.645578e-001	5.305363e-001	0.000000e+000	0.000000e+000	0.000000e+000	0.000000e+000
13955	9.615018e-001	4.147212e-001	-1.680800e-003	3.925241e-004	0.000000e+000	0.000000e+000	0.000000e+000	0.000000e+000
18910	9.073029e-001	5.032083e-001	-1.835963e-003	2.826000e-004	0.000000e+000	0.000000e+000	0.000000e+000	0.000000e+000
23865	8.332641e-001	5.968891e-001	-2.149658e-003	1.263193e-003	0.000000e+000	0.000000e+000	0.000000e+000	0.000000e+000
28820	7.701909e-001	6.752192e-001	-4.376095e-003	2.909314e-003	0.000000e+000	0.000000e+000	0.000000e+000	0.000000e+000
33775	7.088826e-001	7.351561e-001	-6.878475e-003	6.165342e-003	0.000000e+000	0.000000e+000	0.000000e+000	0.000000e+000
38730	6.529620e-001	7.834730e-001	-8.306634e-003	1.307778e-002	0.000000e+000	0.000000e+000	0.000000e+000	0.000000e+000
43685	6.020757e-001	8.196625e-001	-1.313925e-003	2.093898e-002	0.000000e+000	0.000000e+000	0.000000e+000	0.000000e+000
48640	5.559130e-001	8.485144e-001	1.111156e-002	1.631366e-002	0.000000e+000	0.000000e+000	0.000000e+000	0.000000e+000
53595	5.193780e-001	8.706905e-001	1.160276e-002	8.384440e-003	0.000000e+000	0.000000e+000	0.000000e+000	0.000000e+000
58550	4.892379e-001	8.858345e-001	8.498548e-003	5.841242e-003	0.000000e+000	0.000000e+000	0.000000e+000	0.000000e+000
63505	4.648280e-001	8.955823e-001	6.601022e-003	5.712209e-003	0.000000e+000	0.000000e+000	0.000000e+000	0.000000e+000
68460	4.454539e-001	9.011430e-001	6.076218e-003	6.497790e-003	0.000000e+000	0.000000e+000	0.000000e+000	0.000000e+000
73415	4.301505e-001	9.036197e-001	7.008053e-003	6.568530e-003	0.000000e+000	0.000000e+000	0.000000e+000	0.000000e+000
78370	4.190054e-001	9.042767e-001	7.193846e-003	4.841102e-003	0.000000e+000	0.000000e+000	0.000000e+000	0.000000e+000
83325	4.121279e-001	9.027295e-001	5.799307e-003	3.608353e-003	0.000000e+000	0.000000e+000	0.000000e+000	0.000000e+000
88280	4.081978e-001	8.991858e-001	3.997195e-003	3.091386e-003	0.000000e+000	0.000000e+000	0.000000e+000	0.000000e+000
93235	4.072553e-001	8.937324e-001	2.464542e-003	3.201940e-003	0.000000e+000	0.000000e+000	0.000000e+000	0.000000e+000
98190	4.079683e-001	8.869793e-001	1.018113e-003	3.711523e-003	0.000000e+000	0.000000e+000	0.000000e+000	0.000000e+000
103145	4.103005e-001	8.790658e-001	-4.173807e-004	4.622319e-003	0.000000e+000	0.000000e+000	0.000000e+000	0.000000e+000
108100	4.139971e-001	8.698784e-001	-1.500881e-003	5.579229e-003	0.000000e+000	0.000000e+000	0.000000e+000	0.000000e+000
113055	4.186984e-001	8.598302e-001	-2.651451e-003	6.922922e-003	0.000000e+000	0.000000e+000	0.000000e+000	0.000000e+000
118010	4.239285e-001	8.488211e-001	-3.146039e-003	8.353267e-003	0.000000e+000	0.000000e+000	0.000000e+000	0.000000e+000
122965	4.299064e-001	8.369260e-001	-3.617790e-003	1.024722e-002	0.000000e+000	0.000000e+000	0.000000e+000	0.000000e+000
127920	4.350609e-001	8.241755e-001	-2.864733e-003	1.253608e-002	0.000000e+000	0.000000e+000	0.000000e+000	0.000000e+000
132875	4.393680e-001	8.118429e-001	-8.138605e-004	1.361763e-002	0.000000e+000	0.000000e+000	0.000000e+000	0.000000e+000
137830	4.436634e-001	8.011112e-001	4.914748e-004	1.242174e-002	0.000000e+000	0.000000e+000	0.000000e+000	0.000000e+000
142785	4.498818e-001	7.907429e-001	-1.144676e-004	1.120403e-002	0.000000e+000	0.000000e+000	0.000000e+000	0.000000e+000
147740	4.566910e-001	7.794553e-001	-1.564139e-003	1.137053e-002	0.000000e+000	0.000000e+000	0.000000e+000	0.000000e+000
152695	4.633545e-001	7.674744e-001	-2.897232e-003	1.210100e-002	0.000000e+000	0.000000e+000	0.000000e+000	0.000000e+000
157650	4.698917e-001	7.550068e-001	-3.682255e-003	1.311024e-002	0.000000e+000	0.000000e+000	0.000000e+000	0.000000e+000
162605	4.758258e-001	7.423671e-001	-4.395908e-003	1.409728e-002	0.000000e+000	0.000000e+000	0.000000e+000	0.000000e+000
167560	4.813513e-001	7.297419e-001	-4.623222e-003	1.545512e-002	0.000000e+000	0.000000e+000	0.000000e+000	0.000000e+000
172515	4.865135e-001	7.172164e-001	-4.852530e-003	1.639510e-002	0.000000e+000	0.000000e+000	0.000000e+000	0.000000e+000
177470	4.913781e-001	7.048887e-001	-4.931766e-003	1.737458e-002	0.000000e+000	0.000000e+000	0.000000e+000	0.000000e+000
182425	4.957959e-001	6.925038e-001	-5.178459e-003	1.857855e-002	0.000000e+000	0.000000e+000	0.000000e+000	0.000000e+000
187380	4.997957e-001	6.800469e-001	-5.333747e-003	1.970349e-002	0.000000e+000	0.000000e+000	0.000000e+000	0.000000e+000
192335	5.034420e-001	6.678226e-001	-5.287400e-003	2.081739e-002	0.000000e+000	0.000000e+000	0.000000e+000	0.000000e+000
197290	5.065816e-001	6.556888e-001	-5.083186e-003	2.209822e-002	0.000000e+000	0.000000e+000	0.000000e+000	0.000000e+000
202245	5.091097e-001	6.436013e-001	-4.579141e-003	2.327375e-002	0.000000e+000	0.000000e+000	0.000000e+000	0.000000e+000
207200	5.109858e-001	6.317986e-001	-4.058819e-003	2.419791e-002	0.000000e+000	0.000000e+000	0.000000e+000	0.000000e+000
212155	5.123672e-001	6.204945e-001	-3.328476e-003	2.489892e-002	0.000000e+000	0.000000e+000	0.000000e+000	0.000000e+000
217110	5.129408e-001	6.096103e-001	-2.389016e-003	2.512382e-002	0.000000e+000	0.000000e+000	0.000000e+000	0.000000e+000
222065	5.133000e-001	5.997782e-001	-1.708374e-003	2.515817e-002	0.000000e+000	0.000000e+000	0.000000e+000	0.000000e+000
227020	5.138201e-001	5.906307e-001	-1.534746e-003	2.498691e-002	0.000000e+000	0.000000e+000	0.000000e+000	0.000000e+000
231975	5.145226e-001	5.814558e-001	-1.890153e-003	2.466691e-002	0.000000e+000	0.000000e+000	0.000000e+000	0.000000e+000
236930	5.154641e-001	5.723971e-001	-2.488608e-003	2.463223e-002	0.000000e+000	0.000000e+000	0.000000e+000	0.000000e+000
241885	5.159452e-001	5.633262e-001	-3.173840e-003	2.508207e-002	0.000000e+000	0.000000e+000	0.000000e+000	0.000000e+000
246840	5.162775e-001	5.541030e-001	-3.761949e-003	2.574814e-002	0.000000e+000	0.000000e+000	0.000000e+000	0.000000e+000
251795	5.160526e-001	5.448640e-001	-4.271109e-003	2.671315e-002	0.000000e+000	0.000000e+000	0.000000e+000	0.000000e+000
256750	5.154143e-001	5.359004e-001	-4.664260e-003	2.751635e-002	0.000000e+000	0.000000e+000	0.000000e+000	0.000000e+000
261705	5.144162e-001	5.271075e-001	-4.788246e-003	2.850563e-002	0.000000e+000	0.000000e+000	0.000000e+000	0.000000e+000
266660	5.126995e-001	5.186634e-001	-4.925987e-003	2.951284e-002	0.000000e+000	0.000000e+000	0.000000e+000	0.000000e+000
271615	5.108257e-001	5.105127e-001	-4.969795e-003	3.042121e-002	0.000000e+000	0.000000e+000	0.000000e+000	0.000000e+000
276570	5.083549e-001	5.026443e-001	-4.916108e-003	3.126302e-002	0.000000e+000	0.000000e+000	0.000000e+000	0.000000e+000
281525	5.056440e-001	4.953701e-001	-4.766617e-003	3.203601e-002	0.000000e+000	0.000000e+000	0.000000e+000	0.000000e+000
286480	5.025989e-001	4.882576e-001	-4.644778e-003	3.273290e-002	0.000000e+000	0.000000e+000	0.000000e+000	0.000000e+000
291435	4.993995e-001	4.816615e-001	-4.558784e-003	3.342652e-002	0.000000e+000	0.000000e+000	0.000000e+000	0.000000e+000
296390	4.959602e-001	4.755450e-001	-4.583170e-003	3.394073e-002	0.000000e+000	0.000000e+000	0.000000e+000	0.000000e+000
301345	4.922558e-001	4.697888e-001	-4.513242e-003	3.470271e-002	0.000000e+000	0.000000e+000	0.000000e+000	0.000000e+000
306300	4.884521e-001	4.642985e-001	-4.500787e-003	3.534107e-002	0.000000e+000	0.000000e+000	0.000000e+000	0.000000e+000
311255	4.843937e-001	4.592943e-001	-4.364464e-003	3.589074e-002	0.000000e+000	0.000000e+000	0.000000e+000	0.000000e+000
316210	4.801969e-001	4.547448e-001	-4.317844e-003	3.649033e-002	0.000000e+000	0.000000e+000	0.000000e+000	0.000000e+000
321165	4.759164e-001	4.507577e-001	-4.269387e-003	3.693611e-002	0.000000e+000	0.000000e+000	0.000000e+000	0.000000e+000
326120	4.716624e-001	4.470022e-001	-4.489609e-003	3.745274e-002	0.000000e+000	0.000000e+000	0.000000e+000	0.000000e+000
331075	4.673732e-001	4.436140e-001	-4.609590e-003	3.794912e-002	0.000000e+000	0.000000e+000	0.000000e+000	0.000000e+000
336030	4.632228e-001	4.404686e-001	-4.809731e-003	3.861989e-002	0.000000e+000	0.000000e+000	0.000000e+000	0.000000e+000
340985	4.588732e-001	4.376216e-001	-4.998650e-003	3.931381e-002	0.000000e+000	0.000000e+000	0.000000e+000	0.000000e+000
345940	4.546548e-001	4.350763e-001	-5.157980e-003	4.004419e-002	0.000000e+000	0.000000e+000	0.000000e+000	0.000000e+000
350895	4.503708e-001	4.327834e-001	-5.357479e-003	4.086963e-002	0.000000e+000	0.000000e+000	0.000000e+000	0.000000e+000
355850	4.460654e-001	4.307877e-001	-5.445511e-003	4.161357e-002	0.000000e+000	0.000000e+000	0.000000e+000	0.000000e+000
360805	4.417650e-001	4.291050e-001	-5.533569e-003	4.238821e-002	0.000000e+000	0.000000e+000	0.000000e+000	0.000000e+000
365760	4.372920e-001	4.275769e-001	-5.604522e-003	4.319076e-002	0.000000e+000	0.000000e+000	0.000000e+000	0.000000e+000
370715	4.330683e-001	4.262308e-001	-5.660556e-003	4.400361e-002	0.000000e+000	0.000000e+000	0.000000e+000	0.000000e+000
375670	4.288050e-001	4.252338e-001	-5.689143e-003	4.480994e-002	0.000000e+000	0.000000e+000	0.000000e+000	0.000000e+000
380625	4.246095e-001	4.244430e-001	-5.618130e-003	4.561120e-002	0.000000e+000	0.000000e+000	0.000000e+000	0.000000e+000
385580	4.204224e-001	4.238563e-001	-5.632330e-003	4.643790e-002	0.000000e+000	0.000000e+000	0.000000e+000	0.000000e+000
390535	4.163357e-001	4.235200e-001	-5.557701e-003	4.722382e-002	0.000000e+000	0.000000e+000	0.000000e+000	0.000000e+000
395490	4.122228e-001	4.233068e-001	-5.554939e-003	4.801619e-002	0.000000e+000	0.000000e+000	0.000000e+000	0.000000e+000
400445	4.081819e-001	4.233212e-001	-5.446360e-003	4.886973e-002	0.000000e+000	0.000000e+000	0.000000e+000	0.000000e+000
405400	4.042622e-001	4.234469e-001	-5.577038e-003	4.961495e-002	0.000000e+000	0.000000e+000	0.000000e+000	0.000000e+000
410355	4.002315e-001	4.238381e-001	-5.292003e-003	5.039438e-002	0.000000e+000	0.000000e+000	0.000000e+000	0.000000e+000
415310	3.964310e-001	4.243731e-001	-5.177816e-003	5.105449e-002	0.000000e+000	0.000000e+000	0.000000e+000	0.000000e+000
420265	3.926360e-001	4.251524e-001	-4.983295e-003	5.186253e-002	0.000000e+000	0.000000e+000	0.000000e+000	0.000000e+000
425220	3.890079e-001	4.259740e-001	-5.073586e-003	5.250094e-002	0.000000e+000	0.000000e+000	0.000000e+000	0.000000e+000
430175	3.854559e-001	4.269275e-001	-5.074162e-003	5.331064e-002	0.000000e+000	0.000000e+000	0.000000e+000	0.000000e+000
435130	3.822146e-001	4.280373e-001	-5.079116e-003	5.397870e-002	0.000000e+000	0.000000e+000	0.000000e+000	0.000000e+000
440085	3.787979e-001	4.290367e-001	-5.029935e-003	5.489305e-002	0.000000e+000	0.000000e+000	0.000000e+000	0.000000e+000
445040	3.755645e-001	4.301610e-001	-5.034623e-003	5.572596e-002	0.000000e+000	0.000000e+000	0.000000e+000	0.000000e+000
449995	3.724283e-001	4.312951e-001	-4.994150e-003	5.673235e-002	0.000000e+000	0.000000e+000	0.000000e+000	0.000000e+000
454950	3.692908e-001	4.323314e-001	-4.902163e-003	5.770792e-002	0.000000e+000	0.000000e+000	0.000000e+000	0.000000e+000
459905	3.660721e-001	4.334751e-001	-4.561868e-003	5.872725e-002	0.000000e+000	0.000000e+000	0.000000e+000	0.000000e+000
464860	3.628471e-001	4.345310e-001	-4.324444e-003	5.981857e-002	0.000000e+000	0.000000e+000	0.000000e+000	0.000000e+000
469815	3.595597e-001	4.357941e-001	-3.831054e-003	6.080388e-002	0.000000e+000	0.000000e+000	0.000000e+000	0.000000e+000
474770	3.562052e-001	4.370454e-001	-3.263190e-003	6.182198e-002	0.000000e+000	0.000000e+000	0.000000e+000	0.000000e+000
479725	3.527588e-001	4.384600e-001	-2.509195e-003	6.261298e-002	0.000000e+000	0.000000e+000	0.000000e+000	0.000000e+000
484680	3.491941e-001	4.399395e-001	-1.742635e-003	6.343542e-002	0.000000e+000	0.000000e+000	0.000000e+000	0.000000e+000
489635	3.455146e-001	4.416232e-001	-8.716149e-004	6.392709e-002	0.000000e+000	0.000000e+000	0.000000e+000	0.000000e+000
494590	3.419208e-001	4.434331e-001	-4.394389e-005	6.423924e-002	0.000000e+000	0.000000e+000	0.000000e+000	0.000000e+000
499545	3.383249e-001	4.456637e-001	7.870850e-004	6.433620e-002	0.000000e+000	0.000000e+000	0.000000e+000	0.000000e+000
504500	3.348232e-001	4.481981e-001	1.533813e-003	6.435181e-002	0.000000e+000	0.000000e+000	0.000000e+000	0.000000e+000
509455	3.314608e-001	4.509833e-001	1.987739e-003	6.418914e-002	0.000000e+000	0.000000e+000	0.000000e+000	0.000000e+000
514410	3.284311e-001	4.538473e-001	2.443443e-003	6.390754e-002	0.000000e+000	0.000000e+000	0.000000e+000	0.000000e+000
519365	3.255181e-001	4.569441e-001	2.534876e-003	6.366775e-002	0.000000e+000	0.000000e+000	0.000000e+000	0.000000e+000
524320	3.228902e-001	4.602193e-001	2.501720e-003	6.334201e-002	0.000000e+000	0.000000e+000	0.000000e+000	0.000000e+000
529275	3.204550e-001	4.631635e-001	2.301824e-003	6.312466e-002	0.000000e+000	0.000000e+000	0.000000e+000	0.000000e+000
534230	3.183569e-001	4.664355e-001	2.021727e-003	6.303815e-002	0.000000e+000	0.000000e+000	0.000000e+000	0.000000e+000
539185	3.163509e-001	4.694279e-001	1.478593e-003	6.302658e-002	0.000000e+000	0.000000e+000	0.000000e+000	0.000000e+000
544140	3.145287e-001	4.722946e-001	9.314250e-004	6.309400e-002	0.000000e+000	0.000000e+000	0.000000e+000	0.000000e+000
549095	3.129580e-001	4.750638e-001	4.600853e-004	6.336806e-002	0.000000e+000	0.000000e+000	0.000000e+000	0.000000e+000
554050	3.113355e-001	4.778445e-001	-1.029704e-004	6.383438e-002	0.000000e+000	0.000000e+000	0.000000e+000	0.000000e+000
559005	3.098029e-001	4.803371e-001	-6.904416e-004	6.428379e-002	0.000000e+000	0.000000e+000	0.000000e+000	0.000000e+000
563960	3.082973e-001	4.828628e-001	-1.185480e-003	6.490158e-002	0.000000e+000	0.000000e+000	0.000000e+000	0.000000e+000
568915	3.067652e-001	4.851672e-001	-1.667990e-003	6.552864e-002	0.000000e+000	0.000000e+000	0.000000e+000	0.000000e+000
573870	3.053599e-001	4.876150e-001	-2.129470e-003	6.622968e-002	0.000000e+000	0.000000e+000	0.000000e+000	0.000000e+000
578825	3.038322e-001	4.897544e-001	-2.431508e-003	6.699837e-002	0.000000e+000	0.000000e+000	0.000000e+000	0.000000e+000
583780	3.023007e-001	4.919375e-001	-2.800968e-003	6.775884e-002	0.000000e+000	0.000000e+000	0.000000e+000	0.000000e+000
588735	3.007314e-001	4.940223e-001	-3.060526e-003	6.856103e-002	0.000000e+000	0.000000e+000	0.000000e+000	0.000000e+000
593690	2.992901e-001	4.960647e-001	-3.350502e-003	6.936399e-002	0.000000e+000	0.000000e+000	0.000000e+000	0.000000e+000
598645	2.976359e-001	4.981187e-001	-3.470816e-003	7.018120e-002	0.000000e+000	0.000000e+000	0.000000e+000	0.000000e+000
603600	2.959886e-001	5.002453e-001	-3.562690e-003	7.102827e-002	0.000000e+000	0.000000e+000	0.000000e+000	0.000000e+000
608555	2.942968e-001	5.021819e-001	-3.616602e-003	7.171655e-002	0.000000e+000	0.000000e+000	0.000000e+000	0.000000e+000
613510	2.927216e-001	5.042728e-001	-3.711569e-003	7.240484e-002	0.000000e+000	0.000000e+000	0.000000e+000	0.000000e+000
618465	2.908998e-001	5.064308e-001	-3.845915e-003	7.305287e-002	0.000000e+000	0.000000e+000	0.000000e+000	0.000000e+000
623420	2.893470e-001	5.086425e-001	-4.095941e-003	7.368886e-002	0.000000e+000	0.000000e+000	0.000000e+000	0.000000e+000
628375	2.877459e-001	5.109614e-001	-4.372359e-003	7.430597e-002	0.000000e+000	0.000000e+000	0.000000e+000	0.000000e+000
633330	2.864618e-001	5.129683e-001	-4.651064e-003	7.506973e-002	0.000000e+000	0.000000e+000	0.000000e+000	0.000000e+000
638285	2.851206e-001	5.150627e-001	-5.055764e-003	7.579750e-002	0.000000e+000	0.000000e+000	0.000000e+000	0.000000e+000
643240	2.836789e-001	5.169615e-001	-5.329602e-003	7.668070e-002	0.000000e+000	0.000000e+000	0.000000e+000	0.000000e+000
648195	2.823248e-001	5.189763e-001	-5.674241e-003	7.761807e-002	0.000000e+000	0.000000e+000	0.000000e+000	0.000000e+000
653150	2.809141e-001	5.207919e-001	-5.840244e-003	7.859415e-002	0.000000e+000	0.000000e+000	0.000000e+000	0.000000e+000
658105	2.795771e-001	5.226323e-001	-6.004779e-003	7.957193e-002	0.000000e+000	0.000000e+000	0.000000e+000	0.000000e+000
663060	2.781734e-001	5.242689e-001	-6.147154e-003	8.055916e-002	0.000000e+000	0.000000e+000	0.000000e+000	0.000000e+000
668015	2.767164e-001	5.259597e-001	-6.210275e-003	8.153285e-002	0.000000e+000	0.000000e+000	0.000000e+000	0.000000e+000
672970	2.751281e-001	5.276449e-001	-6.288541e-003	8.260812e-002	0.000000e+000	0.000000e+000	0.000000e+000	0.000000e+000
677925	2.736406e-001	5.291920e-001	-6.279678e-003	8.363261e-002	0.000000e+000	0.000000e+000	0.000000e+000	0.000000e+000
682880	2.720592e-001	5.308575e-001	-6.289090e-003	8.462900e-002	0.000000e+000	0.000000e+000	0.000000e+000	0.000000e+000
687835	2.704841e-001	5.323150e-001	-6.243286e-003	8.568814e-002	0.000000e+000	0.000000e+000	0.000000e+000	0.000000e+000
692790	2.688040e-001	5.339105e-001	-6.159245e-003	8.671726e-002	0.000000e+000	0.000000e+000	0.000000e+000	0.000000e+000
697745	2.671867e-001	5.352962e-001	-5.988677e-003	8.777165e-002	0.000000e+000	0.000000e+000	0.000000e+000	0.000000e+000
702700	2.655063e-001	5.368308e-001	-5.894315e-003	8.870388e-002	0.000000e+000	0.000000e+000	0.000000e+000	0.000000e+000
707655	2.637504e-001	5.382760e-001	-5.725803e-003	8.967291e-002	0.000000e+000	0.000000e+000	0.000000e+000	0.000000e+000
712610	2.619780e-001	5.397067e-001	-5.530604e-003	9.066074e-002	0.000000e+000	0.000000e+000	0.000000e+000	0.000000e+000
717565	2.602823e-001	5.412612e-001	-5.321929e-003	9.160797e-002	0.000000e+000	0.000000e+000	0.000000e+000	0.000000e+000
722520	2.582922e-001	5.424074e-001	-5.166916e-003	9.265071e-002	0.000000e+000	0.000000e+000	0.000000e+000	0.000000e+000
727475	2.565723e-001	5.441137e-001	-4.897152e-003	9.347774e-002	0.000000e+000	0.000000e+000	0.000000e+000	0.000000e+000
732430	2.547621e-001	5.455213e-001	-4.609887e-003	9.440178e-002	0.000000e+000	0.000000e+000	0.000000e+000	0.000000e+000
737385	2.528219e-001	5.468505e-001	-4.332764e-003	9.534565e-002	0.000000e+000	0.000000e+000	0.000000e+000	0.000000e+000
742340	2.509643e-001	5.482751e-001	-4.099396e-003	9.621112e-002	0.000000e+000	0.000000e+000	0.000000e+000	0.000000e+000
747295	2.490413e-001	5.497791e-001	-3.789955e-003	9.718745e-002	0.000000e+000	0.000000e+000	0.000000e+000	0.000000e+000
752250	2.469559e-001	5.512495e-001	-3.461250e-003	9.802759e-002	0.000000e+000	0.000000e+000	0.000000e+000	0.000000e+000
757205	2.449363e-001	5.525977e-001	-3.074711e-003	9.892767e-002	0.000000e+000	0.000000e+000	0.000000e+000	0.000000e+000
762160	2.429956e-001	5.537816e-001	-2.643505e-003	9.981658e-002	0.000000e+000	0.000000e+000	0.000000e+000	0.000000e+000
767115	2.408080e-001	5.552311e-001	-2.324205e-003	1.006079e-001	0.000000e+000	0.000000e+000	0.000000e+000	0.000000e+000
772070	2.386921e-001	5.564883e-001	-1.892457e-003	1.015045e-001	0.000000e+000	0.000000e+000	0.000000e+000	0.000000e+000
777025	2.366140e-001	5.577842e-001	-1.554681e-003	1.022462e-001	0.000000e+000	0.000000e+000	0.000000e+000	0.000000e+000
781980	2.343446e-001	5.594294e-001	-1.087142e-003	1.030558e-001	0.000000e+000	0.000000e+000	0.000000e+000	0.000000e+000
786935	2.321844e-001	5.606005e-001	-6.324939e-004	1.038027e-001	0.000000e+000	0.000000e+000	0.000000e+000	0.000000e+000
791890	2.299660e-001	5.619198e-001	-1.939817e-004	1.045538e-001	0.000000e+000	0.000000e+000	0.000000e+000	0.000000e+000
796845	2.276502e-001	5.632963e-001	3.341022e-004	1.052707e-001	0.000000e+000	0.000000e+000	0.000000e+000	0.000000e+000
801800	2.253588e-001	5.645540e-001	7.785910e-004	1.059003e-001	0.000000e+000	0.000000e+000	0.000000e+000	0.000000e+000
806755	2.228880e-001	5.659621e-001	1.331438e-003	1.065325e-001	0.000000e+000	0.000000e+000	0.000000e+000	0.000000e+000
811710	2.205304e-001	5.673910e-001	1.825637e-003	1.071026e-001	0.000000e+000	0.000000e+000	0.000000e+000	0.000000e+000
816665	2.181943e-001	5.687885e-001	2.317704e-003	1.077563e-001	0.000000e+000	0.000000e+000	0.000000e+000	0.000000e+000
821620	2.157827e-001	5.702336e-001	2.831358e-003	1.082572e-001	0.000000e+000	0.000000e+000	0.000000e+000	0.000000e+000
