!Agilent Technologies,E5071C,MY46109397,A.09.54
!Date: Mon Jan 01 02:05:26 2001
!Data & Calibration Information:
!Freq	S11:SOLT1(ON)	S21:RESPT(ON)	S12:NONE(--)	S22:NONE(--)
# Hz S RI R 50
9000	9.674995e-001	2.982372e-001	8.541334e-001	5.351011e-001	0.000000e+000	0.000000e+000	0.000000e+000	0.000000e+000
13955	9.614947e-001	4.148130e-001	-2.695495e-003	-1.433984e-003	0.000000e+000	0.000000e+000	0.000000e+000	0.000000e+000
18910	9.072297e-001	5.033438e-001	-4.997445e-003	4.035694e-003	0.000000e+000	0.000000e+000	0.000000e+000	0.000000e+000
23865	8.329240e-001	5.969950e-001	-6.131092e-003	9.056745e-003	0.000000e+000	0.000000e+000	0.000000e+000	0.000000e+000
28820	7.689991e-001	6.754050e-001	1.804516e-003	1.639066e-002	0.000000e+000	0.000000e+000	0.000000e+000	0.000000e+000
33775	7.066188e-001	7.364016e-001	1.050231e-002	1.233562e-002	0.000000e+000	0.000000e+000	0.000000e+000	0.000000e+000
38730	6.504069e-001	7.864233e-001	1.016149e-002	6.078549e-003	0.000000e+000	0.000000e+000	0.000000e+000	0.000000e+000
43685	6.005312e-001	8.243098e-001	8.441359e-003	3.365256e-003	0.000000e+000	0.000000e+000	0.000000e+000	0.000000e+000
48640	5.562568e-001	8.527198e-001	6.616809e-003	2.487744e-003	0.000000e+000	0.000000e+000	0.000000e+000	0.000000e+000
53595	5.196133e-001	8.736755e-001	4.604180e-003	1.840069e-003	0.000000e+000	0.000000e+000	0.000000e+000	0.000000e+000
58550	4.888720e-001	8.886354e-001	3.322506e-003	2.388805e-003	0.000000e+000	0.000000e+000	0.000000e+000	0.000000e+000
63505	4.641514e-001	8.986137e-001	1.647627e-003	3.407306e-003	0.000000e+000	0.000000e+000	0.000000e+000	0.000000e+000
68460	4.450636e-001	9.044510e-001	2.116531e-004	4.178937e-003	0.000000e+000	0.000000e+000	0.000000e+000	0.000000e+000
73415	4.307139e-001	9.065224e-001	-6.238082e-004	6.153924e-003	0.000000e+000	0.000000e+000	0.000000e+000	0.000000e+000
78370	4.201212e-001	9.054576e-001	-1.137571e-003	8.818275e-003	0.000000e+000	0.000000e+000	0.000000e+000	0.000000e+000
83325	4.122252e-001	9.016186e-001	2.451947e-004	1.196097e-002	0.000000e+000	0.000000e+000	0.000000e+000	0.000000e+000
88280	4.053800e-001	8.969622e-001	4.152845e-003	1.294483e-002	0.000000e+000	0.000000e+000	0.000000e+000	0.000000e+000
93235	4.018806e-001	8.932565e-001	6.584990e-003	9.197452e-003	0.000000e+000	0.000000e+000	0.000000e+000	0.000000e+000
98190	4.025520e-001	8.885628e-001	4.881275e-003	6.833787e-003	0.000000e+000	0.000000e+000	0.000000e+000	0.000000e+000
103145	4.056347e-001	8.815202e-001	2.454064e-003	6.338027e-003	0.000000e+000	0.000000e+000	0.000000e+000	0.000000e+000
108100	4.101044e-001	8.725409e-001	-1.831901e-004	7.335874e-003	0.000000e+000	0.000000e+000	0.000000e+000	0.000000e+000
113055	4.155052e-001	8.622755e-001	-1.662502e-003	8.670448e-003	0.000000e+000	0.000000e+000	0.000000e+000	0.000000e+000
118010	4.213572e-001	8.506142e-001	-3.049739e-003	1.125231e-002	0.000000e+000	0.000000e+000	0.000000e+000	0.000000e+000
122965	4.275532e-001	8.374288e-001	-3.206504e-003	1.471618e-002	0.000000e+000	0.000000e+000	0.000000e+000	0.000000e+000
127920	4.316638e-001	8.229460e-001	-8.128564e-004	1.841667e-002	0.000000e+000	0.000000e+000	0.000000e+000	0.000000e+000
132875	4.330851e-001	8.106090e-001	4.543432e-003	1.847050e-002	0.000000e+000	0.000000e+000	0.000000e+000	0.000000e+000
137830	4.363333e-001	8.025416e-001	6.350988e-003	1.414498e-002	0.000000e+000	0.000000e+000	0.000000e+000	0.000000e+000
142785	4.439097e-001	7.936466e-001	3.684560e-003	1.139135e-002	0.000000e+000	0.000000e+000	0.000000e+000	0.000000e+000
147740	4.518504e-001	7.824166e-001	1.214011e-003	1.169272e-002	0.000000e+000	0.000000e+000	0.000000e+000	0.000000e+000
152695	4.593620e-001	7.702253e-001	-5.580898e-004	1.256941e-002	0.000000e+000	0.000000e+000	0.000000e+000	0.000000e+000
157650	4.664971e-001	7.573458e-001	-2.048135e-003	1.405340e-002	0.000000e+000	0.000000e+000	0.000000e+000	0.000000e+000
162605	4.729506e-001	7.441665e-001	-2.929355e-003	1.583226e-002	0.000000e+000	0.000000e+000	0.000000e+000	0.000000e+000
167560	4.789616e-001	7.308864e-001	-3.376355e-003	1.743857e-002	0.000000e+000	0.000000e+000	0.000000e+000	0.000000e+000
172515	4.846106e-001	7.174747e-001	-3.782483e-003	1.924399e-002	0.000000e+000	0.000000e+000	0.000000e+000	0.000000e+000
177470	4.897304e-001	7.038313e-001	-4.029828e-003	2.143601e-002	0.000000e+000	0.000000e+000	0.000000e+000	0.000000e+000
182425	4.939663e-001	6.898191e-001	-3.644037e-003	2.382535e-002	0.000000e+000	0.000000e+000	0.000000e+000	0.000000e+000
187380	4.971896e-001	6.755723e-001	-2.586749e-003	2.604634e-002	0.000000e+000	0.000000e+000	0.000000e+000	0.000000e+000
192335	4.992483e-001	6.616044e-001	-7.867356e-004	2.827724e-002	0.000000e+000	0.000000e+000	0.000000e+000	0.000000e+000
197290	4.997074e-001	6.481134e-001	2.051581e-003	2.964442e-002	0.000000e+000	0.000000e+000	0.000000e+000	0.000000e+000
202245	4.986585e-001	6.359168e-001	5.344851e-003	2.996725e-002	0.000000e+000	0.000000e+000	0.000000e+000	0.000000e+000
207200	4.967787e-001	6.260086e-001	8.652487e-003	2.845120e-002	0.000000e+000	0.000000e+000	0.000000e+000	0.000000e+000
212155	4.957649e-001	6.185315e-001	1.022297e-002	2.547867e-002	0.000000e+000	0.000000e+000	0.000000e+000	0.000000e+000
217110	4.964145e-001	6.119660e-001	1.018336e-002	2.222470e-002	0.000000e+000	0.000000e+000	0.000000e+000	0.000000e+000
222065	4.986009e-001	6.053127e-001	8.530780e-003	1.983069e-002	0.000000e+000	0.000000e+000	0.000000e+000	0.000000e+000
227020	5.015718e-001	5.976546e-001	6.386865e-003	1.876259e-002	0.000000e+000	0.000000e+000	0.000000e+000	0.000000e+000
231975	5.044004e-001	5.888933e-001	4.314866e-003	1.858307e-002	0.000000e+000	0.000000e+000	0.000000e+000	0.000000e+000
236930	5.067891e-001	5.796191e-001	2.513815e-003	1.899871e-002	0.000000e+000	0.000000e+000	0.000000e+000	0.000000e+000
241885	5.083968e-001	5.703161e-001	1.075394e-003	1.994232e-002	0.000000e+000	0.000000e+000	0.000000e+000	0.000000e+000
246840	5.095186e-001	5.608165e-001	-1.296889e-004	2.077534e-002	0.000000e+000	0.000000e+000	0.000000e+000	0.000000e+000
251795	5.099329e-001	5.513987e-001	-1.155512e-003	2.178171e-002	0.000000e+000	0.000000e+000	0.000000e+000	0.000000e+000
256750	5.098715e-001	5.422248e-001	-1.786661e-003	2.299040e-002	0.000000e+000	0.000000e+000	0.000000e+000	0.000000e+000
261705	5.093333e-001	5.332688e-001	-2.462917e-003	2.403307e-002	0.000000e+000	0.000000e+000	0.000000e+000	0.000000e+000
266660	5.081863e-001	5.245754e-001	-2.948243e-003	2.511827e-002	0.000000e+000	0.000000e+000	0.000000e+000	0.000000e+000
271615	5.067734e-001	5.162297e-001	-3.436561e-003	2.627060e-002	0.000000e+000	0.000000e+000	0.000000e+000	0.000000e+000
276570	5.048310e-001	5.081788e-001	-3.610938e-003	2.727986e-002	0.000000e+000	0.000000e+000	0.000000e+000	0.000000e+000
281525	5.025625e-001	5.005763e-001	-3.785421e-003	2.831178e-002	0.000000e+000	0.000000e+000	0.000000e+000	0.000000e+000
286480	4.999655e-001	4.930924e-001	-3.959300e-003	2.923882e-002	0.000000e+000	0.000000e+000	0.000000e+000	0.000000e+000
291435	4.970903e-001	4.860797e-001	-4.157785e-003	3.026605e-002	0.000000e+000	0.000000e+000	0.000000e+000	0.000000e+000
296390	4.939557e-001	4.795869e-001	-4.182099e-003	3.115901e-002	0.000000e+000	0.000000e+000	0.000000e+000	0.000000e+000
301345	4.904564e-001	4.733512e-001	-4.236971e-003	3.212263e-002	0.000000e+000	0.000000e+000	0.000000e+000	0.000000e+000
306300	4.868659e-001	4.675067e-001	-4.361184e-003	3.310791e-002	0.000000e+000	0.000000e+000	0.000000e+000	0.000000e+000
311255	4.829211e-001	4.620828e-001	-4.208243e-003	3.389539e-002	0.000000e+000	0.000000e+000	0.000000e+000	0.000000e+000
316210	4.787749e-001	4.570562e-001	-4.284208e-003	3.476894e-002	0.000000e+000	0.000000e+000	0.000000e+000	0.000000e+000
321165	4.745108e-001	4.526764e-001	-4.175881e-003	3.546676e-002	0.000000e+000	0.000000e+000	0.000000e+000	0.000000e+000
326120	4.701568e-001	4.485227e-001	-4.205211e-003	3.622326e-002	0.000000e+000	0.000000e+000	0.000000e+000	0.000000e+000
331075	4.658159e-001	4.448547e-001	-4.407666e-003	3.696745e-002	0.000000e+000	0.000000e+000	0.000000e+000	0.000000e+000
336030	4.615834e-001	4.414329e-001	-4.417456e-003	3.759343e-002	0.000000e+000	0.000000e+000	0.000000e+000	0.000000e+000
340985	4.571998e-001	4.383615e-001	-4.563682e-003	3.848944e-002	0.000000e+000	0.000000e+000	0.000000e+000	0.000000e+000
345940	4.529230e-001	4.355411e-001	-4.791078e-003	3.939819e-002	0.000000e+000	0.000000e+000	0.000000e+000	0.000000e+000
350895	4.485673e-001	4.329686e-001	-4.771494e-003	4.031590e-002	0.000000e+000	0.000000e+000	0.000000e+000	0.000000e+000
355850	4.440987e-001	4.307120e-001	-4.779727e-003	4.124330e-002	0.000000e+000	0.000000e+000	0.000000e+000	0.000000e+000
360805	4.396946e-001	4.287272e-001	-4.718536e-003	4.218012e-002	0.000000e+000	0.000000e+000	0.000000e+000	0.000000e+000
365760	4.350816e-001	4.268696e-001	-4.644319e-003	4.317356e-002	0.000000e+000	0.000000e+000	0.000000e+000	0.000000e+000
370715	4.305784e-001	4.252103e-001	-4.419345e-003	4.410556e-002	0.000000e+000	0.000000e+000	0.000000e+000	0.000000e+000
375670	4.259505e-001	4.239140e-001	-4.188794e-003	4.507624e-002	0.000000e+000	0.000000e+000	0.000000e+000	0.000000e+000
380625	4.213417e-001	4.228781e-001	-3.833869e-003	4.590251e-002	0.000000e+000	0.000000e+000	0.000000e+000	0.000000e+000
385580	4.167001e-001	4.221260e-001	-3.356337e-003	4.672189e-002	0.000000e+000	0.000000e+000	0.000000e+000	0.000000e+000
390535	4.119967e-001	4.216647e-001	-2.911040e-003	4.743880e-002	0.000000e+000	0.000000e+000	0.000000e+000	0.000000e+000
395490	4.073937e-001	4.214409e-001	-2.419932e-003	4.817754e-002	0.000000e+000	0.000000e+000	0.000000e+000	0.000000e+000
400445	4.026087e-001	4.215345e-001	-1.800468e-003	4.865697e-002	0.000000e+000	0.000000e+000	0.000000e+000	0.000000e+000
405400	3.980218e-001	4.219187e-001	-1.235560e-003	4.911270e-002	0.000000e+000	0.000000e+000	0.000000e+000	0.000000e+000
410355	3.932043e-001	4.227392e-001	-6.130031e-004	4.935274e-002	0.000000e+000	0.000000e+000	0.000000e+000	0.000000e+000
415310	3.886869e-001	4.239813e-001	-2.679833e-005	4.927549e-002	0.000000e+000	0.000000e+000	0.000000e+000	0.000000e+000
420265	3.843931e-001	4.256734e-001	1.864200e-004	4.904934e-002	0.000000e+000	0.000000e+000	0.000000e+000	0.000000e+000
425220	3.805343e-001	4.275732e-001	7.100294e-005	4.866321e-002	0.000000e+000	0.000000e+000	0.000000e+000	0.000000e+000
430175	3.770064e-001	4.296433e-001	-1.814847e-004	4.859586e-002	0.000000e+000	0.000000e+000	0.000000e+000	0.000000e+000
435130	3.740352e-001	4.317254e-001	-6.696414e-004	4.853788e-002	0.000000e+000	0.000000e+000	0.000000e+000	0.000000e+000
440085	3.711190e-001	4.336212e-001	-1.431743e-003	4.871734e-002	0.000000e+000	0.000000e+000	0.000000e+000	0.000000e+000
445040	3.684643e-001	4.354070e-001	-2.022008e-003	4.913298e-002	0.000000e+000	0.000000e+000	0.000000e+000	0.000000e+000
449995	3.659255e-001	4.371425e-001	-2.715233e-003	4.975517e-002	0.000000e+000	0.000000e+000	0.000000e+000	0.000000e+000
454950	3.634239e-001	4.387075e-001	-3.176954e-003	5.054631e-002	0.000000e+000	0.000000e+000	0.000000e+000	0.000000e+000
459905	3.608371e-001	4.402289e-001	-3.577645e-003	5.134849e-002	0.000000e+000	0.000000e+000	0.000000e+000	0.000000e+000
464860	3.582908e-001	4.415908e-001	-3.922967e-003	5.230469e-002	0.000000e+000	0.000000e+000	0.000000e+000	0.000000e+000
469815	3.557032e-001	4.430880e-001	-4.032409e-003	5.326431e-002	0.000000e+000	0.000000e+000	0.000000e+000	0.000000e+000
474770	3.529909e-001	4.445332e-001	-4.121816e-003	5.423157e-002	0.000000e+000	0.000000e+000	0.000000e+000	0.000000e+000
479725	3.502635e-001	4.460628e-001	-4.171814e-003	5.512394e-002	0.000000e+000	0.000000e+000	0.000000e+000	0.000000e+000
484680	3.474071e-001	4.476045e-001	-3.935635e-003	5.605391e-002	0.000000e+000	0.000000e+000	0.000000e+000	0.000000e+000
489635	3.443797e-001	4.492196e-001	-3.585640e-003	5.677898e-002	0.000000e+000	0.000000e+000	0.000000e+000	0.000000e+000
494590	3.413511e-001	4.509179e-001	-3.289444e-003	5.735072e-002	0.000000e+000	0.000000e+000	0.000000e+000	0.000000e+000
499545	3.383874e-001	4.530532e-001	-2.978324e-003	5.782659e-002	0.000000e+000	0.000000e+000	0.000000e+000	0.000000e+000
504500	3.354608e-001	4.554557e-001	-2.674273e-003	5.805477e-002	0.000000e+000	0.000000e+000	0.000000e+000	0.000000e+000
509455	3.327255e-001	4.580348e-001	-2.608969e-003	5.807164e-002	0.000000e+000	0.000000e+000	0.000000e+000	0.000000e+000
514410	3.303183e-001	4.606898e-001	-2.760128e-003	5.828404e-002	0.000000e+000	0.000000e+000	0.000000e+000	0.000000e+000
519365	3.280761e-001	4.634023e-001	-3.082045e-003	5.842513e-002	0.000000e+000	0.000000e+000	0.000000e+000	0.000000e+000
524320	3.260293e-001	4.661853e-001	-3.480856e-003	5.872118e-002	0.000000e+000	0.000000e+000	0.000000e+000	0.000000e+000
529275	3.240421e-001	4.685053e-001	-3.799142e-003	5.923797e-002	0.000000e+000	0.000000e+000	0.000000e+000	0.000000e+000
534230	3.221787e-001	4.710325e-001	-4.184185e-003	5.965211e-002	0.000000e+000	0.000000e+000	0.000000e+000	0.000000e+000
539185	3.203392e-001	4.733697e-001	-4.577906e-003	6.022511e-002	0.000000e+000	0.000000e+000	0.000000e+000	0.000000e+000
544140	3.184619e-001	4.756685e-001	-4.908961e-003	6.089865e-002	0.000000e+000	0.000000e+000	0.000000e+000	0.000000e+000
549095	3.167248e-001	4.779578e-001	-5.229717e-003	6.149467e-002	0.000000e+000	0.000000e+000	0.000000e+000	0.000000e+000
554050	3.149286e-001	4.803087e-001	-5.484143e-003	6.211856e-002	0.000000e+000	0.000000e+000	0.000000e+000	0.000000e+000
559005	3.131834e-001	4.825530e-001	-5.738949e-003	6.268814e-002	0.000000e+000	0.000000e+000	0.000000e+000	0.000000e+000
563960	3.114253e-001	4.848782e-001	-6.038550e-003	6.325750e-002	0.000000e+000	0.000000e+000	0.000000e+000	0.000000e+000
568915	3.097260e-001	4.871095e-001	-6.314670e-003	6.390808e-002	0.000000e+000	0.000000e+000	0.000000e+000	0.000000e+000
573870	3.080745e-001	4.895043e-001	-6.614698e-003	6.462097e-002	0.000000e+000	0.000000e+000	0.000000e+000	0.000000e+000
578825	3.064522e-001	4.916871e-001	-6.934645e-003	6.525931e-002	0.000000e+000	0.000000e+000	0.000000e+000	0.000000e+000
583780	3.048007e-001	4.939147e-001	-7.256963e-003	6.589382e-002	0.000000e+000	0.000000e+000	0.000000e+000	0.000000e+000
588735	3.031753e-001	4.961095e-001	-7.550702e-003	6.668150e-002	0.000000e+000	0.000000e+000	0.000000e+000	0.000000e+000
593690	3.018074e-001	4.982536e-001	-7.840951e-003	6.738650e-002	0.000000e+000	0.000000e+000	0.000000e+000	0.000000e+000
598645	3.002204e-001	5.004207e-001	-8.120934e-003	6.814442e-002	0.000000e+000	0.000000e+000	0.000000e+000	0.000000e+000
603600	2.987137e-001	5.026636e-001	-8.409736e-003	6.896287e-002	0.000000e+000	0.000000e+000	0.000000e+000	0.000000e+000
608555	2.972352e-001	5.046285e-001	-8.694302e-003	6.962686e-002	0.000000e+000	0.000000e+000	0.000000e+000	0.000000e+000
613510	2.958670e-001	5.066924e-001	-8.910524e-003	7.050079e-002	0.000000e+000	0.000000e+000	0.000000e+000	0.000000e+000
618465	2.942718e-001	5.087206e-001	-9.282681e-003	7.124486e-002	0.000000e+000	0.000000e+000	0.000000e+000	0.000000e+000
623420	2.928077e-001	5.107380e-001	-9.495201e-003	7.208920e-002	0.000000e+000	0.000000e+000	0.000000e+000	0.000000e+000
628375	2.912912e-001	5.128187e-001	-9.629743e-003	7.305212e-002	0.000000e+000	0.000000e+000	0.000000e+000	0.000000e+000
633330	2.898952e-001	5.146367e-001	-9.857372e-003	7.383633e-002	0.000000e+000	0.000000e+000	0.000000e+000	0.000000e+000
638285	2.883936e-001	5.165800e-001	-1.009289e-002	7.464199e-002	0.000000e+000	0.000000e+000	0.000000e+000	0.000000e+000
643240	2.868639e-001	5.184691e-001	-1.030486e-002	7.555757e-002	0.000000e+000	0.000000e+000	0.000000e+000	0.000000e+000
648195	2.853438e-001	5.204668e-001	-1.045837e-002	7.639733e-002	0.000000e+000	0.000000e+000	0.000000e+000	0.000000e+000
653150	2.838180e-001	5.222919e-001	-1.055932e-002	7.719746e-002	0.000000e+000	0.000000e+000	0.000000e+000	0.000000e+000
658105	2.823367e-001	5.241505e-001	-1.071932e-002	7.814144e-002	0.000000e+000	0.000000e+000	0.000000e+000	0.000000e+000
663060	2.808284e-001	5.259731e-001	-1.092619e-002	7.903599e-002	0.000000e+000	0.000000e+000	0.000000e+000	0.000000e+000
668015	2.793069e-001	5.277538e-001	-1.098664e-002	7.986050e-002	0.000000e+000	0.000000e+000	0.000000e+000	0.000000e+000
672970	2.776295e-001	5.296199e-001	-1.106930e-002	8.080337e-002	0.000000e+000	0.000000e+000	0.000000e+000	0.000000e+000
677925	2.761024e-001	5.313229e-001	-1.117722e-002	8.159656e-002	0.000000e+000	0.000000e+000	0.000000e+000	0.000000e+000
682880	2.744753e-001	5.331430e-001	-1.124952e-002	8.253201e-002	0.000000e+000	0.000000e+000	0.000000e+000	0.000000e+000
687835	2.729125e-001	5.348194e-001	-1.125730e-002	8.335564e-002	0.000000e+000	0.000000e+000	0.000000e+000	0.000000e+000
692790	2.712476e-001	5.366178e-001	-1.134805e-002	8.422169e-002	0.000000e+000	0.000000e+000	0.000000e+000	0.000000e+000
697745	2.696252e-001	5.382458e-001	-1.136234e-002	8.508303e-002	0.000000e+000	0.000000e+000	0.000000e+000	0.000000e+000
702700	2.680019e-001	5.399662e-001	-1.146841e-002	8.589794e-002	0.000000e+000	0.000000e+000	0.000000e+000	0.000000e+000
707655	2.662953e-001	5.417005e-001	-1.141842e-002	8.672046e-002	0.000000e+000	0.000000e+000	0.000000e+000	0.000000e+000
712610	2.645740e-001	5.433720e-001	-1.152332e-002	8.755604e-002	0.000000e+000	0.000000e+000	0.000000e+000	0.000000e+000
717565	2.630133e-001	5.451934e-001	-1.146640e-002	8.833082e-002	0.000000e+000	0.000000e+000	0.000000e+000	0.000000e+000
722520	2.611994e-001	5.466094e-001	-1.169230e-002	8.936853e-002	0.000000e+000	0.000000e+000	0.000000e+000	0.000000e+000
727475	2.595677e-001	5.485603e-001	-1.162537e-002	8.992887e-002	0.000000e+000	0.000000e+000	0.000000e+000	0.000000e+000
732430	2.578916e-001	5.501979e-001	-1.164146e-002	9.078412e-002	0.000000e+000	0.000000e+000	0.000000e+000	0.000000e+000
737385	2.561382e-001	5.518082e-001	-1.172272e-002	9.161312e-002	0.000000e+000	0.000000e+000	0.000000e+000	0.000000e+000
742340	2.544730e-001	5.535052e-001	-1.173499e-002	9.235625e-002	0.000000e+000	0.000000e+000	0.000000e+000	0.000000e+000
747295	2.527403e-001	5.553301e-001	-1.178188e-002	9.315998e-002	0.000000e+000	0.000000e+000	0.000000e+000	0.000000e+000
752250	2.509246e-001	5.570669e-001	-1.181704e-002	9.399795e-002	0.000000e+000	0.000000e+000	0.000000e+000	0.000000e+000
757205	2.492050e-001	5.586996e-001	-1.193570e-002	9.475851e-002	0.000000e+000	0.000000e+000	0.000000e+000	0.000000e+000
762160	2.475786e-001	5.601964e-001	-1.201398e-002	9.562846e-002	0.000000e+000	0.000000e+000	0.000000e+000	0.000000e+000
767115	2.457411e-001	5.618962e-001	-1.208735e-002	9.641590e-002	0.000000e+000	0.000000e+000	0.000000e+000	0.000000e+000
772070	2.439854e-001	5.634518e-001	-1.213947e-002	9.727980e-002	0.000000e+000	0.000000e+000	0.000000e+000	0.000000e+000
777025	2.423235e-001	5.649635e-001	-1.222619e-002	9.815172e-002	0.000000e+000	0.000000e+000	0.000000e+000	0.000000e+000
781980	2.404856e-001	5.668305e-001	-1.227829e-002	9.896384e-002	0.000000e+000	0.000000e+000	0.000000e+000	0.000000e+000
786935	2.387544e-001	5.682436e-001	-1.228621e-002	9.989144e-002	0.000000e+000	0.000000e+000	0.000000e+000	0.000000e+000
791890	2.370251e-001	5.697422e-001	-1.238631e-002	1.007453e-001	0.000000e+000	0.000000e+000	0.000000e+000	0.000000e+000
796845	2.352195e-001	5.712792e-001	-1.240347e-002	1.016223e-001	0.000000e+000	0.000000e+000	0.000000e+000	0.000000e+000
801800	2.334311e-001	5.726543e-001	-1.244477e-002	1.025983e-001	0.000000e+000	0.000000e+000	0.000000e+000	0.000000e+000
806755	2.314933e-001	5.741766e-001	-1.242309e-002	1.034027e-001	0.000000e+000	0.000000e+000	0.000000e+000	0.000000e+000
811710	2.296532e-001	5.756771e-001	-1.247586e-002	1.043124e-001	0.000000e+000	0.000000e+000	0.000000e+000	0.000000e+000
816665	2.279004e-001	5.771196e-001	-1.242102e-002	1.052427e-001	0.000000e+000	0.000000e+000	0.000000e+000	0.000000e+000
821620	2.260828e-001	5.785286e-001	-1.245151e-002	1.061394e-001	0.000000e+000	0.000000e+000	0.000000e+000	0.000000e+000
