!Agilent Technologies,E5071C,MY46109397,A.09.54
!Date: Mon Jan 01 02:04:37 2001
!Data & Calibration Information:
!Freq	S11:SOLT1(ON)	S21:RESPT(ON)	S12:NONE(--)	S22:NONE(--)
# Hz S RI R 50
9000	9.674814e-001	2.982307e-001	8.590024e-001	5.348387e-001	0.000000e+000	0.000000e+000	0.000000e+000	0.000000e+000
13955	9.614507e-001	4.148023e-001	-2.203175e-003	2.982290e-003	0.000000e+000	0.000000e+000	0.000000e+000	0.000000e+000
18910	9.070737e-001	5.033929e-001	1.441978e-003	9.938863e-003	0.000000e+000	0.000000e+000	0.000000e+000	0.000000e+000
23865	8.326287e-001	5.973806e-001	6.274808e-003	8.643774e-003	0.000000e+000	0.000000e+000	0.000000e+000	0.000000e+000
28820	7.691160e-001	6.762723e-001	8.344470e-003	4.895607e-003	0.000000e+000	0.000000e+000	0.000000e+000	0.000000e+000
33775	7.073491e-001	7.369982e-001	6.979686e-003	2.460945e-003	0.000000e+000	0.000000e+000	0.000000e+000	0.000000e+000
38730	6.511357e-001	7.866972e-001	5.705936e-003	1.161014e-003	0.000000e+000	0.000000e+000	0.000000e+000	0.000000e+000
43685	6.011870e-001	8.245047e-001	4.920757e-003	7.692806e-004	0.000000e+000	0.000000e+000	0.000000e+000	0.000000e+000
48640	5.568348e-001	8.529067e-001	3.872117e-003	1.127136e-003	0.000000e+000	0.000000e+000	0.000000e+000	0.000000e+000
53595	5.201141e-001	8.738887e-001	3.008291e-003	1.040715e-003	0.000000e+000	0.000000e+000	0.000000e+000	0.000000e+000
58550	4.892386e-001	8.889069e-001	1.710031e-003	1.307620e-003	0.000000e+000	0.000000e+000	0.000000e+000	0.000000e+000
63505	4.643933e-001	8.990039e-001	9.168426e-004	2.103953e-003	0.000000e+000	0.000000e+000	0.000000e+000	0.000000e+000
68460	4.451295e-001	9.050254e-001	2.521994e-005	2.985554e-003	0.000000e+000	0.000000e+000	0.000000e+000	0.000000e+000
73415	4.305533e-001	9.073863e-001	-8.503832e-004	4.145583e-003	0.000000e+000	0.000000e+000	0.000000e+000	0.000000e+000
78370	4.198190e-001	9.068956e-001	-1.000341e-003	5.907914e-003	0.000000e+000	0.000000e+000	0.000000e+000	0.000000e+000
83325	4.122325e-001	9.039032e-001	-3.285463e-004	7.909330e-003	0.000000e+000	0.000000e+000	0.000000e+000	0.000000e+000
88280	4.066067e-001	8.995773e-001	1.692139e-003	8.785111e-003	0.000000e+000	0.000000e+000	0.000000e+000	0.000000e+000
93235	4.038177e-001	8.946973e-001	3.195469e-003	7.731260e-003	0.000000e+000	0.000000e+000	0.000000e+000	0.000000e+000
98190	4.038408e-001	8.892617e-001	2.468194e-003	6.199708e-003	0.000000e+000	0.000000e+000	0.000000e+000	0.000000e+000
103145	4.062761e-001	8.821590e-001	1.026204e-003	5.456130e-003	0.000000e+000	0.000000e+000	0.000000e+000	0.000000e+000
108100	4.102876e-001	8.733075e-001	-6.916878e-004	6.350575e-003	0.000000e+000	0.000000e+000	0.000000e+000	0.000000e+000
113055	4.152488e-001	8.631616e-001	-1.836938e-003	7.847547e-003	0.000000e+000	0.000000e+000	0.000000e+000	0.000000e+000
118010	4.203819e-001	8.514879e-001	-2.113711e-003	1.017055e-002	0.000000e+000	0.000000e+000	0.000000e+000	0.000000e+000
122965	4.251041e-001	8.387447e-001	-7.869615e-004	1.256202e-002	0.000000e+000	0.000000e+000	0.000000e+000	0.000000e+000
127920	4.277061e-001	8.268551e-001	2.765912e-003	1.319217e-002	0.000000e+000	0.000000e+000	0.000000e+000	0.000000e+000
132875	4.315533e-001	8.180189e-001	4.187396e-003	1.009172e-002	0.000000e+000	0.000000e+000	0.000000e+000	0.000000e+000
137830	4.381585e-001	8.087503e-001	2.884849e-003	7.906340e-003	0.000000e+000	0.000000e+000	0.000000e+000	0.000000e+000
142785	4.455811e-001	7.978417e-001	9.355329e-004	7.939767e-003	0.000000e+000	0.000000e+000	0.000000e+000	0.000000e+000
147740	4.526920e-001	7.861772e-001	-7.654323e-004	8.214295e-003	0.000000e+000	0.000000e+000	0.000000e+000	0.000000e+000
152695	4.594879e-001	7.740745e-001	-1.889320e-003	8.823896e-003	0.000000e+000	0.000000e+000	0.000000e+000	0.000000e+000
157650	4.660615e-001	7.616612e-001	-2.619556e-003	1.014020e-002	0.000000e+000	0.000000e+000	0.000000e+000	0.000000e+000
162605	4.720133e-001	7.490896e-001	-3.268932e-003	1.108223e-002	0.000000e+000	0.000000e+000	0.000000e+000	0.000000e+000
167560	4.774706e-001	7.366412e-001	-3.625916e-003	1.199526e-002	0.000000e+000	0.000000e+000	0.000000e+000	0.000000e+000
172515	4.826640e-001	7.244053e-001	-3.867501e-003	1.269019e-002	0.000000e+000	0.000000e+000	0.000000e+000	0.000000e+000
177470	4.876841e-001	7.124294e-001	-4.240021e-003	1.329176e-002	0.000000e+000	0.000000e+000	0.000000e+000	0.000000e+000
182425	4.922482e-001	7.004043e-001	-4.641523e-003	1.410216e-002	0.000000e+000	0.000000e+000	0.000000e+000	0.000000e+000
187380	4.965312e-001	6.883312e-001	-4.946870e-003	1.501306e-002	0.000000e+000	0.000000e+000	0.000000e+000	0.000000e+000
192335	5.005561e-001	6.764981e-001	-5.298825e-003	1.592904e-002	0.000000e+000	0.000000e+000	0.000000e+000	0.000000e+000
197290	5.041397e-001	6.647925e-001	-5.544973e-003	1.670743e-002	0.000000e+000	0.000000e+000	0.000000e+000	0.000000e+000
202245	5.073057e-001	6.531357e-001	-5.854732e-003	1.767821e-002	0.000000e+000	0.000000e+000	0.000000e+000	0.000000e+000
207200	5.100577e-001	6.417047e-001	-5.913921e-003	1.834057e-002	0.000000e+000	0.000000e+000	0.000000e+000	0.000000e+000
212155	5.125678e-001	6.305607e-001	-6.050542e-003	1.926246e-002	0.000000e+000	0.000000e+000	0.000000e+000	0.000000e+000
217110	5.145051e-001	6.193852e-001	-6.351624e-003	1.995406e-002	0.000000e+000	0.000000e+000	0.000000e+000	0.000000e+000
222065	5.160678e-001	6.086558e-001	-6.382118e-003	2.097825e-002	0.000000e+000	0.000000e+000	0.000000e+000	0.000000e+000
227020	5.173644e-001	5.981517e-001	-6.430598e-003	2.172964e-002	0.000000e+000	0.000000e+000	0.000000e+000	0.000000e+000
231975	5.182344e-001	5.876318e-001	-6.486792e-003	2.247776e-002	0.000000e+000	0.000000e+000	0.000000e+000	0.000000e+000
236930	5.187846e-001	5.773811e-001	-6.647611e-003	2.338397e-002	0.000000e+000	0.000000e+000	0.000000e+000	0.000000e+000
241885	5.187543e-001	5.675529e-001	-6.613091e-003	2.418837e-002	0.000000e+000	0.000000e+000	0.000000e+000	0.000000e+000
246840	5.184851e-001	5.578747e-001	-6.679775e-003	2.495825e-002	0.000000e+000	0.000000e+000	0.000000e+000	0.000000e+000
251795	5.177299e-001	5.484432e-001	-6.625252e-003	2.578210e-002	0.000000e+000	0.000000e+000	0.000000e+000	0.000000e+000
256750	5.166794e-001	5.393955e-001	-6.696591e-003	2.661099e-002	0.000000e+000	0.000000e+000	0.000000e+000	0.000000e+000
261705	5.153562e-001	5.306086e-001	-6.561714e-003	2.731755e-002	0.000000e+000	0.000000e+000	0.000000e+000	0.000000e+000
266660	5.134143e-001	5.222158e-001	-6.449504e-003	2.810061e-002	0.000000e+000	0.000000e+000	0.000000e+000	0.000000e+000
271615	5.113908e-001	5.141391e-001	-6.369459e-003	2.883173e-002	0.000000e+000	0.000000e+000	0.000000e+000	0.000000e+000
276570	5.089637e-001	5.063550e-001	-6.485159e-003	2.959546e-002	0.000000e+000	0.000000e+000	0.000000e+000	0.000000e+000
281525	5.062336e-001	4.990285e-001	-6.363715e-003	3.030115e-002	0.000000e+000	0.000000e+000	0.000000e+000	0.000000e+000
286480	5.032675e-001	4.919163e-001	-6.308488e-003	3.085346e-002	0.000000e+000	0.000000e+000	0.000000e+000	0.000000e+000
291435	5.000781e-001	4.851611e-001	-6.240188e-003	3.152783e-002	0.000000e+000	0.000000e+000	0.000000e+000	0.000000e+000
296390	4.966264e-001	4.789004e-001	-6.147773e-003	3.213312e-002	0.000000e+000	0.000000e+000	0.000000e+000	0.000000e+000
301345	4.929266e-001	4.730322e-001	-6.187884e-003	3.285537e-002	0.000000e+000	0.000000e+000	0.000000e+000	0.000000e+000
306300	4.890820e-001	4.673949e-001	-6.066907e-003	3.356487e-002	0.000000e+000	0.000000e+000	0.000000e+000	0.000000e+000
311255	4.849769e-001	4.622082e-001	-6.027837e-003	3.432100e-002	0.000000e+000	0.000000e+000	0.000000e+000	0.000000e+000
316210	4.806712e-001	4.574775e-001	-5.822498e-003	3.493569e-002	0.000000e+000	0.000000e+000	0.000000e+000	0.000000e+000
321165	4.762104e-001	4.532837e-001	-5.664066e-003	3.536474e-002	0.000000e+000	0.000000e+000	0.000000e+000	0.000000e+000
326120	4.717384e-001	4.494003e-001	-5.592372e-003	3.591657e-002	0.000000e+000	0.000000e+000	0.000000e+000	0.000000e+000
331075	4.671885e-001	4.459539e-001	-5.712566e-003	3.644382e-002	0.000000e+000	0.000000e+000	0.000000e+000	0.000000e+000
336030	4.628011e-001	4.427842e-001	-5.711551e-003	3.696055e-002	0.000000e+000	0.000000e+000	0.000000e+000	0.000000e+000
340985	4.583116e-001	4.399427e-001	-5.805448e-003	3.755051e-002	0.000000e+000	0.000000e+000	0.000000e+000	0.000000e+000
345940	4.539395e-001	4.374346e-001	-5.757395e-003	3.835988e-002	0.000000e+000	0.000000e+000	0.000000e+000	0.000000e+000
350895	4.494489e-001	4.351387e-001	-5.849845e-003	3.889268e-002	0.000000e+000	0.000000e+000	0.000000e+000	0.000000e+000
355850	4.449620e-001	4.331790e-001	-5.943667e-003	3.955688e-002	0.000000e+000	0.000000e+000	0.000000e+000	0.000000e+000
360805	4.404533e-001	4.314964e-001	-5.819387e-003	4.022866e-002	0.000000e+000	0.000000e+000	0.000000e+000	0.000000e+000
365760	4.357890e-001	4.299854e-001	-5.716870e-003	4.095069e-002	0.000000e+000	0.000000e+000	0.000000e+000	0.000000e+000
370715	4.312887e-001	4.287191e-001	-5.684105e-003	4.163669e-002	0.000000e+000	0.000000e+000	0.000000e+000	0.000000e+000
375670	4.267595e-001	4.279303e-001	-5.581415e-003	4.215318e-002	0.000000e+000	0.000000e+000	0.000000e+000	0.000000e+000
380625	4.222684e-001	4.273239e-001	-5.393514e-003	4.271690e-002	0.000000e+000	0.000000e+000	0.000000e+000	0.000000e+000
385580	4.178925e-001	4.270526e-001	-5.361612e-003	4.324122e-002	0.000000e+000	0.000000e+000	0.000000e+000	0.000000e+000
390535	4.136459e-001	4.270630e-001	-5.408766e-003	4.365002e-002	0.000000e+000	0.000000e+000	0.000000e+000	0.000000e+000
395490	4.095838e-001	4.272259e-001	-5.479464e-003	4.423111e-002	0.000000e+000	0.000000e+000	0.000000e+000	0.000000e+000
400445	4.056127e-001	4.276164e-001	-5.464439e-003	4.467372e-002	0.000000e+000	0.000000e+000	0.000000e+000	0.000000e+000
405400	4.018909e-001	4.280165e-001	-5.695671e-003	4.521834e-002	0.000000e+000	0.000000e+000	0.000000e+000	0.000000e+000
410355	3.980555e-001	4.285907e-001	-5.676482e-003	4.583504e-002	0.000000e+000	0.000000e+000	0.000000e+000	0.000000e+000
415310	3.944416e-001	4.292373e-001	-5.894463e-003	4.649129e-002	0.000000e+000	0.000000e+000	0.000000e+000	0.000000e+000
420265	3.908440e-001	4.300167e-001	-5.903425e-003	4.727324e-002	0.000000e+000	0.000000e+000	0.000000e+000	0.000000e+000
425220	3.873095e-001	4.307956e-001	-5.988813e-003	4.787552e-002	0.000000e+000	0.000000e+000	0.000000e+000	0.000000e+000
430175	3.837973e-001	4.317543e-001	-5.974010e-003	4.865069e-002	0.000000e+000	0.000000e+000	0.000000e+000	0.000000e+000
435130	3.804996e-001	4.328159e-001	-6.094469e-003	4.936067e-002	0.000000e+000	0.000000e+000	0.000000e+000	0.000000e+000
440085	3.770461e-001	4.338632e-001	-6.056286e-003	5.015363e-002	0.000000e+000	0.000000e+000	0.000000e+000	0.000000e+000
445040	3.737218e-001	4.350739e-001	-6.075330e-003	5.097113e-002	0.000000e+000	0.000000e+000	0.000000e+000	0.000000e+000
449995	3.704674e-001	4.363803e-001	-5.988711e-003	5.169769e-002	0.000000e+000	0.000000e+000	0.000000e+000	0.000000e+000
454950	3.672476e-001	4.376488e-001	-5.873137e-003	5.242584e-002	0.000000e+000	0.000000e+000	0.000000e+000	0.000000e+000
459905	3.639904e-001	4.390590e-001	-5.791030e-003	5.327294e-002	0.000000e+000	0.000000e+000	0.000000e+000	0.000000e+000
464860	3.608250e-001	4.403804e-001	-5.580922e-003	5.401095e-002	0.000000e+000	0.000000e+000	0.000000e+000	0.000000e+000
469815	3.576670e-001	4.419570e-001	-5.303030e-003	5.470189e-002	0.000000e+000	0.000000e+000	0.000000e+000	0.000000e+000
474770	3.545067e-001	4.435662e-001	-5.062028e-003	5.546013e-002	0.000000e+000	0.000000e+000	0.000000e+000	0.000000e+000
479725	3.513435e-001	4.452545e-001	-4.744422e-003	5.613764e-002	0.000000e+000	0.000000e+000	0.000000e+000	0.000000e+000
484680	3.481788e-001	4.470049e-001	-4.318341e-003	5.673621e-002	0.000000e+000	0.000000e+000	0.000000e+000	0.000000e+000
489635	3.449584e-001	4.487815e-001	-3.944252e-003	5.742944e-002	0.000000e+000	0.000000e+000	0.000000e+000	0.000000e+000
494590	3.418709e-001	4.506614e-001	-3.587327e-003	5.773894e-002	0.000000e+000	0.000000e+000	0.000000e+000	0.000000e+000
499545	3.388690e-001	4.527549e-001	-3.189630e-003	5.824281e-002	0.000000e+000	0.000000e+000	0.000000e+000	0.000000e+000
504500	3.358588e-001	4.549635e-001	-2.800344e-003	5.847111e-002	0.000000e+000	0.000000e+000	0.000000e+000	0.000000e+000
509455	3.328843e-001	4.572705e-001	-2.469513e-003	5.877281e-002	0.000000e+000	0.000000e+000	0.000000e+000	0.000000e+000
514410	3.301222e-001	4.596030e-001	-2.190940e-003	5.913798e-002	0.000000e+000	0.000000e+000	0.000000e+000	0.000000e+000
519365	3.273340e-001	4.620565e-001	-1.937977e-003	5.935551e-002	0.000000e+000	0.000000e+000	0.000000e+000	0.000000e+000
524320	3.245938e-001	4.647233e-001	-1.735568e-003	5.948831e-002	0.000000e+000	0.000000e+000	0.000000e+000	0.000000e+000
529275	3.218802e-001	4.671139e-001	-1.557170e-003	5.957616e-002	0.000000e+000	0.000000e+000	0.000000e+000	0.000000e+000
534230	3.193073e-001	4.698732e-001	-1.480732e-003	5.966950e-002	0.000000e+000	0.000000e+000	0.000000e+000	0.000000e+000
539185	3.168471e-001	4.725828e-001	-1.366646e-003	5.974136e-002	0.000000e+000	0.000000e+000	0.000000e+000	0.000000e+000
544140	3.144321e-001	4.753330e-001	-1.504148e-003	5.977999e-002	0.000000e+000	0.000000e+000	0.000000e+000	0.000000e+000
549095	3.123314e-001	4.780948e-001	-1.725001e-003	5.987259e-002	0.000000e+000	0.000000e+000	0.000000e+000	0.000000e+000
554050	3.102128e-001	4.809189e-001	-1.844743e-003	5.996850e-002	0.000000e+000	0.000000e+000	0.000000e+000	0.000000e+000
559005	3.082268e-001	4.836203e-001	-2.136437e-003	6.011214e-002	0.000000e+000	0.000000e+000	0.000000e+000	0.000000e+000
563960	3.064083e-001	4.863711e-001	-2.495976e-003	6.032171e-002	0.000000e+000	0.000000e+000	0.000000e+000	0.000000e+000
568915	3.044979e-001	4.889570e-001	-2.810977e-003	6.061415e-002	0.000000e+000	0.000000e+000	0.000000e+000	0.000000e+000
573870	3.028304e-001	4.916975e-001	-3.209612e-003	6.091801e-002	0.000000e+000	0.000000e+000	0.000000e+000	0.000000e+000
578825	3.010688e-001	4.941232e-001	-3.618326e-003	6.128466e-002	0.000000e+000	0.000000e+000	0.000000e+000	0.000000e+000
583780	2.993482e-001	4.966419e-001	-3.811614e-003	6.163268e-002	0.000000e+000	0.000000e+000	0.000000e+000	0.000000e+000
588735	2.975712e-001	4.991047e-001	-4.258742e-003	6.212849e-002	0.000000e+000	0.000000e+000	0.000000e+000	0.000000e+000
593690	2.961639e-001	5.015380e-001	-4.575037e-003	6.258858e-002	0.000000e+000	0.000000e+000	0.000000e+000	0.000000e+000
598645	2.944474e-001	5.039474e-001	-4.873876e-003	6.301294e-002	0.000000e+000	0.000000e+000	0.000000e+000	0.000000e+000
603600	2.928724e-001	5.064417e-001	-5.280915e-003	6.356283e-002	0.000000e+000	0.000000e+000	0.000000e+000	0.000000e+000
608555	2.913161e-001	5.087010e-001	-5.639796e-003	6.407363e-002	0.000000e+000	0.000000e+000	0.000000e+000	0.000000e+000
613510	2.898662e-001	5.109927e-001	-5.923351e-003	6.463174e-002	0.000000e+000	0.000000e+000	0.000000e+000	0.000000e+000
618465	2.882028e-001	5.133137e-001	-6.287074e-003	6.516072e-002	0.000000e+000	0.000000e+000	0.000000e+000	0.000000e+000
623420	2.866988e-001	5.155302e-001	-6.630904e-003	6.570448e-002	0.000000e+000	0.000000e+000	0.000000e+000	0.000000e+000
628375	2.851192e-001	5.179644e-001	-7.012721e-003	6.638023e-002	0.000000e+000	0.000000e+000	0.000000e+000	0.000000e+000
633330	2.837124e-001	5.199812e-001	-7.282608e-003	6.693064e-002	0.000000e+000	0.000000e+000	0.000000e+000	0.000000e+000
638285	2.822384e-001	5.221714e-001	-7.684925e-003	6.762872e-002	0.000000e+000	0.000000e+000	0.000000e+000	0.000000e+000
643240	2.806751e-001	5.243085e-001	-7.951049e-003	6.826417e-002	0.000000e+000	0.000000e+000	0.000000e+000	0.000000e+000
648195	2.791494e-001	5.264648e-001	-8.235508e-003	6.889321e-002	0.000000e+000	0.000000e+000	0.000000e+000	0.000000e+000
653150	2.776843e-001	5.284904e-001	-8.511912e-003	6.967966e-002	0.000000e+000	0.000000e+000	0.000000e+000	0.000000e+000
658105	2.762025e-001	5.305784e-001	-8.780610e-003	7.041053e-002	0.000000e+000	0.000000e+000	0.000000e+000	0.000000e+000
663060	2.746847e-001	5.325447e-001	-9.036942e-003	7.105274e-002	0.000000e+000	0.000000e+000	0.000000e+000	0.000000e+000
668015	2.731906e-001	5.345119e-001	-9.268180e-003	7.187180e-002	0.000000e+000	0.000000e+000	0.000000e+000	0.000000e+000
672970	2.715244e-001	5.364697e-001	-9.419800e-003	7.252912e-002	0.000000e+000	0.000000e+000	0.000000e+000	0.000000e+000
677925	2.699739e-001	5.383752e-001	-9.641256e-003	7.330264e-002	0.000000e+000	0.000000e+000	0.000000e+000	0.000000e+000
682880	2.684034e-001	5.403371e-001	-9.853534e-003	7.405067e-002	0.000000e+000	0.000000e+000	0.000000e+000	0.000000e+000
687835	2.668659e-001	5.421235e-001	-9.999926e-003	7.475331e-002	0.000000e+000	0.000000e+000	0.000000e+000	0.000000e+000
692790	2.652010e-001	5.440241e-001	-1.009683e-002	7.553564e-002	0.000000e+000	0.000000e+000	0.000000e+000	0.000000e+000
697745	2.635773e-001	5.458262e-001	-1.030331e-002	7.626539e-002	0.000000e+000	0.000000e+000	0.000000e+000	0.000000e+000
702700	2.619491e-001	5.476552e-001	-1.044004e-002	7.697131e-002	0.000000e+000	0.000000e+000	0.000000e+000	0.000000e+000
707655	2.602025e-001	5.495242e-001	-1.057650e-002	7.769826e-002	0.000000e+000	0.000000e+000	0.000000e+000	0.000000e+000
712610	2.585009e-001	5.513069e-001	-1.070696e-002	7.841794e-002	0.000000e+000	0.000000e+000	0.000000e+000	0.000000e+000
717565	2.568957e-001	5.532129e-001	-1.080647e-002	7.914470e-002	0.000000e+000	0.000000e+000	0.000000e+000	0.000000e+000
722520	2.551255e-001	5.547303e-001	-1.109657e-002	7.999207e-002	0.000000e+000	0.000000e+000	0.000000e+000	0.000000e+000
727475	2.534656e-001	5.567777e-001	-1.111141e-002	8.050530e-002	0.000000e+000	0.000000e+000	0.000000e+000	0.000000e+000
732430	2.517372e-001	5.585293e-001	-1.120156e-002	8.127455e-002	0.000000e+000	0.000000e+000	0.000000e+000	0.000000e+000
737385	2.499864e-001	5.602610e-001	-1.134976e-002	8.189960e-002	0.000000e+000	0.000000e+000	0.000000e+000	0.000000e+000
742340	2.483336e-001	5.620514e-001	-1.146702e-002	8.260031e-002	0.000000e+000	0.000000e+000	0.000000e+000	0.000000e+000
747295	2.465684e-001	5.639304e-001	-1.161103e-002	8.335882e-002	0.000000e+000	0.000000e+000	0.000000e+000	0.000000e+000
752250	2.446986e-001	5.658188e-001	-1.175911e-002	8.399441e-002	0.000000e+000	0.000000e+000	0.000000e+000	0.000000e+000
757205	2.429495e-001	5.675071e-001	-1.184558e-002	8.472536e-002	0.000000e+000	0.000000e+000	0.000000e+000	0.000000e+000
762160	2.412975e-001	5.690515e-001	-1.201836e-002	8.547052e-002	0.000000e+000	0.000000e+000	0.000000e+000	0.000000e+000
767115	2.393963e-001	5.709163e-001	-1.215684e-002	8.622286e-002	0.000000e+000	0.000000e+000	0.000000e+000	0.000000e+000
772070	2.376279e-001	5.725342e-001	-1.226176e-002	8.691931e-002	0.000000e+000	0.000000e+000	0.000000e+000	0.000000e+000
777025	2.359119e-001	5.741712e-001	-1.241251e-002	8.770474e-002	0.000000e+000	0.000000e+000	0.000000e+000	0.000000e+000
781980	2.340473e-001	5.761450e-001	-1.253627e-002	8.842508e-002	0.000000e+000	0.000000e+000	0.000000e+000	0.000000e+000
786935	2.322636e-001	5.776332e-001	-1.261395e-002	8.917484e-002	0.000000e+000	0.000000e+000	0.000000e+000	0.000000e+000
791890	2.305102e-001	5.792622e-001	-1.281541e-002	8.994392e-002	0.000000e+000	0.000000e+000	0.000000e+000	0.000000e+000
796845	2.286439e-001	5.809025e-001	-1.289079e-002	9.069447e-002	0.000000e+000	0.000000e+000	0.000000e+000	0.000000e+000
801800	2.268026e-001	5.823998e-001	-1.303967e-002	9.149569e-002	0.000000e+000	0.000000e+000	0.000000e+000	0.000000e+000
806755	2.248578e-001	5.840214e-001	-1.310780e-002	9.221209e-002	0.000000e+000	0.000000e+000	0.000000e+000	0.000000e+000
811710	2.229615e-001	5.855957e-001	-1.316472e-002	9.304639e-002	0.000000e+000	0.000000e+000	0.000000e+000	0.000000e+000
816665	2.211765e-001	5.871756e-001	-1.329369e-002	9.381868e-002	0.000000e+000	0.000000e+000	0.000000e+000	0.000000e+000
821620	2.193078e-001	5.887352e-001	-1.338371e-002	9.459633e-002	0.000000e+000	0.000000e+000	0.000000e+000	0.000000e+000
