!Agilent Technologies,E5071C,MY46109397,A.09.54
!Date: Mon Jan 01 02:04:13 2001
!Data & Calibration Information:
!Freq	S11:SOLT1(ON)	S21:RESPT(ON)	S12:NONE(--)	S22:NONE(--)
# Hz S RI R 50
9000	9.674949e-001	2.982458e-001	8.555414e-001	5.366352e-001	0.000000e+000	0.000000e+000	0.000000e+000	0.000000e+000
13955	9.614940e-001	4.148334e-001	-1.002568e-003	-2.500686e-003	0.000000e+000	0.000000e+000	0.000000e+000	0.000000e+000
18910	9.072446e-001	5.034352e-001	-1.917196e-003	9.175334e-004	0.000000e+000	0.000000e+000	0.000000e+000	0.000000e+000
23865	8.330788e-001	5.973048e-001	-1.895684e-003	6.701087e-004	0.000000e+000	0.000000e+000	0.000000e+000	0.000000e+000
28820	7.698437e-001	6.758599e-001	-3.962065e-003	1.967732e-003	0.000000e+000	0.000000e+000	0.000000e+000	0.000000e+000
33775	7.083281e-001	7.360644e-001	-7.121912e-003	5.067846e-003	0.000000e+000	0.000000e+000	0.000000e+000	0.000000e+000
38730	6.522800e-001	7.846731e-001	-8.408746e-003	1.111917e-002	0.000000e+000	0.000000e+000	0.000000e+000	0.000000e+000
43685	6.012927e-001	8.208487e-001	-3.128567e-003	2.056155e-002	0.000000e+000	0.000000e+000	0.000000e+000	0.000000e+000
48640	5.542277e-001	8.495662e-001	1.181061e-002	1.966738e-002	0.000000e+000	0.000000e+000	0.000000e+000	0.000000e+000
53595	5.170727e-001	8.725653e-001	1.284914e-002	8.936159e-003	0.000000e+000	0.000000e+000	0.000000e+000	0.000000e+000
58550	4.868267e-001	8.881720e-001	9.453441e-003	5.235337e-003	0.000000e+000	0.000000e+000	0.000000e+000	0.000000e+000
63505	4.622805e-001	8.982665e-001	7.027190e-003	5.043787e-003	0.000000e+000	0.000000e+000	0.000000e+000	0.000000e+000
68460	4.428415e-001	9.040412e-001	5.603922e-003	5.816100e-003	0.000000e+000	0.000000e+000	0.000000e+000	0.000000e+000
73415	4.273123e-001	9.065299e-001	6.775399e-003	6.196126e-003	0.000000e+000	0.000000e+000	0.000000e+000	0.000000e+000
78370	4.157113e-001	9.073569e-001	7.525159e-003	4.668428e-003	0.000000e+000	0.000000e+000	0.000000e+000	0.000000e+000
83325	4.085817e-001	9.062060e-001	6.369590e-003	3.352648e-003	0.000000e+000	0.000000e+000	0.000000e+000	0.000000e+000
88280	4.045607e-001	9.029788e-001	4.693535e-003	2.482803e-003	0.000000e+000	0.000000e+000	0.000000e+000	0.000000e+000
93235	4.035366e-001	8.977838e-001	3.114117e-003	2.591169e-003	0.000000e+000	0.000000e+000	0.000000e+000	0.000000e+000
98190	4.042182e-001	8.913014e-001	1.405988e-003	3.045762e-003	0.000000e+000	0.000000e+000	0.000000e+000	0.000000e+000
103145	4.065416e-001	8.835647e-001	1.720809e-004	3.999854e-003	0.000000e+000	0.000000e+000	0.000000e+000	0.000000e+000
108100	4.102917e-001	8.745713e-001	-9.982209e-004	4.752338e-003	0.000000e+000	0.000000e+000	0.000000e+000	0.000000e+000
113055	4.150714e-001	8.647287e-001	-1.754537e-003	5.628256e-003	0.000000e+000	0.000000e+000	0.000000e+000	0.000000e+000
118010	4.204015e-001	8.539487e-001	-2.702174e-003	7.232309e-003	0.000000e+000	0.000000e+000	0.000000e+000	0.000000e+000
122965	4.265634e-001	8.421929e-001	-3.460299e-003	9.058290e-003	0.000000e+000	0.000000e+000	0.000000e+000	0.000000e+000
127920	4.321340e-001	8.294698e-001	-3.207845e-003	1.106036e-002	0.000000e+000	0.000000e+000	0.000000e+000	0.000000e+000
132875	4.367567e-001	8.166680e-001	-1.215005e-003	1.298609e-002	0.000000e+000	0.000000e+000	0.000000e+000	0.000000e+000
137830	4.405675e-001	8.054910e-001	8.536320e-004	1.219814e-002	0.000000e+000	0.000000e+000	0.000000e+000	0.000000e+000
142785	4.462972e-001	7.955931e-001	5.893224e-004	1.037383e-002	0.000000e+000	0.000000e+000	0.000000e+000	0.000000e+000
147740	4.532512e-001	7.846042e-001	-8.350226e-004	9.966454e-003	0.000000e+000	0.000000e+000	0.000000e+000	0.000000e+000
152695	4.601178e-001	7.727926e-001	-2.200235e-003	1.051179e-002	0.000000e+000	0.000000e+000	0.000000e+000	0.000000e+000
157650	4.668022e-001	7.604211e-001	-3.268419e-003	1.147822e-002	0.000000e+000	0.000000e+000	0.000000e+000	0.000000e+000
162605	4.728994e-001	7.477756e-001	-3.853062e-003	1.250946e-002	0.000000e+000	0.000000e+000	0.000000e+000	0.000000e+000
167560	4.785584e-001	7.351349e-001	-4.237655e-003	1.381837e-002	0.000000e+000	0.000000e+000	0.000000e+000	0.000000e+000
172515	4.838222e-001	7.225853e-001	-4.570877e-003	1.485930e-002	0.000000e+000	0.000000e+000	0.000000e+000	0.000000e+000
177470	4.887395e-001	7.102097e-001	-4.602511e-003	1.576610e-002	0.000000e+000	0.000000e+000	0.000000e+000	0.000000e+000
182425	4.932574e-001	6.978771e-001	-4.932635e-003	1.678104e-002	0.000000e+000	0.000000e+000	0.000000e+000	0.000000e+000
187380	4.973568e-001	6.854230e-001	-5.160564e-003	1.769099e-002	0.000000e+000	0.000000e+000	0.000000e+000	0.000000e+000
192335	5.011657e-001	6.731718e-001	-5.068859e-003	1.889988e-002	0.000000e+000	0.000000e+000	0.000000e+000	0.000000e+000
197290	5.044266e-001	6.610493e-001	-5.129897e-003	1.992200e-002	0.000000e+000	0.000000e+000	0.000000e+000	0.000000e+000
202245	5.071350e-001	6.488742e-001	-4.777337e-003	2.125304e-002	0.000000e+000	0.000000e+000	0.000000e+000	0.000000e+000
207200	5.091870e-001	6.369094e-001	-4.219503e-003	2.227130e-002	0.000000e+000	0.000000e+000	0.000000e+000	0.000000e+000
212155	5.107185e-001	6.254133e-001	-3.488349e-003	2.318264e-002	0.000000e+000	0.000000e+000	0.000000e+000	0.000000e+000
217110	5.113625e-001	6.142110e-001	-2.541397e-003	2.370700e-002	0.000000e+000	0.000000e+000	0.000000e+000	0.000000e+000
222065	5.115552e-001	6.040789e-001	-1.716090e-003	2.372034e-002	0.000000e+000	0.000000e+000	0.000000e+000	0.000000e+000
227020	5.117842e-001	5.947650e-001	-1.368877e-003	2.338127e-002	0.000000e+000	0.000000e+000	0.000000e+000	0.000000e+000
231975	5.122434e-001	5.857251e-001	-1.369330e-003	2.293303e-002	0.000000e+000	0.000000e+000	0.000000e+000	0.000000e+000
236930	5.130993e-001	5.767938e-001	-1.957581e-003	2.277430e-002	0.000000e+000	0.000000e+000	0.000000e+000	0.000000e+000
241885	5.136216e-001	5.678952e-001	-2.663353e-003	2.290046e-002	0.000000e+000	0.000000e+000	0.000000e+000	0.000000e+000
246840	5.140285e-001	5.587137e-001	-3.330349e-003	2.348663e-002	0.000000e+000	0.000000e+000	0.000000e+000	0.000000e+000
251795	5.139235e-001	5.495394e-001	-3.861165e-003	2.413618e-002	0.000000e+000	0.000000e+000	0.000000e+000	0.000000e+000
256750	5.133739e-001	5.405802e-001	-4.213601e-003	2.512397e-002	0.000000e+000	0.000000e+000	0.000000e+000	0.000000e+000
261705	5.124611e-001	5.317346e-001	-4.639348e-003	2.597663e-002	0.000000e+000	0.000000e+000	0.000000e+000	0.000000e+000
266660	5.108160e-001	5.231873e-001	-4.710488e-003	2.697304e-002	0.000000e+000	0.000000e+000	0.000000e+000	0.000000e+000
271615	5.089943e-001	5.149579e-001	-4.735120e-003	2.784138e-002	0.000000e+000	0.000000e+000	0.000000e+000	0.000000e+000
276570	5.065778e-001	5.070338e-001	-4.829569e-003	2.875318e-002	0.000000e+000	0.000000e+000	0.000000e+000	0.000000e+000
281525	5.038662e-001	4.996163e-001	-4.449114e-003	2.941036e-002	0.000000e+000	0.000000e+000	0.000000e+000	0.000000e+000
286480	5.007852e-001	4.924283e-001	-4.450871e-003	3.014432e-002	0.000000e+000	0.000000e+000	0.000000e+000	0.000000e+000
291435	4.975360e-001	4.857694e-001	-4.335882e-003	3.078103e-002	0.000000e+000	0.000000e+000	0.000000e+000	0.000000e+000
296390	4.940277e-001	4.796402e-001	-4.361938e-003	3.122278e-002	0.000000e+000	0.000000e+000	0.000000e+000	0.000000e+000
301345	4.903546e-001	4.738731e-001	-4.267264e-003	3.190635e-002	0.000000e+000	0.000000e+000	0.000000e+000	0.000000e+000
306300	4.865667e-001	4.683899e-001	-4.255569e-003	3.237785e-002	0.000000e+000	0.000000e+000	0.000000e+000	0.000000e+000
311255	4.824858e-001	4.632982e-001	-4.264817e-003	3.297240e-002	0.000000e+000	0.000000e+000	0.000000e+000	0.000000e+000
316210	4.782670e-001	4.586724e-001	-4.274226e-003	3.354563e-002	0.000000e+000	0.000000e+000	0.000000e+000	0.000000e+000
321165	4.738925e-001	4.545883e-001	-4.247740e-003	3.396898e-002	0.000000e+000	0.000000e+000	0.000000e+000	0.000000e+000
326120	4.695680e-001	4.508633e-001	-4.281860e-003	3.439462e-002	0.000000e+000	0.000000e+000	0.000000e+000	0.000000e+000
331075	4.651792e-001	4.474782e-001	-4.367793e-003	3.484082e-002	0.000000e+000	0.000000e+000	0.000000e+000	0.000000e+000
336030	4.609782e-001	4.444107e-001	-4.596868e-003	3.549870e-002	0.000000e+000	0.000000e+000	0.000000e+000	0.000000e+000
340985	4.566305e-001	4.415810e-001	-4.812081e-003	3.596934e-002	0.000000e+000	0.000000e+000	0.000000e+000	0.000000e+000
345940	4.524115e-001	4.390696e-001	-5.050458e-003	3.669550e-002	0.000000e+000	0.000000e+000	0.000000e+000	0.000000e+000
350895	4.480826e-001	4.367228e-001	-5.190778e-003	3.743725e-002	0.000000e+000	0.000000e+000	0.000000e+000	0.000000e+000
355850	4.437559e-001	4.348090e-001	-5.278780e-003	3.814332e-002	0.000000e+000	0.000000e+000	0.000000e+000	0.000000e+000
360805	4.394247e-001	4.330957e-001	-5.490854e-003	3.879348e-002	0.000000e+000	0.000000e+000	0.000000e+000	0.000000e+000
365760	4.350051e-001	4.316008e-001	-5.582127e-003	3.961674e-002	0.000000e+000	0.000000e+000	0.000000e+000	0.000000e+000
370715	4.307288e-001	4.302736e-001	-5.604337e-003	4.038767e-002	0.000000e+000	0.000000e+000	0.000000e+000	0.000000e+000
375670	4.264186e-001	4.293050e-001	-5.643336e-003	4.112268e-002	0.000000e+000	0.000000e+000	0.000000e+000	0.000000e+000
380625	4.222029e-001	4.285118e-001	-5.674951e-003	4.179942e-002	0.000000e+000	0.000000e+000	0.000000e+000	0.000000e+000
385580	4.180201e-001	4.279519e-001	-5.610089e-003	4.260370e-002	0.000000e+000	0.000000e+000	0.000000e+000	0.000000e+000
390535	4.138884e-001	4.276357e-001	-5.614417e-003	4.327018e-002	0.000000e+000	0.000000e+000	0.000000e+000	0.000000e+000
395490	4.098451e-001	4.274137e-001	-5.582970e-003	4.410089e-002	0.000000e+000	0.000000e+000	0.000000e+000	0.000000e+000
400445	4.057835e-001	4.274556e-001	-5.517060e-003	4.489392e-002	0.000000e+000	0.000000e+000	0.000000e+000	0.000000e+000
405400	4.018238e-001	4.275940e-001	-5.671025e-003	4.557823e-002	0.000000e+000	0.000000e+000	0.000000e+000	0.000000e+000
410355	3.977911e-001	4.279417e-001	-5.388032e-003	4.630854e-002	0.000000e+000	0.000000e+000	0.000000e+000	0.000000e+000
415310	3.939413e-001	4.284918e-001	-5.213821e-003	4.697834e-002	0.000000e+000	0.000000e+000	0.000000e+000	0.000000e+000
420265	3.901004e-001	4.292217e-001	-5.184779e-003	4.756664e-002	0.000000e+000	0.000000e+000	0.000000e+000	0.000000e+000
425220	3.863948e-001	4.300731e-001	-5.157424e-003	4.821729e-002	0.000000e+000	0.000000e+000	0.000000e+000	0.000000e+000
430175	3.827923e-001	4.311021e-001	-5.117757e-003	4.888921e-002	0.000000e+000	0.000000e+000	0.000000e+000	0.000000e+000
435130	3.794225e-001	4.322627e-001	-5.042459e-003	4.957907e-002	0.000000e+000	0.000000e+000	0.000000e+000	0.000000e+000
440085	3.760141e-001	4.333720e-001	-5.185235e-003	5.025609e-002	0.000000e+000	0.000000e+000	0.000000e+000	0.000000e+000
445040	3.727657e-001	4.345989e-001	-5.126155e-003	5.106281e-002	0.000000e+000	0.000000e+000	0.000000e+000	0.000000e+000
449995	3.696346e-001	4.357915e-001	-5.149731e-003	5.190202e-002	0.000000e+000	0.000000e+000	0.000000e+000	0.000000e+000
454950	3.665227e-001	4.369799e-001	-5.091815e-003	5.275266e-002	0.000000e+000	0.000000e+000	0.000000e+000	0.000000e+000
459905	3.633614e-001	4.382177e-001	-5.036188e-003	5.379600e-002	0.000000e+000	0.000000e+000	0.000000e+000	0.000000e+000
464860	3.602192e-001	4.393514e-001	-4.813550e-003	5.463456e-002	0.000000e+000	0.000000e+000	0.000000e+000	0.000000e+000
469815	3.569943e-001	4.406827e-001	-4.476044e-003	5.554171e-002	0.000000e+000	0.000000e+000	0.000000e+000	0.000000e+000
474770	3.537922e-001	4.419555e-001	-4.027579e-003	5.655777e-002	0.000000e+000	0.000000e+000	0.000000e+000	0.000000e+000
479725	3.504891e-001	4.433696e-001	-3.503513e-003	5.749897e-002	0.000000e+000	0.000000e+000	0.000000e+000	0.000000e+000
484680	3.470573e-001	4.448297e-001	-2.866183e-003	5.827227e-002	0.000000e+000	0.000000e+000	0.000000e+000	0.000000e+000
489635	3.435314e-001	4.464078e-001	-2.041279e-003	5.888567e-002	0.000000e+000	0.000000e+000	0.000000e+000	0.000000e+000
494590	3.400154e-001	4.480399e-001	-1.257155e-003	5.935735e-002	0.000000e+000	0.000000e+000	0.000000e+000	0.000000e+000
499545	3.365041e-001	4.501390e-001	-5.000946e-004	5.967359e-002	0.000000e+000	0.000000e+000	0.000000e+000	0.000000e+000
504500	3.329840e-001	4.524570e-001	3.177697e-004	5.970471e-002	0.000000e+000	0.000000e+000	0.000000e+000	0.000000e+000
509455	3.295204e-001	4.550312e-001	9.085260e-004	5.959480e-002	0.000000e+000	0.000000e+000	0.000000e+000	0.000000e+000
514410	3.263911e-001	4.577890e-001	1.335093e-003	5.943061e-002	0.000000e+000	0.000000e+000	0.000000e+000	0.000000e+000
519365	3.233223e-001	4.607040e-001	1.609979e-003	5.916658e-002	0.000000e+000	0.000000e+000	0.000000e+000	0.000000e+000
524320	3.205089e-001	4.638941e-001	1.892498e-003	5.884214e-002	0.000000e+000	0.000000e+000	0.000000e+000	0.000000e+000
529275	3.178767e-001	4.668451e-001	1.794107e-003	5.856483e-002	0.000000e+000	0.000000e+000	0.000000e+000	0.000000e+000
534230	3.155136e-001	4.700840e-001	1.498534e-003	5.828199e-002	0.000000e+000	0.000000e+000	0.000000e+000	0.000000e+000
539185	3.133748e-001	4.731846e-001	1.110609e-003	5.815507e-002	0.000000e+000	0.000000e+000	0.000000e+000	0.000000e+000
544140	3.113843e-001	4.761566e-001	7.370281e-004	5.808745e-002	0.000000e+000	0.000000e+000	0.000000e+000	0.000000e+000
549095	3.096653e-001	4.790977e-001	1.760870e-004	5.816755e-002	0.000000e+000	0.000000e+000	0.000000e+000	0.000000e+000
554050	3.079452e-001	4.819560e-001	-3.655232e-004	5.836003e-002	0.000000e+000	0.000000e+000	0.000000e+000	0.000000e+000
559005	3.063026e-001	4.846026e-001	-9.856611e-004	5.865869e-002	0.000000e+000	0.000000e+000	0.000000e+000	0.000000e+000
563960	3.047785e-001	4.872622e-001	-1.516520e-003	5.906111e-002	0.000000e+000	0.000000e+000	0.000000e+000	0.000000e+000
568915	3.032244e-001	4.897651e-001	-2.081763e-003	5.950794e-002	0.000000e+000	0.000000e+000	0.000000e+000	0.000000e+000
573870	3.018283e-001	4.923633e-001	-2.634208e-003	6.009816e-002	0.000000e+000	0.000000e+000	0.000000e+000	0.000000e+000
578825	3.003218e-001	4.946678e-001	-3.131305e-003	6.057177e-002	0.000000e+000	0.000000e+000	0.000000e+000	0.000000e+000
583780	2.988133e-001	4.970093e-001	-3.592773e-003	6.124545e-002	0.000000e+000	0.000000e+000	0.000000e+000	0.000000e+000
588735	2.973393e-001	4.992569e-001	-4.151824e-003	6.191808e-002	0.000000e+000	0.000000e+000	0.000000e+000	0.000000e+000
593690	2.961050e-001	5.014303e-001	-4.436112e-003	6.267151e-002	0.000000e+000	0.000000e+000	0.000000e+000	0.000000e+000
598645	2.946223e-001	5.036378e-001	-4.976122e-003	6.344425e-002	0.000000e+000	0.000000e+000	0.000000e+000	0.000000e+000
603600	2.932058e-001	5.058427e-001	-5.275273e-003	6.424154e-002	0.000000e+000	0.000000e+000	0.000000e+000	0.000000e+000
608555	2.917935e-001	5.078100e-001	-5.619455e-003	6.498980e-002	0.000000e+000	0.000000e+000	0.000000e+000	0.000000e+000
613510	2.904766e-001	5.097857e-001	-5.970918e-003	6.586811e-002	0.000000e+000	0.000000e+000	0.000000e+000	0.000000e+000
618465	2.889333e-001	5.118093e-001	-6.242939e-003	6.673199e-002	0.000000e+000	0.000000e+000	0.000000e+000	0.000000e+000
623420	2.875044e-001	5.137046e-001	-6.475129e-003	6.762902e-002	0.000000e+000	0.000000e+000	0.000000e+000	0.000000e+000
628375	2.860050e-001	5.157323e-001	-6.686061e-003	6.850940e-002	0.000000e+000	0.000000e+000	0.000000e+000	0.000000e+000
633330	2.845775e-001	5.174510e-001	-6.874507e-003	6.936460e-002	0.000000e+000	0.000000e+000	0.000000e+000	0.000000e+000
638285	2.831325e-001	5.193119e-001	-7.037468e-003	7.027872e-002	0.000000e+000	0.000000e+000	0.000000e+000	0.000000e+000
643240	2.815359e-001	5.210708e-001	-7.228917e-003	7.124365e-002	0.000000e+000	0.000000e+000	0.000000e+000	0.000000e+000
648195	2.799517e-001	5.229244e-001	-7.273571e-003	7.219929e-002	0.000000e+000	0.000000e+000	0.000000e+000	0.000000e+000
653150	2.784349e-001	5.246097e-001	-7.364438e-003	7.305559e-002	0.000000e+000	0.000000e+000	0.000000e+000	0.000000e+000
658105	2.768731e-001	5.263500e-001	-7.389077e-003	7.404126e-002	0.000000e+000	0.000000e+000	0.000000e+000	0.000000e+000
663060	2.753054e-001	5.280088e-001	-7.465360e-003	7.491074e-002	0.000000e+000	0.000000e+000	0.000000e+000	0.000000e+000
668015	2.737312e-001	5.296571e-001	-7.483773e-003	7.586080e-002	0.000000e+000	0.000000e+000	0.000000e+000	0.000000e+000
672970	2.719939e-001	5.313656e-001	-7.358813e-003	7.684004e-002	0.000000e+000	0.000000e+000	0.000000e+000	0.000000e+000
677925	2.703361e-001	5.329085e-001	-7.334166e-003	7.777730e-002	0.000000e+000	0.000000e+000	0.000000e+000	0.000000e+000
682880	2.685991e-001	5.345467e-001	-7.276811e-003	7.866533e-002	0.000000e+000	0.000000e+000	0.000000e+000	0.000000e+000
687835	2.669382e-001	5.360584e-001	-7.219706e-003	7.959199e-002	0.000000e+000	0.000000e+000	0.000000e+000	0.000000e+000
692790	2.651310e-001	5.376979e-001	-7.026815e-003	8.051045e-002	0.000000e+000	0.000000e+000	0.000000e+000	0.000000e+000
697745	2.633651e-001	5.391635e-001	-6.912913e-003	8.140783e-002	0.000000e+000	0.000000e+000	0.000000e+000	0.000000e+000
702700	2.615754e-001	5.407234e-001	-6.812481e-003	8.229229e-002	0.000000e+000	0.000000e+000	0.000000e+000	0.000000e+000
707655	2.597104e-001	5.422484e-001	-6.631031e-003	8.312400e-002	0.000000e+000	0.000000e+000	0.000000e+000	0.000000e+000
712610	2.578068e-001	5.436900e-001	-6.373161e-003	8.397794e-002	0.000000e+000	0.000000e+000	0.000000e+000	0.000000e+000
717565	2.560564e-001	5.452949e-001	-6.168498e-003	8.480540e-002	0.000000e+000	0.000000e+000	0.000000e+000	0.000000e+000
722520	2.540442e-001	5.465385e-001	-6.157380e-003	8.578333e-002	0.000000e+000	0.000000e+000	0.000000e+000	0.000000e+000
727475	2.521852e-001	5.482789e-001	-5.706330e-003	8.642135e-002	0.000000e+000	0.000000e+000	0.000000e+000	0.000000e+000
732430	2.502617e-001	5.496957e-001	-5.460444e-003	8.727771e-002	0.000000e+000	0.000000e+000	0.000000e+000	0.000000e+000
737385	2.482518e-001	5.511330e-001	-5.218688e-003	8.804738e-002	0.000000e+000	0.000000e+000	0.000000e+000	0.000000e+000
742340	2.463240e-001	5.526131e-001	-5.025865e-003	8.891260e-002	0.000000e+000	0.000000e+000	0.000000e+000	0.000000e+000
747295	2.443349e-001	5.541858e-001	-4.716632e-003	8.965170e-002	0.000000e+000	0.000000e+000	0.000000e+000	0.000000e+000
752250	2.422048e-001	5.557006e-001	-4.473065e-003	9.039418e-002	0.000000e+000	0.000000e+000	0.000000e+000	0.000000e+000
757205	2.401386e-001	5.571156e-001	-4.116111e-003	9.120275e-002	0.000000e+000	0.000000e+000	0.000000e+000	0.000000e+000
762160	2.381817e-001	5.583841e-001	-3.816866e-003	9.200772e-002	0.000000e+000	0.000000e+000	0.000000e+000	0.000000e+000
767115	2.359666e-001	5.599007e-001	-3.584072e-003	9.275050e-002	0.000000e+000	0.000000e+000	0.000000e+000	0.000000e+000
772070	2.337900e-001	5.612223e-001	-3.087181e-003	9.341665e-002	0.000000e+000	0.000000e+000	0.000000e+000	0.000000e+000
777025	2.317300e-001	5.625695e-001	-2.808066e-003	9.416301e-002	0.000000e+000	0.000000e+000	0.000000e+000	0.000000e+000
781980	2.294499e-001	5.642483e-001	-2.417687e-003	9.488207e-002	0.000000e+000	0.000000e+000	0.000000e+000	0.000000e+000
786935	2.272599e-001	5.654335e-001	-2.006306e-003	9.561004e-002	0.000000e+000	0.000000e+000	0.000000e+000	0.000000e+000
791890	2.250122e-001	5.668269e-001	-1.616816e-003	9.629466e-002	0.000000e+000	0.000000e+000	0.000000e+000	0.000000e+000
796845	2.226828e-001	5.682292e-001	-1.169053e-003	9.691825e-002	0.000000e+000	0.000000e+000	0.000000e+000	0.000000e+000
801800	2.203563e-001	5.694807e-001	-7.140670e-004	9.752895e-002	0.000000e+000	0.000000e+000	0.000000e+000	0.000000e+000
806755	2.178975e-001	5.709292e-001	-3.496121e-004	9.812401e-002	0.000000e+000	0.000000e+000	0.000000e+000	0.000000e+000
811710	2.154560e-001	5.723526e-001	1.448804e-004	9.864434e-002	0.000000e+000	0.000000e+000	0.000000e+000	0.000000e+000
816665	2.131757e-001	5.737942e-001	5.613249e-004	9.923703e-002	0.000000e+000	0.000000e+000	0.000000e+000	0.000000e+000
821620	2.107134e-001	5.752636e-001	1.024091e-003	9.972188e-002	0.000000e+000	0.000000e+000	0.000000e+000	0.000000e+000
