!Agilent Technologies,E5071C,MY46109397,A.09.54
!Date: Mon Jan 01 02:05:00 2001
!Data & Calibration Information:
!Freq	S11:SOLT1(ON)	S21:RESPT(ON)	S12:NONE(--)	S22:NONE(--)
# Hz S RI R 50
9000	9.674952e-001	2.982478e-001	8.559626e-001	5.372393e-001	0.000000e+000	0.000000e+000	0.000000e+000	0.000000e+000
13955	9.614927e-001	4.148413e-001	-8.066516e-004	-1.156860e-003	0.000000e+000	0.000000e+000	0.000000e+000	0.000000e+000
18910	9.072383e-001	5.034634e-001	-3.749364e-004	-7.227863e-004	0.000000e+000	0.000000e+000	0.000000e+000	0.000000e+000
23865	8.330454e-001	5.974074e-001	-2.678393e-004	1.195531e-003	0.000000e+000	0.000000e+000	0.000000e+000	0.000000e+000
28820	7.697346e-001	6.761429e-001	-3.996703e-004	-5.922728e-004	0.000000e+000	0.000000e+000	0.000000e+000	0.000000e+000
33775	7.080846e-001	7.367722e-001	-5.743609e-005	2.958494e-004	0.000000e+000	0.000000e+000	0.000000e+000	0.000000e+000
38730	6.519873e-001	7.864193e-001	-3.094712e-004	3.378210e-004	0.000000e+000	0.000000e+000	0.000000e+000	0.000000e+000
43685	6.021376e-001	8.242262e-001	-4.204941e-004	8.998175e-004	0.000000e+000	0.000000e+000	0.000000e+000	0.000000e+000
48640	5.578654e-001	8.526695e-001	-6.099444e-004	3.641935e-004	0.000000e+000	0.000000e+000	0.000000e+000	0.000000e+000
53595	5.211623e-001	8.737584e-001	-1.235597e-003	6.197633e-004	0.000000e+000	0.000000e+000	0.000000e+000	0.000000e+000
58550	4.902633e-001	8.889456e-001	-1.242552e-003	8.895485e-004	0.000000e+000	0.000000e+000	0.000000e+000	0.000000e+000
63505	4.653166e-001	8.992872e-001	-1.331973e-003	1.119882e-003	0.000000e+000	0.000000e+000	0.000000e+000	0.000000e+000
68460	4.458862e-001	9.057007e-001	-1.600679e-003	1.109665e-003	0.000000e+000	0.000000e+000	0.000000e+000	0.000000e+000
73415	4.311136e-001	9.086238e-001	-1.751536e-003	1.172087e-003	0.000000e+000	0.000000e+000	0.000000e+000	0.000000e+000
78370	4.202991e-001	9.090008e-001	-1.707537e-003	1.259003e-003	0.000000e+000	0.000000e+000	0.000000e+000	0.000000e+000
83325	4.130823e-001	9.070876e-001	-2.282077e-003	1.811645e-003	0.000000e+000	0.000000e+000	0.000000e+000	0.000000e+000
88280	4.085243e-001	9.034746e-001	-2.179292e-003	2.095258e-003	0.000000e+000	0.000000e+000	0.000000e+000	0.000000e+000
93235	4.068428e-001	8.981457e-001	-2.327469e-003	2.420893e-003	0.000000e+000	0.000000e+000	0.000000e+000	0.000000e+000
98190	4.067981e-001	8.918014e-001	-2.294100e-003	2.672776e-003	0.000000e+000	0.000000e+000	0.000000e+000	0.000000e+000
103145	4.083956e-001	8.843599e-001	-2.292803e-003	2.737281e-003	0.000000e+000	0.000000e+000	0.000000e+000	0.000000e+000
108100	4.114416e-001	8.758545e-001	-2.631150e-003	3.012762e-003	0.000000e+000	0.000000e+000	0.000000e+000	0.000000e+000
113055	4.154372e-001	8.666022e-001	-2.490359e-003	3.372571e-003	0.000000e+000	0.000000e+000	0.000000e+000	0.000000e+000
118010	4.199992e-001	8.566365e-001	-3.029807e-003	3.436849e-003	0.000000e+000	0.000000e+000	0.000000e+000	0.000000e+000
122965	4.255124e-001	8.461613e-001	-3.025313e-003	4.037029e-003	0.000000e+000	0.000000e+000	0.000000e+000	0.000000e+000
127920	4.309177e-001	8.352203e-001	-3.109037e-003	4.378868e-003	0.000000e+000	0.000000e+000	0.000000e+000	0.000000e+000
132875	4.368125e-001	8.241822e-001	-3.109633e-003	4.525180e-003	0.000000e+000	0.000000e+000	0.000000e+000	0.000000e+000
137830	4.426898e-001	8.126898e-001	-3.153195e-003	4.779446e-003	0.000000e+000	0.000000e+000	0.000000e+000	0.000000e+000
142785	4.486537e-001	8.010366e-001	-3.227057e-003	5.085037e-003	0.000000e+000	0.000000e+000	0.000000e+000	0.000000e+000
147740	4.544080e-001	7.893178e-001	-3.091007e-003	5.184829e-003	0.000000e+000	0.000000e+000	0.000000e+000	0.000000e+000
152695	4.600800e-001	7.776071e-001	-3.327952e-003	5.825811e-003	0.000000e+000	0.000000e+000	0.000000e+000	0.000000e+000
157650	4.656638e-001	7.657676e-001	-3.284991e-003	5.905975e-003	0.000000e+000	0.000000e+000	0.000000e+000	0.000000e+000
162605	4.708896e-001	7.538636e-001	-3.313368e-003	6.143642e-003	0.000000e+000	0.000000e+000	0.000000e+000	0.000000e+000
167560	4.759485e-001	7.420812e-001	-3.434667e-003	6.565727e-003	0.000000e+000	0.000000e+000	0.000000e+000	0.000000e+000
172515	4.807113e-001	7.304083e-001	-3.259446e-003	6.706165e-003	0.000000e+000	0.000000e+000	0.000000e+000	0.000000e+000
177470	4.851926e-001	7.188365e-001	-3.416569e-003	7.020237e-003	0.000000e+000	0.000000e+000	0.000000e+000	0.000000e+000
182425	4.892255e-001	7.072881e-001	-3.308493e-003	7.395206e-003	0.000000e+000	0.000000e+000	0.000000e+000	0.000000e+000
187380	4.928861e-001	6.957647e-001	-3.411826e-003	7.655451e-003	0.000000e+000	0.000000e+000	0.000000e+000	0.000000e+000
192335	4.963041e-001	6.845685e-001	-3.545464e-003	7.916125e-003	0.000000e+000	0.000000e+000	0.000000e+000	0.000000e+000
197290	4.993690e-001	6.735686e-001	-3.377929e-003	8.126097e-003	0.000000e+000	0.000000e+000	0.000000e+000	0.000000e+000
202245	5.020090e-001	6.626167e-001	-3.297991e-003	8.446344e-003	0.000000e+000	0.000000e+000	0.000000e+000	0.000000e+000
207200	5.043085e-001	6.519075e-001	-3.303076e-003	8.630130e-003	0.000000e+000	0.000000e+000	0.000000e+000	0.000000e+000
212155	5.064356e-001	6.414873e-001	-3.345303e-003	8.996818e-003	0.000000e+000	0.000000e+000	0.000000e+000	0.000000e+000
217110	5.080001e-001	6.310263e-001	-3.364807e-003	9.078960e-003	0.000000e+000	0.000000e+000	0.000000e+000	0.000000e+000
222065	5.092272e-001	6.210462e-001	-3.310726e-003	9.418054e-003	0.000000e+000	0.000000e+000	0.000000e+000	0.000000e+000
227020	5.101310e-001	6.113014e-001	-3.339899e-003	9.513773e-003	0.000000e+000	0.000000e+000	0.000000e+000	0.000000e+000
231975	5.106776e-001	6.014768e-001	-3.332281e-003	9.894629e-003	0.000000e+000	0.000000e+000	0.000000e+000	0.000000e+000
236930	5.109255e-001	5.920372e-001	-3.363282e-003	1.013146e-002	0.000000e+000	0.000000e+000	0.000000e+000	0.000000e+000
241885	5.106161e-001	5.829252e-001	-3.307076e-003	1.032861e-002	0.000000e+000	0.000000e+000	0.000000e+000	0.000000e+000
246840	5.100648e-001	5.739784e-001	-3.263797e-003	1.067712e-002	0.000000e+000	0.000000e+000	0.000000e+000	0.000000e+000
251795	5.091216e-001	5.652943e-001	-3.252698e-003	1.088124e-002	0.000000e+000	0.000000e+000	0.000000e+000	0.000000e+000
256750	5.078793e-001	5.570432e-001	-3.196590e-003	1.106267e-002	0.000000e+000	0.000000e+000	0.000000e+000	0.000000e+000
261705	5.063572e-001	5.489583e-001	-3.181338e-003	1.130663e-002	0.000000e+000	0.000000e+000	0.000000e+000	0.000000e+000
266660	5.042820e-001	5.412496e-001	-3.094297e-003	1.162489e-002	0.000000e+000	0.000000e+000	0.000000e+000	0.000000e+000
271615	5.021591e-001	5.339114e-001	-3.191730e-003	1.180138e-002	0.000000e+000	0.000000e+000	0.000000e+000	0.000000e+000
276570	4.996078e-001	5.267572e-001	-3.109461e-003	1.204928e-002	0.000000e+000	0.000000e+000	0.000000e+000	0.000000e+000
281525	4.968020e-001	5.201299e-001	-3.056199e-003	1.221727e-002	0.000000e+000	0.000000e+000	0.000000e+000	0.000000e+000
286480	4.937289e-001	5.135323e-001	-3.072189e-003	1.234117e-002	0.000000e+000	0.000000e+000	0.000000e+000	0.000000e+000
291435	4.904470e-001	5.074122e-001	-3.084645e-003	1.258807e-002	0.000000e+000	0.000000e+000	0.000000e+000	0.000000e+000
296390	4.868866e-001	5.017963e-001	-3.007496e-003	1.269054e-002	0.000000e+000	0.000000e+000	0.000000e+000	0.000000e+000
301345	4.830560e-001	4.964843e-001	-2.996376e-003	1.293477e-002	0.000000e+000	0.000000e+000	0.000000e+000	0.000000e+000
306300	4.791553e-001	4.914636e-001	-2.965715e-003	1.318974e-002	0.000000e+000	0.000000e+000	0.000000e+000	0.000000e+000
311255	4.750073e-001	4.868916e-001	-2.979244e-003	1.330340e-002	0.000000e+000	0.000000e+000	0.000000e+000	0.000000e+000
316210	4.707129e-001	4.826491e-001	-2.970417e-003	1.359588e-002	0.000000e+000	0.000000e+000	0.000000e+000	0.000000e+000
321165	4.662826e-001	4.789607e-001	-2.957173e-003	1.379974e-002	0.000000e+000	0.000000e+000	0.000000e+000	0.000000e+000
326120	4.617595e-001	4.753881e-001	-2.948932e-003	1.394093e-002	0.000000e+000	0.000000e+000	0.000000e+000	0.000000e+000
331075	4.570628e-001	4.723251e-001	-2.971534e-003	1.406653e-002	0.000000e+000	0.000000e+000	0.000000e+000	0.000000e+000
336030	4.525120e-001	4.694926e-001	-2.922609e-003	1.422427e-002	0.000000e+000	0.000000e+000	0.000000e+000	0.000000e+000
340985	4.477647e-001	4.671208e-001	-2.879468e-003	1.443099e-002	0.000000e+000	0.000000e+000	0.000000e+000	0.000000e+000
345940	4.431360e-001	4.650671e-001	-2.901112e-003	1.462936e-002	0.000000e+000	0.000000e+000	0.000000e+000	0.000000e+000
350895	4.384946e-001	4.633073e-001	-3.000129e-003	1.480970e-002	0.000000e+000	0.000000e+000	0.000000e+000	0.000000e+000
355850	4.337965e-001	4.618924e-001	-2.984039e-003	1.496305e-002	0.000000e+000	0.000000e+000	0.000000e+000	0.000000e+000
360805	4.291586e-001	4.607743e-001	-2.998504e-003	1.511636e-002	0.000000e+000	0.000000e+000	0.000000e+000	0.000000e+000
365760	4.243716e-001	4.597937e-001	-3.023155e-003	1.532225e-002	0.000000e+000	0.000000e+000	0.000000e+000	0.000000e+000
370715	4.198793e-001	4.590496e-001	-3.146109e-003	1.560328e-002	0.000000e+000	0.000000e+000	0.000000e+000	0.000000e+000
375670	4.153135e-001	4.586637e-001	-3.097798e-003	1.566962e-002	0.000000e+000	0.000000e+000	0.000000e+000	0.000000e+000
380625	4.108822e-001	4.584115e-001	-3.094465e-003	1.591807e-002	0.000000e+000	0.000000e+000	0.000000e+000	0.000000e+000
385580	4.064888e-001	4.584572e-001	-3.281681e-003	1.605282e-002	0.000000e+000	0.000000e+000	0.000000e+000	0.000000e+000
390535	4.021320e-001	4.586656e-001	-3.230803e-003	1.614190e-002	0.000000e+000	0.000000e+000	0.000000e+000	0.000000e+000
395490	3.978817e-001	4.590726e-001	-3.256343e-003	1.642734e-002	0.000000e+000	0.000000e+000	0.000000e+000	0.000000e+000
400445	3.936243e-001	4.596778e-001	-3.334032e-003	1.660135e-002	0.000000e+000	0.000000e+000	0.000000e+000	0.000000e+000
405400	3.896033e-001	4.603365e-001	-3.433680e-003	1.683575e-002	0.000000e+000	0.000000e+000	0.000000e+000	0.000000e+000
410355	3.854492e-001	4.613193e-001	-3.389648e-003	1.703916e-002	0.000000e+000	0.000000e+000	0.000000e+000	0.000000e+000
415310	3.814991e-001	4.623229e-001	-3.401204e-003	1.715572e-002	0.000000e+000	0.000000e+000	0.000000e+000	0.000000e+000
420265	3.775551e-001	4.635393e-001	-3.434389e-003	1.734276e-002	0.000000e+000	0.000000e+000	0.000000e+000	0.000000e+000
425220	3.737061e-001	4.648025e-001	-3.467621e-003	1.754357e-002	0.000000e+000	0.000000e+000	0.000000e+000	0.000000e+000
430175	3.699502e-001	4.662411e-001	-3.520831e-003	1.773294e-002	0.000000e+000	0.000000e+000	0.000000e+000	0.000000e+000
435130	3.663708e-001	4.677939e-001	-3.611853e-003	1.787564e-002	0.000000e+000	0.000000e+000	0.000000e+000	0.000000e+000
440085	3.626373e-001	4.693188e-001	-3.599613e-003	1.809130e-002	0.000000e+000	0.000000e+000	0.000000e+000	0.000000e+000
445040	3.590815e-001	4.710793e-001	-3.646851e-003	1.825166e-002	0.000000e+000	0.000000e+000	0.000000e+000	0.000000e+000
449995	3.556557e-001	4.729593e-001	-3.714710e-003	1.846432e-002	0.000000e+000	0.000000e+000	0.000000e+000	0.000000e+000
454950	3.523144e-001	4.747165e-001	-3.786647e-003	1.862106e-002	0.000000e+000	0.000000e+000	0.000000e+000	0.000000e+000
459905	3.488835e-001	4.767563e-001	-3.901841e-003	1.891730e-002	0.000000e+000	0.000000e+000	0.000000e+000	0.000000e+000
464860	3.456311e-001	4.786393e-001	-3.918973e-003	1.910930e-002	0.000000e+000	0.000000e+000	0.000000e+000	0.000000e+000
469815	3.424484e-001	4.807960e-001	-4.036730e-003	1.928207e-002	0.000000e+000	0.000000e+000	0.000000e+000	0.000000e+000
474770	3.393071e-001	4.829665e-001	-4.052924e-003	1.948220e-002	0.000000e+000	0.000000e+000	0.000000e+000	0.000000e+000
479725	3.362485e-001	4.851820e-001	-4.017392e-003	1.960232e-002	0.000000e+000	0.000000e+000	0.000000e+000	0.000000e+000
484680	3.331948e-001	4.873923e-001	-4.129912e-003	1.984268e-002	0.000000e+000	0.000000e+000	0.000000e+000	0.000000e+000
489635	3.302211e-001	4.896433e-001	-4.178804e-003	2.007768e-002	0.000000e+000	0.000000e+000	0.000000e+000	0.000000e+000
494590	3.273587e-001	4.918088e-001	-4.317492e-003	2.021815e-002	0.000000e+000	0.000000e+000	0.000000e+000	0.000000e+000
499545	3.246145e-001	4.941252e-001	-4.305379e-003	2.052196e-002	0.000000e+000	0.000000e+000	0.000000e+000	0.000000e+000
504500	3.218371e-001	4.965149e-001	-4.393811e-003	2.068960e-002	0.000000e+000	0.000000e+000	0.000000e+000	0.000000e+000
509455	3.190463e-001	4.988976e-001	-4.347497e-003	2.088036e-002	0.000000e+000	0.000000e+000	0.000000e+000	0.000000e+000
514410	3.164848e-001	5.013115e-001	-4.494147e-003	2.105162e-002	0.000000e+000	0.000000e+000	0.000000e+000	0.000000e+000
519365	3.138312e-001	5.037694e-001	-4.535717e-003	2.123280e-002	0.000000e+000	0.000000e+000	0.000000e+000	0.000000e+000
524320	3.112287e-001	5.063672e-001	-4.661960e-003	2.152585e-002	0.000000e+000	0.000000e+000	0.000000e+000	0.000000e+000
529275	3.086414e-001	5.086324e-001	-4.662585e-003	2.164749e-002	0.000000e+000	0.000000e+000	0.000000e+000	0.000000e+000
534230	3.061513e-001	5.111768e-001	-4.781543e-003	2.185251e-002	0.000000e+000	0.000000e+000	0.000000e+000	0.000000e+000
539185	3.036887e-001	5.136236e-001	-4.795012e-003	2.209584e-002	0.000000e+000	0.000000e+000	0.000000e+000	0.000000e+000
544140	3.011790e-001	5.160000e-001	-4.947228e-003	2.231592e-002	0.000000e+000	0.000000e+000	0.000000e+000	0.000000e+000
549095	2.988970e-001	5.184787e-001	-4.932529e-003	2.253590e-002	0.000000e+000	0.000000e+000	0.000000e+000	0.000000e+000
554050	2.964936e-001	5.209699e-001	-5.041721e-003	2.272341e-002	0.000000e+000	0.000000e+000	0.000000e+000	0.000000e+000
559005	2.941512e-001	5.233539e-001	-5.086324e-003	2.289364e-002	0.000000e+000	0.000000e+000	0.000000e+000	0.000000e+000
563960	2.918748e-001	5.258584e-001	-5.161158e-003	2.311398e-002	0.000000e+000	0.000000e+000	0.000000e+000	0.000000e+000
568915	2.895417e-001	5.282406e-001	-5.229224e-003	2.338259e-002	0.000000e+000	0.000000e+000	0.000000e+000	0.000000e+000
573870	2.873254e-001	5.307929e-001	-5.321251e-003	2.353997e-002	0.000000e+000	0.000000e+000	0.000000e+000	0.000000e+000
578825	2.850622e-001	5.331110e-001	-5.365324e-003	2.379049e-002	0.000000e+000	0.000000e+000	0.000000e+000	0.000000e+000
583780	2.828231e-001	5.355233e-001	-5.546464e-003	2.398820e-002	0.000000e+000	0.000000e+000	0.000000e+000	0.000000e+000
588735	2.805201e-001	5.379299e-001	-5.494923e-003	2.417165e-002	0.000000e+000	0.000000e+000	0.000000e+000	0.000000e+000
593690	2.785318e-001	5.402972e-001	-5.666575e-003	2.443962e-002	0.000000e+000	0.000000e+000	0.000000e+000	0.000000e+000
598645	2.762904e-001	5.427175e-001	-5.593052e-003	2.466058e-002	0.000000e+000	0.000000e+000	0.000000e+000	0.000000e+000
603600	2.741123e-001	5.452162e-001	-5.763499e-003	2.487226e-002	0.000000e+000	0.000000e+000	0.000000e+000	0.000000e+000
608555	2.720212e-001	5.474766e-001	-5.749892e-003	2.510117e-002	0.000000e+000	0.000000e+000	0.000000e+000	0.000000e+000
613510	2.699856e-001	5.497393e-001	-5.847153e-003	2.538391e-002	0.000000e+000	0.000000e+000	0.000000e+000	0.000000e+000
618465	2.677537e-001	5.520884e-001	-5.930671e-003	2.556353e-002	0.000000e+000	0.000000e+000	0.000000e+000	0.000000e+000
623420	2.656829e-001	5.544298e-001	-6.039034e-003	2.576552e-002	0.000000e+000	0.000000e+000	0.000000e+000	0.000000e+000
628375	2.634990e-001	5.568579e-001	-6.037453e-003	2.599140e-002	0.000000e+000	0.000000e+000	0.000000e+000	0.000000e+000
633330	2.614527e-001	5.589705e-001	-6.090499e-003	2.620060e-002	0.000000e+000	0.000000e+000	0.000000e+000	0.000000e+000
638285	2.594052e-001	5.613041e-001	-6.193224e-003	2.646555e-002	0.000000e+000	0.000000e+000	0.000000e+000	0.000000e+000
643240	2.572017e-001	5.635263e-001	-6.246656e-003	2.660227e-002	0.000000e+000	0.000000e+000	0.000000e+000	0.000000e+000
648195	2.551061e-001	5.658137e-001	-6.332177e-003	2.685523e-002	0.000000e+000	0.000000e+000	0.000000e+000	0.000000e+000
653150	2.529718e-001	5.680023e-001	-6.391750e-003	2.705986e-002	0.000000e+000	0.000000e+000	0.000000e+000	0.000000e+000
658105	2.509362e-001	5.702818e-001	-6.442647e-003	2.735418e-002	0.000000e+000	0.000000e+000	0.000000e+000	0.000000e+000
663060	2.488285e-001	5.724566e-001	-6.555374e-003	2.753299e-002	0.000000e+000	0.000000e+000	0.000000e+000	0.000000e+000
668015	2.467899e-001	5.745838e-001	-6.631375e-003	2.782773e-002	0.000000e+000	0.000000e+000	0.000000e+000	0.000000e+000
672970	2.445508e-001	5.767992e-001	-6.608669e-003	2.798996e-002	0.000000e+000	0.000000e+000	0.000000e+000	0.000000e+000
677925	2.424657e-001	5.788763e-001	-6.699353e-003	2.821258e-002	0.000000e+000	0.000000e+000	0.000000e+000	0.000000e+000
682880	2.403127e-001	5.810798e-001	-6.812854e-003	2.845927e-002	0.000000e+000	0.000000e+000	0.000000e+000	0.000000e+000
687835	2.382847e-001	5.831342e-001	-6.872765e-003	2.867235e-002	0.000000e+000	0.000000e+000	0.000000e+000	0.000000e+000
692790	2.360850e-001	5.852582e-001	-6.849795e-003	2.895304e-002	0.000000e+000	0.000000e+000	0.000000e+000	0.000000e+000
697745	2.339912e-001	5.872746e-001	-6.965321e-003	2.911160e-002	0.000000e+000	0.000000e+000	0.000000e+000	0.000000e+000
702700	2.318900e-001	5.893402e-001	-6.998469e-003	2.938756e-002	0.000000e+000	0.000000e+000	0.000000e+000	0.000000e+000
707655	2.296846e-001	5.914219e-001	-7.082446e-003	2.963762e-002	0.000000e+000	0.000000e+000	0.000000e+000	0.000000e+000
712610	2.274989e-001	5.933551e-001	-7.226226e-003	2.989803e-002	0.000000e+000	0.000000e+000	0.000000e+000	0.000000e+000
717565	2.254834e-001	5.954847e-001	-7.236230e-003	3.001642e-002	0.000000e+000	0.000000e+000	0.000000e+000	0.000000e+000
722520	2.233188e-001	5.971202e-001	-7.218409e-003	3.062037e-002	0.000000e+000	0.000000e+000	0.000000e+000	0.000000e+000
727475	2.211028e-001	5.994021e-001	-7.396769e-003	3.042492e-002	0.000000e+000	0.000000e+000	0.000000e+000	0.000000e+000
732430	2.189052e-001	6.013560e-001	-7.442507e-003	3.068141e-002	0.000000e+000	0.000000e+000	0.000000e+000	0.000000e+000
737385	2.167312e-001	6.032611e-001	-7.491022e-003	3.096911e-002	0.000000e+000	0.000000e+000	0.000000e+000	0.000000e+000
742340	2.145716e-001	6.052250e-001	-7.614237e-003	3.113971e-002	0.000000e+000	0.000000e+000	0.000000e+000	0.000000e+000
747295	2.123396e-001	6.072757e-001	-7.659777e-003	3.141053e-002	0.000000e+000	0.000000e+000	0.000000e+000	0.000000e+000
752250	2.099960e-001	6.092906e-001	-7.699604e-003	3.159780e-002	0.000000e+000	0.000000e+000	0.000000e+000	0.000000e+000
757205	2.077345e-001	6.111657e-001	-7.768985e-003	3.181291e-002	0.000000e+000	0.000000e+000	0.000000e+000	0.000000e+000
762160	2.056230e-001	6.128990e-001	-7.844895e-003	3.207529e-002	0.000000e+000	0.000000e+000	0.000000e+000	0.000000e+000
767115	2.032775e-001	6.148824e-001	-7.874651e-003	3.225734e-002	0.000000e+000	0.000000e+000	0.000000e+000	0.000000e+000
772070	2.009535e-001	6.166669e-001	-8.003103e-003	3.247913e-002	0.000000e+000	0.000000e+000	0.000000e+000	0.000000e+000
777025	1.987808e-001	6.184829e-001	-8.097886e-003	3.268523e-002	0.000000e+000	0.000000e+000	0.000000e+000	0.000000e+000
781980	1.964118e-001	6.205909e-001	-8.151174e-003	3.290439e-002	0.000000e+000	0.000000e+000	0.000000e+000	0.000000e+000
786935	1.941441e-001	6.222713e-001	-8.137924e-003	3.316527e-002	0.000000e+000	0.000000e+000	0.000000e+000	0.000000e+000
791890	1.919117e-001	6.240895e-001	-8.298735e-003	3.333842e-002	0.000000e+000	0.000000e+000	0.000000e+000	0.000000e+000
796845	1.895527e-001	6.259173e-001	-8.339210e-003	3.359739e-002	0.000000e+000	0.000000e+000	0.000000e+000	0.000000e+000
801800	1.872441e-001	6.276005e-001	-8.456986e-003	3.383756e-002	0.000000e+000	0.000000e+000	0.000000e+000	0.000000e+000
806755	1.848079e-001	6.294124e-001	-8.506578e-003	3.402679e-002	0.000000e+000	0.000000e+000	0.000000e+000	0.000000e+000
811710	1.824390e-001	6.312424e-001	-8.592088e-003	3.427570e-002	0.000000e+000	0.000000e+000	0.000000e+000	0.000000e+000
816665	1.801723e-001	6.330059e-001	-8.694757e-003	3.452214e-002	0.000000e+000	0.000000e+000	0.000000e+000	0.000000e+000
821620	1.778253e-001	6.347714e-001	-8.746370e-003	3.472714e-002	0.000000e+000	0.000000e+000	0.000000e+000	0.000000e+000
